[14:47:14-476]feed
[14:47:14-476]device:9100334 csq:20 net:1 server:1, relay:1
[14:47:14-570]Pr:  len=13, data=00 8a dc 2e 03 40 00 00 22 d1 00 01 00 
[14:47:14-570]Pr:  len=2, data=3e ea 
[14:47:14-851]CSQ: 20
[14:47:14-976]feed
[14:47:15-476]feed
[14:47:15-476]device:9100334 csq:20 net:1 server:1, relay:1
[14:47:15-711]<Recv>:
[14:47:15-711]id = 18f61111, dlc = 7
[14:47:15-711]04 48 08 5c 08 5c 08 
[14:47:15-711]power in:cfg=4, VA=212(V), VB=214(V), VC=214(V)
[14:47:15-976]feed
[14:47:16-336]probe u_value = 0
[14:47:16-336]probe u_value = 0
[14:47:16-336]probe u_value = 0
[14:47:16-351]Rw:  len=8, data=01 06 00 0a 00 00 a9 c8 
[14:47:16-476]Rr:  len=1, data=feed
[14:47:16-476]device:9100334 csq:20 net:1 server:1, relay:1
[14:47:16-976]feed
[14:47:17-070]Pr:  len=13, data=00 8a dc 2e 16 40 00 05 20 00 00 01 00 
[14:47:17-086]Pr:  len=2, data=8c d3 
[14:47:17-086]Pw:  len=15, data=00 8a dc 2e 16 40 00 05 20 d0 00 01 00 b4 13 
[14:47:17-086]
[14:47:17-086]eeprom write: 10 page
[14:47:17-101]03 00 00 00 00 00 00 00 00 00 00 00 00 00 00 00 00 00 00 00 00 00 00 00 00 00 00 00 00 00 fd bf 
[14:47:17-351]read each start
[14:47:17-367]Rw:  len=8, data=01 03 00 00 00 05 85 c9 
[14:47:17-367]Rr:  len=1, data=now: 2023-01-13 14:47:14
[14:47:17-492]feed
[14:47:17-492]device:9100334 csq:0 net:0 server:0, relay:1
[14:47:17-601]<USend>:
[14:47:17-601]id = 0c011101, dlc = 0
[14:47:17-601]
[14:47:17-992]feed
[14:47:18-367]
[14:47:18-367]Sensors read rc -2 s -2
[14:47:18-492]feed
[14:47:18-492]device:9100334 csq:0 net:0 server:0, relay:1
[14:47:18-992]feed
[14:47:19-383]Rw:  len=8, data=02 03 00 00 00 03 05 f8 
[14:47:19-492]Rr:  len=1, data=feed
[14:47:19-508]device:9100334 csq:0 net:0 server:0, relay:1
[14:47:20-008]feed
[14:47:20-398]
[14:47:20-398]Sensors read rc -2 s -2
[14:47:20-508]feed
[14:47:20-508]device:9100334 csq:0 net:0 server:0, relay:1
[14:47:21-008]feed
[14:47:21-398]read each end
[14:47:21-398]indicators_values[1].sensor = 20000a1c
[14:47:21-414]indicators_values[2].sensor = 20000a8c
[14:47:21-508]feed
[14:47:21-523]device:9100334 csq:0 net:0 server:0, relay:1
[14:47:22-023]feed
[14:47:22-414]air blow: err: 10, rst: 3, status: -2
[14:47:22-430]Rw:  len=8, data=fb 03 00 00 00 0a d1 97 
[14:47:22-523]Rr:  len=1, data=feed
[14:47:22-523]device:9100334 csq:0 net:0 server:0, relay:1
[14:47:22-617]feed
[14:47:22-617]Log level: TRACE
[14:47:22-617]<Jan  5 2023-17:59:57> boot file <BOOT_V1.0.0> at 08000400
[14:47:22-617]APP file exist
[14:47:22-617]Factory file exist
[14:47:22-633]BOOT_V1.0.0
[14:47:22-633]eeprom read: 4094 page
[14:47:22-633]00 00 00 00 00 00 00 00 01 01 00 00 00 00 02 00 ff ff ff ff 00 00 00 00 00 00 00 00 00 00 70 30 
[14:47:22-648]eeprom read: 4095 page
[14:47:22-648]00 00 00 00 00 00 00 00 01 02 00 01 00 00 02 00 ff ff ff ff 00 00 00 00 00 00 00 00 00 00 7e ff 
[14:47:22-648]waiting for check app info ... ...
[14:47:22-664]PN_CODE:Y-515
[14:47:22-664][ERROR:24]:download data not finish
[14:47:22-680]Ready Jump to App,AppAddress:8010000
[14:47:22-695]Log level: NONE
[14:47:22-695]
[14:47:22-695] _______   _____    _____ 
[14:47:22-695]|__  /\ \ / /_ _|__|_   _|
[14:47:22-711]  / /  \ V / | |/ _ \| |
[14:47:22-711] / /_   | |  | | (_) | |
[14:47:22-711]/____|  |_| |___\___/|_|
[14:47:22-711]
[14:47:22-711]http://www.zytdwl.cn
[14:47:22-711]
[14:47:22-711]3G online device <Y-515_APP_V1.0.0> at 08010400
[14:47:22-711]compiler at <Jan 10 2023-17:18:15>
[14:47:22-726]eeprom read: 8 page
[14:47:22-742]2e dc 8a 00 00 00 00 00 00 01 00 00 00 00 00 00 00 00 00 00 00 00 00 00 00 00 00 00 00 00 b0 fa 
[14:47:22-742]system load rc: 0
[14:47:22-742]eeprom read: 9 page
[14:47:22-758]01 00 00 00 00 00 00 00 00 00 00 00 00 00 00 00 00 00 00 00 00 00 00 00 00 00 00 00 00 00 ff 1f 
[14:47:22-758]device_enable load rc: 0
[14:47:22-758]eeprom read: 10 page
[14:47:22-773]03 00 00 00 00 00 00 00 00 00 00 00 00 00 00 00 00 00 00 00 00 00 00 00 00 00 00 00 00 00 fd bf 
[14:47:22-773]device_connect load rc: 0
[14:47:22-773]eeprom read: 32 page
[14:47:22-789]00 00 00 00 00 00 00 00 00 00 00 00 00 00 00 00 00 00 00 00 00 00 00 00 00 00 00 00 00 00 fe 4f 
[14:47:22-789]probe_enable load rc: 0
[14:47:22-789]eeprom read: 40 page
[14:47:22-805]00 00 00 00 00 00 00 00 00 00 00 00 00 00 00 00 00 00 00 00 00 00 00 00 00 00 00 00 00 00 fe 4f 
[14:47:22-805]pump_status load rc: 0
[14:47:22-805]eeprom read: 56 page
[14:47:22-820]01 01 00 00 02 00 00 00 00 00 00 00 00 00 00 00 00 00 00 00 00 00 00 00 00 00 00 00 00 00 cc a1 
[14:47:22-820]eeprom read: 57 page
[14:47:22-836]01 01 00 00 02 00 00 00 00 00 00 00 00 00 00 00 00 00 00 00 00 00 00 00 00 00 00 00 00 00 cc a1 
[14:47:22-836]eeprom read: 58 page
[14:47:22-836]01 01 00 00 01 00 00 00 00 00 00 00 00 00 00 00 00 00 00 00 00 00 00 00 00 00 00 00 00 00 c7 e1 
[14:47:22-836]sensor load rc: 0
[14:47:22-851]eeprom read: 312 page
[14:47:22-851]00 00 00 00 00 00 00 00 00 00 00 00 00 00 00 00 00 00 00 00 00 00 00 00 00 00 00 00 00 00 fe 4f 
[14:47:22-851]eeprom read: 313 page
[14:47:22-867]00 00 00 00 00 00 00 00 00 00 00 00 00 00 00 00 00 00 00 00 00 00 00 00 00 00 00 00 00 00 fe 4f 
[14:47:22-867]eeprom read: 314 page
[14:47:22-883]00 00 00 00 00 00 00 00 00 00 00 00 00 00 00 00 00 00 00 00 00 00 00 00 00 00 00 00 00 00 fe 4f 
[14:47:22-883]eeprom read: 315 page
[14:47:22-898]00 00 00 00 00 00 00 00 00 00 00 00 00 00 00 00 00 00 00 00 00 00 00 00 00 00 00 00 00 00 fe 4f 
[14:47:22-898]eeprom read: 316 page
[14:47:22-914]00 00 00 00 00 00 00 00 00 00 00 00 00 00 00 00 00 00 00 00 00 00 00 00 00 00 00 00 00 00 fe 4f 
[14:47:22-914]eeprom read: 317 page
[14:47:22-930]00 00 00 00 00 00 00 00 00 00 00 00 00 00 00 00 00 00 00 00 00 00 00 00 00 00 00 00 00 00 fe 4f 
[14:47:22-930]eeprom read: 318 page
[14:47:22-930]00 00 00 00 00 00 00 00 00 00 00 00 00 00 00 00 00 00 00 00 00 00 00 00 00 00 00 00 00 00 fe 4f 
[14:47:22-930]eeprom read: 319 page
[14:47:22-945]00 00 00 00 00 00 00 00 00 00 00 00 00 00 00 00 00 00 00 00 00 00 00 00 00 00 00 00 00 00 fe 4f 
[14:47:22-945]compensation load rc: 0
[14:47:22-945]eeprom read: 448 page
[14:47:22-961]00 00 00 00 00 00 00 00 00 00 00 00 00 00 00 00 00 00 00 00 00 00 00 00 00 00 00 00 00 00 fe 4f 
[14:47:22-961]eeprom read: 449 page
[14:47:22-976]00 00 00 00 00 00 00 00 00 00 00 00 00 00 00 00 00 00 00 00 00 00 00 00 00 00 00 00 00 00 fe 4f 
[14:47:22-976]eeprom read: 450 page
[14:47:22-992]00 00 00 00 00 00 00 00 00 00 00 00 00 00 00 00 00 00 00 00 00 00 00 00 00 00 00 00 00 00 fe 4f 
[14:47:22-992]eeprom read: 451 page
[14:47:23-008]00 00 00 00 00 00 00 00 00 00 00 00 00 00 00 00 00 00 00 00 00 00 00 00 00 00 00 00 00 00 fe 4f 
[14:47:23-008]eeprom read: 452 page
[14:47:23-023]00 00 00 00 00 00 00 00 00 00 00 00 00 00 00 00 00 00 00 00 00 00 00 00 00 00 00 00 00 00 fe 4f 
[14:47:23-023]eeprom read: 453 page
[14:47:23-023]00 00 00 00 00 00 00 00 00 00 00 00 00 00 00 00 00 00 00 00 00 00 00 00 00 00 00 00 00 00 fe 4f 
[14:47:23-023]eeprom read: 454 page
[14:47:23-039]00 00 00 00 00 00 00 00 00 00 00 00 00 00 00 00 00 00 00 00 00 00 00 00 00 00 00 00 00 00 fe 4f 
[14:47:23-039]eeprom read: 455 page
[14:47:23-039]00 00 00 00 00 00 00 00 00 00 00 00 00 00 00 00 00 00 00 00 00 00 00 00 00 00 00 00 00 00 fe 4f 
[14:47:23-055]indicator_alert load rc: 0
[14:47:23-055]eeprom read: 704 page
[14:47:23-070]00 00 00 00 00 00 00 00 00 00 00 00 00 00 00 00 00 00 00 00 00 00 00 00 00 00 00 00 00 00 fe 4f 
[14:47:23-070]eeprom read: 705 page
[14:47:23-086]00 00 00 00 00 00 00 00 00 00 00 00 00 00 00 00 00 00 00 00 00 00 00 00 00 00 00 00 00 00 fe 4f 
[14:47:23-086]eeprom read: 706 page
[14:47:23-101]00 00 00 00 00 00 00 00 00 00 00 00 00 00 00 00 00 00 00 00 00 00 00 00 00 00 00 00 00 00 fe 4f 
[14:47:23-101]eeprom read: 707 page
[14:47:23-117]00 00 00 00 00 00 00 00 00 00 00 00 00 00 00 00 00 00 00 00 00 00 00 00 00 00 00 00 00 00 fe 4f 
[14:47:23-117]eeprom read: 708 page
[14:47:23-117]00 00 00 00 00 00 00 00 00 00 00 00 00 00 00 00 00 00 00 00 00 00 00 00 00 00 00 00 00 00 fe 4f 
[14:47:23-117]eeprom read: 709 page
[14:47:23-133]00 00 00 00 00 00 00 00 00 00 00 00 00 00 00 00 00 00 00 00 00 00 00 00 00 00 00 00 00 00 fe 4f 
[14:47:23-133]eeprom read: 710 page
[14:47:23-148]00 00 00 00 00 00 00 00 00 00 00 00 00 00 00 00 00 00 00 00 00 00 00 00 00 00 00 00 00 00 fe 4f 
[14:47:23-148]eeprom read: 711 page
[14:47:23-164]00 00 00 00 00 00 00 00 00 00 00 00 00 00 00 00 00 00 00 00 00 00 00 00 00 00 00 00 00 00 fe 4f 
[14:47:23-164]eeprom read: 712 page
[14:47:23-180]00 00 00 00 00 00 00 00 00 00 00 00 00 00 00 00 00 00 00 00 00 00 00 00 00 00 00 00 00 00 fe 4f 
[14:47:23-180]eeprom read: 713 page
[14:47:23-195]00 00 00 00 00 00 00 00 00 00 00 00 00 00 00 00 00 00 00 00 00 00 00 00 00 00 00 00 00 00 fe 4f 
[14:47:23-195]eeprom read: 714 page
[14:47:23-195]00 00 00 00 00 00 00 00 00 00 00 00 00 00 00 00 00 00 00 00 00 00 00 00 00 00 00 00 00 00 fe 4f 
[14:47:23-195]eeprom read: 715 page
[14:47:23-211]00 00 00 00 00 00 00 00 00 00 00 00 00 00 00 00 00 00 00 00 00 00 00 00 00 00 00 00 00 00 fe 4f 
[14:47:23-211]eeprom read: 716 page
[14:47:23-226]00 00 00 00 00 00 00 00 00 00 00 00 00 00 00 00 00 00 00 00 00 00 00 00 00 00 00 00 00 00 fe 4f 
[14:47:23-226]eeprom read: 717 page
[14:47:23-242]00 00 00 00 00 00 00 00 00 00 00 00 00 00 00 00 00 00 00 00 00 00 00 00 00 00 00 00 00 00 fe 4f 
[14:47:23-242]eeprom read: 718 page
[14:47:23-258]00 00 00 00 00 00 00 00 00 00 00 00 00 00 00 00 00 00 00 00 00 00 00 00 00 00 00 00 00 00 fe 4f 
[14:47:23-258]eeprom read: 719 page
[14:47:23-273]00 00 00 00 00 00 00 00 00 00 00 00 00 00 00 00 00 00 00 00 00 00 00 00 00 00 00 00 00 00 fe 4f 
[14:47:23-273]eeprom read: 720 page
[14:47:23-273]00 00 00 00 00 00 00 00 00 00 00 00 00 00 00 00 00 00 00 00 00 00 00 00 00 00 00 00 00 00 fe 4f 
[14:47:23-273]eeprom read: 721 page
[14:47:23-289]00 00 00 00 00 00 00 00 00 00 00 00 00 00 00 00 00 00 00 00 00 00 00 00 00 00 00 00 00 00 fe 4f 
[14:47:23-289]eeprom read: 722 page
[14:47:23-305]00 00 00 00 00 00 00 00 00 00 00 00 00 00 00 00 00 00 00 00 00 00 00 00 00 00 00 00 00 00 fe 4f 
[14:47:23-305]eeprom read: 723 page
[14:47:23-320]00 00 00 00 00 00 00 00 00 00 00 00 00 00 00 00 00 00 00 00 00 00 00 00 00 00 00 00 00 00 fe 4f 
[14:47:23-320]eeprom read: 724 page
[14:47:23-336]00 00 00 00 00 00 00 00 00 00 00 00 00 00 00 00 00 00 00 00 00 00 00 00 00 00 00 00 00 00 fe 4f 
[14:47:23-336]eeprom read: 725 page
[14:47:23-351]00 00 00 00 00 00 00 00 00 00 00 00 00 00 00 00 00 00 00 00 00 00 00 00 00 00 00 00 00 00 fe 4f 
[14:47:23-351]eeprom read: 726 page
[14:47:23-351]00 00 00 00 00 00 00 00 00 00 00 00 00 00 00 00 00 00 00 00 00 00 00 00 00 00 00 00 00 00 fe 4f 
[14:47:23-351]eeprom read: 727 page
[14:47:23-367]00 00 00 00 00 00 00 00 00 00 00 00 00 00 00 00 00 00 00 00 00 00 00 00 00 00 00 00 00 00 fe 4f 
[14:47:23-367]eeprom read: 728 page
[14:47:23-383]00 00 00 00 00 00 00 00 00 00 00 00 00 00 00 00 00 00 00 00 00 00 00 00 00 00 00 00 00 00 fe 4f 
[14:47:23-383]eeprom read: 729 page
[14:47:23-398]00 00 00 00 00 00 00 00 00 00 00 00 00 00 00 00 00 00 00 00 00 00 00 00 00 00 00 00 00 00 fe 4f 
[14:47:23-398]eeprom read: 730 page
[14:47:23-414]00 00 00 00 00 00 00 00 00 00 00 00 00 00 00 00 00 00 00 00 00 00 00 00 00 00 00 00 00 00 fe 4f 
[14:47:23-414]eeprom read: 731 page
[14:47:23-430]00 00 00 00 00 00 00 00 00 00 00 00 00 00 00 00 00 00 00 00 00 00 00 00 00 00 00 00 00 00 fe 4f 
[14:47:23-430]eeprom read: 732 page
[14:47:23-430]00 00 00 00 00 00 00 00 00 00 00 00 00 00 00 00 00 00 00 00 00 00 00 00 00 00 00 00 00 00 fe 4f 
[14:47:23-430]eeprom read: 733 page
[14:47:23-445]00 00 00 00 00 00 00 00 00 00 00 00 00 00 00 00 00 00 00 00 00 00 00 00 00 00 00 00 00 00 fe 4f 
[14:47:23-445]eeprom read: 734 page
[14:47:23-461]00 00 00 00 00 00 00 00 00 00 00 00 00 00 00 00 00 00 00 00 00 00 00 00 00 00 00 00 00 00 fe 4f 
[14:47:23-461]eeprom read: 735 page
[14:47:23-476]00 00 00 00 00 00 00 00 00 00 00 00 00 00 00 00 00 00 00 00 00 00 00 00 00 00 00 00 00 00 fe 4f 
[14:47:23-476]limit load rc: 0
[14:47:23-476]eeprom read: 1496 page
[14:47:23-492]00 00 00 00 00 00 00 00 00 00 00 00 00 00 00 00 00 00 00 00 00 00 00 00 00 00 00 00 00 00 fe 4f 
[14:47:23-492]relay load rc: 0
[14:47:23-492]eeprom read: 1504 page
[14:47:23-508]01 01 00 00 00 00 00 00 00 00 00 00 00 00 00 00 00 00 00 00 00 00 00 00 00 00 00 00 00 00 3f 1e 
[14:47:23-508]times_enable load rc: 0
[14:47:23-508]eeprom read: 1512 page
[14:47:23-523]02 00 20 00 00 00 00 00 00 00 81 0e 2e 10 17 00 00 00 00 00 00 00 00 00 00 00 00 00 00 00 c0 53 
[14:47:23-523]eeprom read: 1513 page
[14:47:23-539]00 00 00 00 00 00 00 00 00 00 00 00 00 00 00 00 00 00 00 00 00 00 00 00 00 00 00 00 00 00 fe 4f 
[14:47:23-539]eeprom read: 1514 page
[14:47:23-539]00 00 00 00 00 00 00 00 00 00 00 00 00 00 00 00 00 00 00 00 00 00 00 00 00 00 00 00 00 00 fe 4f 
[14:47:23-539]eeprom read: 1515 page
[14:47:23-555]00 00 00 00 00 00 00 00 00 00 00 00 00 00 00 00 00 00 00 00 00 00 00 00 00 00 00 00 00 00 fe 4f 
[14:47:23-555]eeprom read: 1516 page
[14:47:23-570]00 00 00 00 00 00 00 00 00 00 00 00 00 00 00 00 00 00 00 00 00 00 00 00 00 00 00 00 00 00 fe 4f 
[14:47:23-570]eeprom read: 1517 page
[14:47:23-586]00 00 00 00 00 00 00 00 00 00 00 00 00 00 00 00 00 00 00 00 00 00 00 00 00 00 00 00 00 00 fe 4f 
[14:47:23-586]eeprom read: 1518 page
[14:47:23-601]00 00 00 00 00 00 00 00 00 00 00 00 00 00 00 00 00 00 00 00 00 00 00 00 00 00 00 00 00 00 fe 4f 
[14:47:23-601]eeprom read: 1519 page
[14:47:23-617]00 00 00 00 00 00 00 00 00 00 00 00 00 00 00 00 00 00 00 00 00 00 00 00 00 00 00 00 00 00 fe 4f 
[14:47:23-617]times load rc: 0
[14:47:23-617]eeprom read: 1576 page
[14:47:23-633]01 01 00 17 01 0d 0b 28 13 17 01 0d 0c 00 13 00 00 00 00 00 00 00 00 00 00 00 00 00 00 00 08 12 
[14:47:23-633]eeprom read: 1577 page
[14:47:23-648]01 01 00 17 01 0d 0b 28 1c 17 01 0d 0c 00 1c 00 00 00 00 00 00 00 00 00 00 00 00 00 00 00 f2 a6 
[14:47:23-648]eeprom read: 1578 page
[14:47:23-648]01 01 00 17 01 0d 0e 2a 32 17 01 0d 0f 02 32 00 00 00 00 00 00 00 00 00 00 00 00 00 00 00 c5 91 
[14:47:23-648]eeprom read: 1579 page
[14:47:23-664]01 01 00 17 01 0d 0a 04 1e 17 01 0d 0a 18 1e 00 00 00 00 00 00 00 00 00 00 00 00 00 00 00 28 49 
[14:47:23-664]eeprom read: 1580 page
[14:47:23-680]01 01 00 17 01 0d 0a 05 39 17 01 0d 0a 19 39 00 00 00 00 00 00 00 00 00 00 00 00 00 00 00 fb 53 
[14:47:23-680]manual_relay load rc: 0
[14:47:23-680]eeprom read: 1712 page
[14:47:23-695]00 00 00 00 00 00 00 00 00 00 00 00 00 00 00 00 00 00 00 00 00 00 00 00 00 00 00 00 00 00 fe 4f 
[14:47:23-695]eeprom read: 1713 page
[14:47:23-711]00 00 00 00 00 00 00 00 00 00 00 00 00 00 00 00 00 00 00 00 00 00 00 00 00 00 00 00 00 00 fe 4f 
[14:47:23-711]eeprom read: 1714 page
[14:47:23-726]00 00 00 00 00 00 00 00 00 00 00 00 00 00 00 00 00 00 00 00 00 00 00 00 00 00 00 00 00 00 fe 4f 
[14:47:23-726]eeprom read: 1715 page
[14:47:23-742]00 00 00 00 00 00 00 00 00 00 00 00 00 00 00 00 00 00 00 00 00 00 00 00 00 00 00 00 00 00 fe 4f 
[14:47:23-742]eeprom read: 1716 page
[14:47:23-742]00 00 00 00 00 00 00 00 00 00 00 00 00 00 00 00 00 00 00 00 00 00 00 00 00 00 00 00 00 00 fe 4f 
[14:47:23-758]relay power config load rc: 0
[14:47:23-758]eeprom read: 2046 page
[14:47:23-758]00 00 00 00 00 00 00 00 01 01 00 00 00 00 02 00 ff ff ff ff 00 00 00 00 00 00 00 00 00 00 70 30 
[14:47:23-758]eeprom read: 2047 page
[14:47:23-773]00 00 00 00 00 00 00 00 01 02 00 01 00 00 02 00 ff ff ff ff 00 00 00 00 00 00 00 00 00 00 7e ff 
[14:47:23-773]firmware info load rc: 0
[14:47:23-773]config init rc: 0
[14:47:23-789]PROTOCOL handle 10002ae8
[14:47:23-789]SENSORS handle 10004758
[14:47:23-805]NETWORK handle 100063c8
[14:47:23-820]WDG handle 10006838
[14:47:23-836]RELAY handle 100084a8
[14:47:23-851]CAN_tx handle 10009518
[14:47:23-851]CAN_rx handle 1000a588
[14:47:23-867]GPRS handle 1000adf8
[14:47:23-883]Rw:  len=8, data=fb 06 00 0d 00 01 cd 93 
[14:47:24-101]Rr:  len=2, data=RTC init LSE
[14:47:24-101]RTC use LSE
[14:47:24-148]RTC use LSE OK
[14:47:24-289]feed
[14:47:24-789]feed
[14:47:24-789]device:9100334 csq:0 net:0 server:0, relay:0
[14:47:25-289]feed
[14:47:25-648]load: 2023-01-13 14:47:22
[14:47:25-789]feed
[14:47:25-789]device:9100334 csq:0 net:0 server:0, relay:0
[14:47:25-851]AHT20 read
[14:47:25-851]AHT20: status: -1, temperature: 0.000000 humidity:0.000000
[14:47:25-898]refresh status start
[14:47:25-898]sensor config model_id = 1
[14:47:25-898]sensor config model_id = 2
[14:47:25-914]refresh status end
[14:47:25-914]air blow: err: 0, rst: 0, status: -1
[14:47:25-914]Rw:  len=8, data=fb 03 00 00 00 0a d1 97 
[14:47:25-930]Rr:  len=1, data=Gr:  len=9, data=a5 5a 00 00 04 00 00 ff ff 
[14:47:25-930]Gr:  len=2, data=b8 94 
[14:47:25-930]Gw:  len=15, data=a5 5a 00 00 04 04 00 fb ff 00 8a dc 2e 9c 0d 
[14:47:25-930]
[14:47:26-289]feed
[14:47:26-789]feed
[14:47:26-789]device:9100334 csq:0 net:0 server:0, relay:0
[14:47:27-226]<Recv>:
[14:47:27-226]id = 18f51111, dlc = 6
[14:47:27-226]01 00 02 00 00 00 
[14:47:27-242]dev_relay:ch=1, os=0, ks=2, err=0, cur=0(mA)
[14:47:27-242]<Recv>:
[14:47:27-242]id = 18f51111, dlc = 6
[14:47:27-242]02 00 02 00 00 00 
[14:47:27-242]dev_relay:ch=2, os=0, ks=2, err=0, cur=0(mA)
[14:47:27-242]<Recv>:
[14:47:27-242]id = 18f51111, dlc = 6
[14:47:27-258]03 00 02 00 00 00 
[14:47:27-258]dev_relay:ch=3, os=0, ks=2, err=0, cur=0(mA)
[14:47:27-258]<Recv>:
[14:47:27-258]id = 18f51111, dlc = 6
[14:47:27-258]04 00 02 00 01 00 
[14:47:27-273]dev_relay:ch=4, os=0, ks=2, err=0, cur=10(mA)
[14:47:27-273]<Recv>:
[14:47:27-273]id = 18f51111, dlc = 6
[14:47:27-273]05 00 02 00 01 00 
[14:47:27-273]dev_relay:ch=5, os=0, ks=2, err=0, cur=10(mA)
[14:47:27-289]feed
[14:47:27-633]<Recv>:
[14:47:27-633]id = 18f00111, dlc = 8
[14:47:27-633]01 00 00 00 01 00 00 00 
[14:47:27-633]relay_H: 1.0.0.0        relay_F: 1.0.0.0
[14:47:27-742]<Recv>:
[14:47:27-742]id = 18f00211, dlc = 8
[14:47:27-742]52 45 4c 41 59 00 00 00 
[14:47:27-742]relay_PN: RELAY
[14:47:27-805]feed
[14:47:27-805]device:9100334 csq:0 net:0 server:0, relay:1
[14:47:27-851]<Recv>:
[14:47:27-851]id = 18f00311, dlc = 7
[14:47:27-851]59 04 00 00 00 00 00 
[14:47:27-851]relay_SN: 1113000000000
[14:47:27-930]air blow: err: 1, rst: 0, status: -2
[14:47:27-930]Rw:  len=8, data=fb 03 00 00 00 0a d1 97 
[14:47:28-305]Rr:  len=1, data=feed
[14:47:28-805]feed
[14:47:28-805]device:9100334 csq:0 net:0 server:0, relay:1
[14:47:29-305]feed
[14:47:29-805]feed
[14:47:29-805]device:9100334 csq:0 net:0 server:0, relay:1
[14:47:29-945]air blow: err: 2, rst: 0, status: -2
[14:47:29-945]Rw:  len=8, data=fb 03 00 00 00 0a d1 97 
[14:47:30-305]Rr:  len=1, data=feed
[14:47:30-805]feed
[14:47:30-805]device:9100334 csq:0 net:0 server:0, relay:1
[14:47:31-305]feed
[14:47:31-820]feed
[14:47:31-820]device:9100334 csq:0 net:0 server:0, relay:1
[14:47:31-961]air blow: err: 3, rst: 0, status: -2
[14:47:31-961]Rw:  len=8, data=fb 03 00 00 00 0a d1 97 
[14:47:32-320]Rr:  len=1, data=feed
[14:47:32-820]feed
[14:47:32-820]device:9100334 csq:0 net:0 server:0, relay:1
[14:47:33-320]feed
[14:47:33-820]feed
[14:47:33-820]device:9100334 csq:0 net:0 server:0, relay:1
[14:47:33-977]air blow: err: 4, rst: 0, status: -2
[14:47:33-977]Rw:  len=8, data=fb 03 00 00 00 0a d1 97 
[14:47:34-320]Rr:  len=1, data=feed
[14:47:34-820]feed
[14:47:34-836]device:9100334 csq:0 net:0 server:0, relay:1
[14:47:35-336]feed
[14:47:35-836]feed
[14:47:35-836]device:9100334 csq:0 net:0 server:0, relay:1
[14:47:35-898]now: 2023-01-13 14:47:32
[14:47:35-898]key<1> release
[14:47:35-898]key<2> release
[14:47:35-898]key<3> release
[14:47:35-898]key<4> release
[14:47:35-914]key<5> release
[14:47:35-992]air blow: err: 5, rst: 0, status: -2
[14:47:35-992]Rw:  len=8, data=fb 03 00 00 00 0a d1 97 
[14:47:36-336]Rr:  len=1, data=feed
[14:47:36-836]feed
[14:47:36-836]device:9100334 csq:0 net:0 server:0, relay:1
[14:47:37-336]feed
[14:47:37-836]feed
[14:47:37-836]device:9100334 csq:0 net:0 server:0, relay:1
[14:47:38-008]air blow: err: 6, rst: 0, status: -2
[14:47:38-008]Rw:  len=8, data=fb 03 00 00 00 0a d1 97 
[14:47:38-336]Rr:  len=1, data=feed
[14:47:38-836]feed
[14:47:38-852]device:9100334 csq:0 net:0 server:0, relay:1
[14:47:38-914]now: 2023-01-13 14:47:35
[14:47:39-352]feed
[14:47:39-852]feed
[14:47:39-852]device:9100334 csq:0 net:0 server:0, relay:1
[14:47:40-023]air blow: err: 7, rst: 0, status: -2
[14:47:40-023]Rw:  len=8, data=fb 03 00 00 00 0a d1 97 
[14:47:40-352]Rr:  len=1, data=feed
[14:47:40-852]feed
[14:47:40-852]device:9100334 csq:0 net:0 server:0, relay:1
[14:47:41-352]feed
[14:47:41-852]feed
[14:47:41-852]device:9100334 csq:0 net:0 server:0, relay:1
[14:47:41-914]now: 2023-01-13 14:47:38
[14:47:42-039]air blow: err: 8, rst: 0, status: -2
[14:47:42-055]Rw:  len=8, data=fb 03 00 00 00 0a d1 97 
[14:47:42-352]Rr:  len=1, data=feed
[14:47:42-367]Pw:  len=16, data=00 8a dc 2e 03 40 00 00 0e d0 00 01 01 03 10 2d 
[14:47:42-367]
[14:47:42-852]feed
[14:47:42-867]device:9100334 csq:0 net:1 server:0, relay:1
[14:47:43-367]feed
[14:47:43-383]Pr:  len=13, data=00 8a dc 2e 03 40 00 00 0e 00 00 01 01 
[14:47:43-398]Pr:  len=1, data=01 
[14:47:43-398]Pr:  len=2, data=50 3e 
[14:47:43-398]eeprom write: 10 page
[14:47:43-398]01 00 00 00 00 00 00 00 00 00 00 00 00 00 00 00 00 00 00 00 00 00 00 00 00 00 00 00 00 00 ff 1f 
[14:47:43-570]Gw:  len=11, data=a5 5a 00 00 02 00 00 ff ff 30 94 
[14:47:43-570]
[14:47:43-867]feed
[14:47:43-867]device:9100334 csq:0 net:1 server:1, relay:1
[14:47:44-070]air blow: err: 9, rst: 0, status: -2
[14:47:44-070]Rw:  len=8, data=fb 03 00 00 00 0a d1 97 
[14:47:44-086]Rr:  len=1, data=Gr:  len=9, data=a5 5a 00 00 02 14 00 eb ff 
[14:47:44-086]Gr:  len=20, data=38 39 38 36 30 34 41 32 31 39 32 31 37 31 31 35 34 37 35 39 
[14:47:44-086]Gr:  len=2, data=cd 63 
[14:47:44-102]Gw:  len=11, data=a5 5a 00 00 03 00 00 ff ff 0d 54 
[14:47:44-102]
[14:47:44-367]feed
[14:47:44-602]Gr:  len=9, data=a5 5a 00 00 03 01 00 fe ff 
[14:47:44-602]Gr:  len=1, data=01 
[14:47:44-602]Gr:  len=2, data=38 05 
[14:47:44-633]Pw:  len=36, data=00 8a dc 2e 03 40 00 00 2c d0 00 01 15 01 38 39 38 36 30 34 41 32 31 39 32 31 37 31 31 35 34 37 35 39 b7 e1 
[14:47:44-633]
[14:47:44-867]feed
[14:47:44-867]device:9100334 csq:0 net:1 server:1, relay:1
[14:47:44-914]now: 2023-01-13 14:47:41
[14:47:45-367]feed
[14:47:45-633]CSQ: 0
[14:47:45-867]feed
[14:47:45-867]device:9100334 csq:0 net:1 server:1, relay:1
[14:47:46-367]feed
[14:47:46-867]feed
[14:47:46-883]device:9100334 csq:0 net:1 server:1, relay:1
[14:47:47-383]feed
[14:47:47-617]Pr:  len=13, data=00 8a dc 2e 03 40 00 00 12 00 00 01 01 
[14:47:47-617]Pr:  len=1, data=01 
[14:47:47-617]Pr:  len=2, data=52 62 
[14:47:47-633]Pw:  len=52, data=00 8a dc 2e 03 40 00 00 12 d0 00 01 25 01 17 01 0d 0e 2f 2c ff fc 00 00 00 00 00 00 20 00 00 00 00 00 00 00 00 00 00 00 00 00 00 00 00 00 00 00 00 00 ca 86 
[14:47:47-649]
[14:47:47-883]feed
[14:47:47-883]device:9100334 csq:0 net:1 server:1, relay:1
[14:47:47-914]now: 2023-01-13 14:47:44
[14:47:48-383]feed
[14:47:48-883]feed
[14:47:48-883]device:9100334 csq:0 net:1 server:1, relay:1
[14:47:49-383]feed
[14:47:49-883]feed
[14:47:49-883]device:9100334 csq:0 net:1 server:1, relay:1
[14:47:50-383]feed
[14:47:50-883]feed
[14:47:50-899]device:9100334 csq:0 net:1 server:1, relay:1
[14:47:50-914]now: 2023-01-13 14:47:47
[14:47:51-086]air blow: err: 0, rst: 1, status: -1
[14:47:51-086]Rw:  len=8, data=fb 03 00 00 00 0a d1 97 
[14:47:51-399]Rr:  len=1, data=feed
[14:47:51-899]feed
[14:47:51-899]device:9100334 csq:0 net:1 server:1, relay:1
[14:47:52-399]feed
[14:47:52-649]Pr:  len=13, data=00 8a dc 2e 16 40 00 00 0a 00 00 01 07 
[14:47:52-649]Pr:  len=7, data=17 01 0d 05 0e 2f 32 
[14:47:52-649]Pr:  len=2, data=3d d4 
[14:47:52-664]Pw:  len=15, data=00 8a dc 2e 16 40 00 00 0a d0 00 01 00 ad 80 
[14:47:52-664]
[14:47:52-758]<Recv>:
[14:47:52-758]id = 18f61111, dlc = 7
[14:47:52-758]04 48 08 52 08 52 08 
[14:47:52-774]power in:cfg=4, VA=212(V), VB=213(V), VC=213(V)
[14:47:52-899]feed
[14:47:52-899]device:9100334 csq:0 net:1 server:1, relay:1
[14:47:53-102]scan sensors driver
[14:47:53-102]Rw:  len=8, data=01 03 00 14 00 04 04 0d 
[14:47:53-399]Rr:  len=1, data=feed
[14:47:53-899]feed
[14:47:53-899]device:9100334 csq:0 net:1 server:1, relay:1
[14:47:53-914]now: 2023-01-13 14:47:51
[14:47:54-102]Update model <DO-Y102>
[14:47:54-117]Rw:  len=8, data=01 06 00 0a 00 00 a9 c8 
[14:47:54-399]Rr:  len=1, data=feed
[14:47:54-914]feed
[14:47:54-914]device:9100334 csq:0 net:1 server:1, relay:1
[14:47:55-414]feed
[14:47:55-914]feed
[14:47:55-914]device:9100334 csq:0 net:1 server:1, relay:1
[14:47:56-133]Rw:  len=8, data=02 03 00 14 00 04 04 3e 
[14:47:56-414]Rr:  len=1, data=feed
[14:47:56-914]feed
[14:47:56-914]device:9100334 csq:0 net:1 server:1, relay:1
[14:47:56-914]now: 2023-01-13 14:47:54
[14:47:57-133]Update model <PH-201>
[14:47:57-414]feed
[14:47:57-914]feed
[14:47:57-914]device:9100334 csq:0 net:1 server:1, relay:1
[14:47:58-149]indicators_values[1].sensor = NULL
[14:47:58-149]indicators_values[2].sensor = NULL
[14:47:58-149]air blow: err: 1, rst: 1, status: -2
[14:47:58-149]Rw:  len=8, data=fb 03 00 00 00 0a d1 97 
[14:47:58-414]Rr:  len=1, data=feed
[14:47:58-664]CSQ: 6
[14:47:58-930]feed
[14:47:58-930]device:9100334 csq:6 net:1 server:1, relay:1
[14:47:59-430]feed
[14:47:59-930]feed
[14:47:59-930]device:9100334 csq:6 net:1 server:1, relay:1
[14:47:59-930]now: 2023-01-13 14:47:57
[14:48:00-164]air blow: err: 2, rst: 1, status: -2
[14:48:00-164]Rw:  len=8, data=fb 03 00 00 00 0a d1 97 
[14:48:00-430]Rr:  len=1, data=feed
[14:48:00-930]feed
[14:48:00-930]device:9100334 csq:6 net:1 server:1, relay:1
[14:48:01-430]feed
[14:48:01-930]feed
[14:48:01-946]device:9100334 csq:6 net:1 server:1, relay:1
[14:48:01-961]<Recv>:
[14:48:01-961]id = 18f51111, dlc = 6
[14:48:01-961]01 00 02 00 00 00 
[14:48:01-961]dev_relay:ch=1, os=0, ks=2, err=0, cur=0(mA)
[14:48:01-977]<Recv>:
[14:48:01-977]id = 18f51111, dlc = 6
[14:48:01-977]02 00 02 00 00 00 
[14:48:01-992]dev_relay:ch=2, os=0, ks=2, err=0, cur=0(mA)
[14:48:01-992]<Recv>:
[14:48:01-992]id = 18f51111, dlc = 6
[14:48:01-992]03 01 01 00 00 00 
[14:48:01-992]dev_relay:ch=3, os=1, ks=1, err=0, cur=0(mA)
[14:48:01-992]<Recv>:
[14:48:01-992]id = 18f51111, dlc = 6
[14:48:01-992]04 00 02 00 01 00 
[14:48:02-008]dev_relay:ch=4, os=0, ks=2, err=0, cur=10(mA)
[14:48:02-008]<Recv>:
[14:48:02-008]id = 18f51111, dlc = 6
[14:48:02-008]05 00 02 00 01 00 
[14:48:02-008]dev_relay:ch=5, os=0, ks=2, err=0, cur=10(mA)
[14:48:02-180]air blow: err: 3, rst: 1, status: -2
[14:48:02-180]Rw:  len=8, data=fb 03 00 00 00 0a d1 97 
[14:48:02-446]Rr:  len=1, data=feed
[14:48:02-492]<Recv>:
[14:48:02-492]id = 18f51111, dlc = 6
[14:48:02-492]01 00 02 00 00 00 
[14:48:02-492]dev_relay:ch=1, os=0, ks=2, err=0, cur=0(mA)
[14:48:02-492]<Recv>:
[14:48:02-508]id = 18f51111, dlc = 6
[14:48:02-508]02 00 02 00 00 00 
[14:48:02-508]dev_relay:ch=2, os=0, ks=2, err=0, cur=0(mA)
[14:48:02-508]<Recv>:
[14:48:02-508]id = 18f51111, dlc = 6
[14:48:02-508]03 01 01 00 64 02 
[14:48:02-508]dev_relay:ch=3, os=1, ks=1, err=0, cur=6120(mA)
[14:48:02-524]<Recv>:
[14:48:02-524]id = 18f51111, dlc = 6
[14:48:02-524]04 00 02 00 02 00 
[14:48:02-539]dev_relay:ch=4, os=0, ks=2, err=0, cur=20(mA)
[14:48:02-539]<Recv>:
[14:48:02-539]id = 18f51111, dlc = 6
[14:48:02-539]05 00 02 00 01 00 
[14:48:02-539]dev_relay:ch=5, os=0, ks=2, err=0, cur=10(mA)
[14:48:02-946]feed
[14:48:02-946]device:9100334 csq:6 net:1 server:1, relay:1
[14:48:02-946]now: 2023-01-13 14:48:00
[14:48:02-946]key<3> press
[14:48:02-946]get_ch <3> = ON
[14:48:03-446]feed
[14:48:03-945]feed
[14:48:03-945]device:9100334 csq:6 net:1 server:1, relay:1
[14:48:03-945]relay_output_status ON
[14:48:03-961]Pw:  len=52, data=00 8a dc 2e 03 40 00 00 12 d0 00 01 25 01 17 01 0d 0e 30 01 ff fc 00 00 00 00 20 00 20 00 20 00 00 00 20 00 20 00 00 00 00 00 00 00 00 00 00 00 00 00 b2 82 
[14:48:03-977]
[14:48:04-196]air blow: err: 4, rst: 1, status: -2
[14:48:04-196]Rw:  len=8, data=fb 03 00 00 00 0a d1 97 
[14:48:04-446]Rr:  len=1, data=feed
[14:48:04-946]feed
[14:48:04-946]device:9100334 csq:6 net:1 server:1, relay:1
[14:48:05-446]feed
[14:48:05-946]feed
[14:48:05-961]device:9100334 csq:6 net:1 server:1, relay:1
[14:48:05-977]now: 2023-01-13 14:48:03
[14:48:06-211]air blow: err: 5, rst: 1, status: -2
[14:48:06-227]Rw:  len=8, data=fb 03 00 00 00 0a d1 97 
[14:48:06-461]Rr:  len=1, data=feed
[14:48:06-961]feed
[14:48:06-961]device:9100334 csq:6 net:1 server:1, relay:1
[14:48:07-461]feed
[14:48:07-961]feed
[14:48:07-961]device:9100334 csq:6 net:1 server:1, relay:1
[14:48:08-227]air blow: err: 6, rst: 1, status: -2
[14:48:08-242]Rw:  len=8, data=fb 03 00 00 00 0a d1 97 
[14:48:08-461]Rr:  len=1, data=feed
[14:48:08-961]feed
[14:48:08-961]device:9100334 csq:6 net:1 server:1, relay:1
[14:48:08-977]now: 2023-01-13 14:48:06
[14:48:09-461]feed
[14:48:09-961]feed
[14:48:09-977]device:9100334 csq:6 net:1 server:1, relay:1
[14:48:10-164]Pr:  len=13, data=00 8a dc 2e 16 40 00 01 0b 00 00 01 06 
[14:48:10-164]Pr:  len=6, data=01 20 00 00 00 01 
[14:48:10-164]Pr:  len=2, data=c2 23 
[14:48:10-164]eeprom write: 1578 page
[14:48:10-180]01 01 00 17 01 0d 0e 30 07 17 01 0d 0e 31 07 00 00 00 00 00 00 00 00 00 00 00 00 00 00 00 32 2e 
[14:48:10-196]Pw:  len=15, data=00 8a dc 2e 16 40 00 01 0b d0 00 01 00 91 91 
[14:48:10-196]
[14:48:10-258]air blow: err: 7, rst: 1, status: -2
[14:48:10-258]Rw:  len=8, data=fb 03 00 00 00 0a d1 97 
[14:48:10-477]Rr:  len=1, data=feed
[14:48:10-977]feed
[14:48:10-977]device:9100334 csq:6 net:1 server:1, relay:1
[14:48:11-477]feed
[14:48:11-508]CSQ: 6
[14:48:11-977]feed
[14:48:11-977]device:9100334 csq:6 net:1 server:1, relay:1
[14:48:11-977]now: 2023-01-13 14:48:09
[14:48:12-274]air blow: err: 8, rst: 1, status: -2
[14:48:12-274]Rw:  len=8, data=fb 03 00 00 00 0a d1 97 
[14:48:12-477]Rr:  len=1, data=feed
[14:48:12-977]feed
[14:48:12-977]device:9100334 csq:6 net:1 server:1, relay:1
[14:48:13-477]feed
[14:48:13-977]feed
[14:48:13-993]device:9100334 csq:6 net:1 server:1, relay:1
[14:48:14-289]air blow: err: 9, rst: 1, status: -2
[14:48:14-289]Rw:  len=8, data=fb 03 00 00 00 0a d1 97 
[14:48:14-493]Rr:  len=1, data=feed
[14:48:14-993]feed
[14:48:14-993]device:9100334 csq:6 net:1 server:1, relay:1
[14:48:14-993]now: 2023-01-13 14:48:12
[14:48:15-493]feed
[14:48:15-993]feed
[14:48:15-993]device:9100334 csq:6 net:1 server:1, relay:1
[14:48:16-493]feed
[14:48:16-727]<Recv>:
[14:48:16-727]id = 11110601, dlc = 0
[14:48:16-727]<Recv>:
[14:48:16-727]id = 18f51111, dlc = 6
[14:48:16-727]02 00 02 00 00 00 
[14:48:16-727]dev_relay:ch=2, os=0, ks=2, err=0, cur=0(mA)
[14:48:16-742]<Recv>:
[14:48:16-742]id = 18f51111, dlc = 6
[14:48:16-742]03 00 02 00 17 01 
[14:48:16-758]dev_relay:ch=3, os=0, ks=2, err=0, cur=2790(mA)
[14:48:16-758]<Recv>:
[14:48:16-758]id = 18f51111, dlc = 6
[14:48:16-758]04 00 02 00 03 00 
[14:48:16-758]dev_relay:ch=4, os=0, ks=2, err=0, cur=30(mA)
[14:48:16-758]<Recv>:
[14:48:16-758]id = 18f51111, dlc = 6
[14:48:16-774]05 00 02 00 01 00 
[14:48:16-774]dev_relay:ch=5, os=0, ks=2, err=0, cur=10(mA)
[14:48:16-993]feed
[14:48:16-993]device:9100334 csq:6 net:1 server:1, relay:1
[14:48:17-008]key<3> release
[14:48:17-008]get_ch <3> = OFF
[14:48:17-493]feed
[14:48:17-758]<Recv>:
[14:48:17-758]id = 18f51111, dlc = 6
[14:48:17-758]01 00 02 00 00 00 
[14:48:17-774]dev_relay:ch=1, os=0, ks=2, err=0, cur=0(mA)
[14:48:17-774]<Recv>:
[14:48:17-774]id = 18f51111, dlc = 6
[14:48:17-774]02 00 02 00 00 00 
[14:48:17-774]dev_relay:ch=2, os=0, ks=2, err=0, cur=0(mA)
[14:48:17-774]<Recv>:
[14:48:17-774]id = 18f51111, dlc = 6
[14:48:17-774]03 00 02 00 00 00 
[14:48:17-774]dev_relay:ch=3, os=0, ks=2, err=0, cur=0(mA)
[14:48:17-774]<Recv>:
[14:48:17-774]id = 18f51111, dlc = 6
[14:48:17-789]04 00 02 00 01 00 
[14:48:17-789]dev_relay:ch=4, os=0, ks=2, err=0, cur=10(mA)
[14:48:17-789]<Recv>:
[14:48:17-789]id = 18f51111, dlc = 6
[14:48:17-805]05 00 02 00 01 00 
[14:48:17-805]dev_relay:ch=5, os=0, ks=2, err=0, cur=10(mA)
[14:48:17-993]feed
[14:48:18-008]device:9100334 csq:6 net:1 server:1, relay:1
[14:48:18-008]now: 2023-01-13 14:48:15
[14:48:18-008]relay_output_status OFF
[14:48:18-024]Pw:  len=52, data=00 8a dc 2e 03 40 00 00 12 d0 00 01 25 01 17 01 0d 0e 30 0f ff fc 00 00 00 00 00 00 20 00 00 00 00 00 00 00 00 00 00 00 00 00 00 00 00 00 00 00 00 00 75 71 
[14:48:18-024]
[14:48:18-508]feed
[14:48:19-008]feed
[14:48:19-008]device:9100334 csq:6 net:1 server:1, relay:1
[14:48:19-508]feed
[14:48:20-008]feed
[14:48:20-008]device:9100334 csq:6 net:1 server:1, relay:1
[14:48:20-508]feed
[14:48:21-008]feed
[14:48:21-008]device:9100334 csq:6 net:1 server:1, relay:1
[14:48:21-024]now: 2023-01-13 14:48:18
[14:48:21-305]air blow: err: 0, rst: 2, status: -1
[14:48:21-305]Rw:  len=8, data=fb 03 00 00 00 0a d1 97 
[14:48:21-508]Rr:  len=1, data=feed
[14:48:22-024]feed
[14:48:22-024]device:9100334 csq:6 net:1 server:1, relay:1
[14:48:22-524]feed
[14:48:22-789]<Recv>:
[14:48:22-789]id = 18f61111, dlc = 7
[14:48:22-789]04 48 08 52 08 52 08 
[14:48:22-789]power in:cfg=4, VA=212(V), VB=213(V), VC=213(V)
[14:48:23-024]feed
[14:48:23-024]device:9100334 csq:6 net:1 server:1, relay:1
[14:48:23-321]air blow: err: 1, rst: 2, status: -2
[14:48:23-321]Rw:  len=8, data=fb 03 00 00 00 0a d1 97 
[14:48:23-524]Rr:  len=1, data=feed
[14:48:24-024]feed
[14:48:24-024]device:9100334 csq:6 net:1 server:1, relay:1
[14:48:24-039]now: 2023-01-13 14:48:21
[14:48:24-524]feed
[14:48:24-586]CSQ: 6
[14:48:25-024]feed
[14:48:25-024]device:9100334 csq:6 net:1 server:1, relay:1
[14:48:25-336]air blow: err: 2, rst: 2, status: -2
[14:48:25-336]Rw:  len=8, data=fb 03 00 00 00 0a d1 97 
[14:48:25-524]Rr:  len=1, data=feed
[14:48:26-039]feed
[14:48:26-039]device:9100334 csq:6 net:1 server:1, relay:1
[14:48:26-540]feed
[14:48:27-039]feed
[14:48:27-039]device:9100334 csq:6 net:1 server:1, relay:1
[14:48:27-039]now: 2023-01-13 14:48:24
[14:48:27-352]air blow: err: 3, rst: 2, status: -2
[14:48:27-352]Rw:  len=8, data=fb 03 00 00 00 0a d1 97 
[14:48:27-540]Rr:  len=1, data=feed
[14:48:28-040]feed
[14:48:28-040]device:9100334 csq:6 net:1 server:1, relay:1
[14:48:28-540]feed
[14:48:29-040]feed
[14:48:29-055]device:9100334 csq:6 net:1 server:1, relay:1
[14:48:29-368]air blow: err: 4, rst: 2, status: -2
[14:48:29-368]Rw:  len=8, data=fb 03 00 00 00 0a d1 97 
[14:48:29-555]Rr:  len=1, data=feed
[14:48:30-055]feed
[14:48:30-055]device:9100334 csq:6 net:1 server:1, relay:1
[14:48:30-055]now: 2023-01-13 14:48:27
[14:48:30-555]feed
[14:48:31-055]feed
[14:48:31-055]device:9100334 csq:6 net:1 server:1, relay:1
[14:48:31-383]air blow: err: 5, rst: 2, status: -2
[14:48:31-399]Rw:  len=8, data=fb 03 00 00 00 0a d1 97 
[14:48:31-555]Rr:  len=1, data=feed
[14:48:32-055]feed
[14:48:32-055]device:9100334 csq:6 net:1 server:1, relay:1
[14:48:32-555]feed
[14:48:33-055]feed
[14:48:33-071]device:9100334 csq:6 net:1 server:1, relay:1
[14:48:33-071]now: 2023-01-13 14:48:30
[14:48:33-399]air blow: err: 6, rst: 2, status: -2
[14:48:33-415]Rw:  len=8, data=fb 03 00 00 00 0a d1 97 
[14:48:33-571]Rr:  len=1, data=feed
[14:48:34-071]feed
[14:48:34-071]device:9100334 csq:6 net:1 server:1, relay:1
[14:48:34-571]feed
[14:48:35-071]feed
[14:48:35-071]device:9100334 csq:6 net:1 server:1, relay:1
[14:48:35-430]air blow: err: 7, rst: 2, status: -2
[14:48:35-430]Rw:  len=8, data=fb 03 00 00 00 0a d1 97 
[14:48:35-571]Rr:  len=1, data=feed
[14:48:36-071]feed
[14:48:36-071]device:9100334 csq:6 net:1 server:1, relay:1
[14:48:36-071]now: 2023-01-13 14:48:33
[14:48:36-571]feed
[14:48:37-071]feed
[14:48:37-087]device:9100334 csq:6 net:1 server:1, relay:1
[14:48:37-446]air blow: err: 8, rst: 2, status: -2
[14:48:37-446]Rw:  len=8, data=fb 03 00 00 00 0a d1 97 
[14:48:37-587]Rr:  len=1, data=feed
[14:48:37-696]CSQ: 6
[14:48:38-087]feed
[14:48:38-087]device:9100334 csq:6 net:1 server:1, relay:1
[14:48:38-587]feed
[14:48:39-087]feed
[14:48:39-087]device:9100334 csq:6 net:1 server:1, relay:1
[14:48:39-087]now: 2023-01-13 14:48:36
[14:48:39-462]air blow: err: 9, rst: 2, status: -2
[14:48:39-462]Rw:  len=8, data=fb 03 00 00 00 0a d1 97 
[14:48:39-587]Rr:  len=1, data=feed
[14:48:40-087]feed
[14:48:40-087]device:9100334 csq:6 net:1 server:1, relay:1
[14:48:40-587]feed
[14:48:41-087]feed
[14:48:41-102]device:9100334 csq:6 net:1 server:1, relay:1
[14:48:41-602]feed
[14:48:42-102]feed
[14:48:42-102]device:9100334 csq:6 net:1 server:1, relay:1
[14:48:42-102]now: 2023-01-13 14:48:39
[14:48:42-602]feed
[14:48:43-102]feed
[14:48:43-102]device:9100334 csq:6 net:1 server:1, relay:1
[14:48:43-602]feed
[14:48:44-102]feed
[14:48:44-102]device:9100334 csq:6 net:1 server:1, relay:1
[14:48:44-602]feed
[14:48:45-102]feed
[14:48:45-118]device:9100334 csq:6 net:1 server:1, relay:1
[14:48:45-118]now: 2023-01-13 14:48:42
[14:48:45-618]feed
[14:48:46-118]feed
[14:48:46-118]device:9100334 csq:6 net:1 server:1, relay:1
[14:48:46-477]air blow: err: 0, rst: 3, status: -1
[14:48:46-477]Rw:  len=8, data=fb 03 00 00 00 0a d1 97 
[14:48:46-618]Rr:  len=1, data=feed
[14:48:47-118]feed
[14:48:47-118]device:9100334 csq:6 net:1 server:1, relay:1
[14:48:47-618]feed
[14:48:48-118]feed
[14:48:48-118]device:9100334 csq:6 net:1 server:1, relay:1
[14:48:48-134]now: 2023-01-13 14:48:45
[14:48:48-498]air blow: err: 1, rst: 3, status: -2
[14:48:48-498]Rw:  len=8, data=fb 03 00 00 00 0a d1 97 
[14:48:48-623]Rr:  len=1, data=feed
[14:48:49-123]feed
[14:48:49-123]device:9100334 csq:6 net:1 server:1, relay:1
[14:48:49-623]feed
[14:48:50-123]feed
[14:48:50-139]device:9100334 csq:6 net:1 server:1, relay:1
[14:48:50-514]air blow: err: 2, rst: 3, status: -2
[14:48:50-514]Rw:  len=8, data=fb 03 00 00 00 0a d1 97 
[14:48:50-530]Rr:  len=1, data=CSQ: 6
[14:48:50-639]feed
[14:48:51-139]feed
[14:48:51-139]device:9100334 csq:6 net:1 server:1, relay:1
[14:48:51-139]now: 2023-01-13 14:48:48
[14:48:51-639]feed
[14:48:52-139]feed
[14:48:52-139]device:9100334 csq:6 net:1 server:1, relay:1
[14:48:52-530]air blow: err: 3, rst: 3, status: -2
[14:48:52-530]Rw:  len=8, data=fb 03 00 00 00 0a d1 97 
[14:48:52-639]Rr:  len=1, data=feed
[14:48:52-795]<Recv>:
[14:48:52-795]id = 18f61111, dlc = 7
[14:48:52-795]04 48 08 52 08 5c 08 
[14:48:52-811]power in:cfg=4, VA=212(V), VB=213(V), VC=214(V)
[14:48:53-139]feed
[14:48:53-139]device:9100334 csq:6 net:1 server:1, relay:1
[14:48:53-639]feed
[14:48:54-139]feed
[14:48:54-155]device:9100334 csq:6 net:1 server:1, relay:1
[14:48:54-155]now: 2023-01-13 14:48:51
[14:48:54-545]air blow: err: 4, rst: 3, status: -2
[14:48:54-545]Rw:  len=8, data=fb 03 00 00 00 0a d1 97 
[14:48:54-655]Rr:  len=1, data=feed
[14:48:55-155]feed
[14:48:55-155]device:9100334 csq:6 net:1 server:1, relay:1
[14:48:55-655]feed
[14:48:56-155]feed
[14:48:56-155]device:9100334 csq:6 net:1 server:1, relay:1
[14:48:56-561]air blow: err: 5, rst: 3, status: -2
[14:48:56-561]Rw:  len=8, data=fb 03 00 00 00 0a d1 97 
[14:48:56-655]Rr:  len=1, data=feed
[14:48:57-155]feed
[14:48:57-155]device:9100334 csq:6 net:1 server:1, relay:1
[14:48:57-170]now: 2023-01-13 14:48:54
[14:48:57-655]feed
[14:48:58-155]feed
[14:48:58-170]device:9100334 csq:6 net:1 server:1, relay:1
[14:48:58-577]air blow: err: 6, rst: 3, status: -2
[14:48:58-577]Rw:  len=8, data=fb 03 00 00 00 0a d1 97 
[14:48:58-670]Rr:  len=1, data=feed
[14:48:59-170]feed
[14:48:59-170]device:9100334 csq:6 net:1 server:1, relay:1
[14:48:59-670]feed
[14:49:00-170]feed
[14:49:00-170]device:9100334 csq:6 net:1 server:1, relay:1
[14:49:00-170]now: 2023-01-13 14:48:57
[14:49:00-592]air blow: err: 7, rst: 3, status: -2
[14:49:00-592]Rw:  len=8, data=fb 03 00 00 00 0a d1 97 
[14:49:00-670]Rr:  len=1, data=feed
[14:49:01-170]feed
[14:49:01-170]device:9100334 csq:6 net:1 server:1, relay:1
[14:49:01-670]feed
[14:49:02-186]feed
[14:49:02-186]device:9100334 csq:6 net:1 server:1, relay:1
[14:49:02-608]air blow: err: 8, rst: 3, status: -2
[14:49:02-608]Rw:  len=8, data=fb 03 00 00 00 0a d1 97 
[14:49:02-686]Rr:  len=1, data=feed
[14:49:03-186]feed
[14:49:03-186]device:9100334 csq:6 net:1 server:1, relay:1
[14:49:03-186]now: 2023-01-13 14:49:00
[14:49:03-623]CSQ: 6
[14:49:03-686]feed
[14:49:04-186]feed
[14:49:04-186]device:9100334 csq:6 net:1 server:1, relay:1
[14:49:04-623]air blow: err: 9, rst: 3, status: -2
[14:49:04-639]Rw:  len=8, data=fb 03 00 00 00 0a d1 97 
[14:49:04-686]Rr:  len=1, data=feed
[14:49:05-202]feed
[14:49:05-202]device:9100334 csq:6 net:1 server:1, relay:1
[14:49:05-686]feed
[14:49:06-202]feed
[14:49:06-202]device:9100334 csq:6 net:1 server:1, relay:1
[14:49:06-202]now: 2023-01-13 14:49:03
[14:49:06-639]Rw:  len=8, data=01 06 00 0a 00 00 a9 c8 
[14:49:06-702]Rr:  len=1, data=feed
[14:49:07-202]feed
[14:49:07-202]device:9100334 csq:6 net:1 server:1, relay:1
[14:49:07-655]read each start
[14:49:07-655]Rw:  len=8, data=01 03 00 00 00 05 85 c9 
[14:49:07-702]Rr:  len=1, data=feed
[14:49:08-202]feed
[14:49:08-202]device:9100334 csq:6 net:1 server:1, relay:1
[14:49:08-670]
[14:49:08-670]Sensors read rc -2 s -2
[14:49:08-702]feed
[14:49:09-202]feed
[14:49:09-217]device:9100334 csq:6 net:1 server:1, relay:1
[14:49:09-217]now: 2023-01-13 14:49:06
[14:49:09-670]Rw:  len=8, data=02 03 00 00 00 03 05 f8 
[14:49:09-717]Rr:  len=1, data=feed
[14:49:10-217]feed
[14:49:10-217]device:9100334 csq:6 net:1 server:1, relay:1
[14:49:10-686]
[14:49:10-686]Sensors read rc -2 s -2
[14:49:10-717]feed
[14:49:11-217]feed
[14:49:11-217]device:9100334 csq:6 net:1 server:1, relay:1
[14:49:11-217]set_ch <3> = ON
[14:49:11-217]<USend>:
[14:49:11-217]id = 0c501101, dlc = 7
[14:49:11-217]03 01 03 00 00 00 00 
[14:49:11-233]<Recv>:
[14:49:11-249]id = 18e80111, dlc = 4
[14:49:11-249]50 00 00 00 
[14:49:11-249]dev_respon:PGN=5000,status=0
[14:49:11-295]<Recv>:
[14:49:11-295]id = 18f51111, dlc = 6
[14:49:11-295]01 00 02 00 00 00 
[14:49:11-295]dev_relay:ch=1, os=0, ks=2, err=0, cur=0(mA)
[14:49:11-295]<Recv>:
[14:49:11-295]id = 18f51111, dlc = 6
[14:49:11-295]02 00 02 00 00 00 
[14:49:11-311]dev_relay:ch=2, os=0, ks=2, err=0, cur=0(mA)
[14:49:11-311]<Recv>:
[14:49:11-311]id = 18f51111, dlc = 6
[14:49:11-311]03 00 02 00 00 00 
[14:49:11-311]dev_relay:ch=3, os=0, ks=2, err=0, cur=0(mA)
[14:49:11-311]<Recv>:
[14:49:11-327]id = 18f51111, dlc = 6
[14:49:11-327]04 00 02 00 p1,00 
[14:49:11-327]dev_relay:ch=4, os=0, ks=2, err=0, cur=10(mA)
[14:49:11-327]<Recv>:
[14:49:11-327]id = 18f51111, dlc = 6
[14:49:11-327]05 00 02 00 01 00 
[14:49:11-342]dev_relay:ch=5, os=0, ks=2, err=0, cur=10(mA)
[14:49:11-686]read each end
[14:49:11-686]indicators_values[1].sensor = 20000a1c
[14:49:11-702]indicators_values[2].sensor = 20000a8c
[14:49:11-717]feed
[14:49:12-217]feed
[14:49:12-217]device:9100334 csq:6 net:1 server:1, relay:1
[14:49:12-702]air blow: err: 10, rst: 3, status: -2
[14:49:12-702]Rw:  len=8, data=fb 03 00 00 00 0a d1 97 
[14:49:12-717]Rr:  len=1, data=feed
[14:49:13-217]feed
[14:49:13-233]device:9100334 csq:6 net:1 server:1, relay:1
[14:49:13-733]feed
[14:49:14-233]feed
[14:49:14-233]device:9100334 csq:6 net:1 server:1, relay:1
[14:49:14-342]now: 2023-01-13 14:49:11
[14:49:14-358]Pw:  len=52, data=00 8a dc 2e 03 40 00 00 12 d0 00 01 25 01 17 01 0d 0e 31 0b ff fc 00 00 20 00 00 00 00 00 00 00 00 00 20 00 00 00 00 00 00 00 00 00 00 00 00 00 00 00 25 62 
[14:49:14-374]
[14:49:14-374]get_ch <3> = OFF
[14:49:14-717]probe u_value = 0
[14:49:14-717]probe u_value = 0
[14:49:14-717]probe u_value = 0
[14:49:14-717]Rw:  len=8, data=01 06 00 0a 00 00 a9 c8 
[14:49:15-233]Rr:  len=1, data=feed
[14:49:15-233]device:9100334 csq:6 net:1 server:1, relay:1
[14:49:15-374]set_ch <3> = ON
[14:49:15-374]<USend>:
[14:49:15-374]id = 0c501101, dlc = 7
[14:49:15-374]03 01 03 00 00 00 00 
[14:49:15-389]<Recv>:
[14:49:15-389]id = 18e80111, dlc = 4
[14:49:15-389]50 00 00 00 
[14:49:15-389]dev_respon:PGN=5000,status=0
[14:49:15-733]read each start
[14:49:15-733]Rw:  len=8, data=01 03 00 00 00 05 85 c9 
[14:49:16-155]Rr:  len=1, data=<Recv>:
[14:49:16-155]id = 18f51111, dlc = 6
[14:49:16-155]01 00 02 00 00 00 
[14:49:16-170]dev_relay:ch=1, os=0, ks=2, err=0, cur=0(mA)
[14:49:16-170]<Recv>:
[14:49:16-170]id = 18f51111, dlc = 6
[14:49:16-170]02 00 02 00 00 00 
[14:49:16-170]dev_relay:ch=2, os=0, ks=2, err=0, cur=0(mA)
[14:49:16-170]<Recv>:
[14:49:16-170]id = 18f51111, dlc = 6
[14:49:16-170]03 01 02 00 00 00 
[14:49:16-186]dev_relay:ch=3, os=1, ks=2, err=0, cur=0(mA)
[14:49:16-186]<Recv>:
[14:49:16-186]id = 18f51111, dlc = 6
[14:49:16-186]04 00 02 00 01 00 
[14:49:16-186]dev_relay:ch=4, os=0, ks=2, err=0, cur=10(mA)
[14:49:16-186]<Recv>:
[14:49:16-186]id = 18f51111, dlc = 6
[14:49:16-202]05 00 02 00 01 00 
[14:49:16-202]dev_relay:ch=5, os=0, ks=2, err=0, cur=10(mA)
[14:49:16-233]feed
[14:49:16-233]device:9100334 csq:6 net:1 server:1, relay:1
[14:49:16-358]<Recv>:
[14:49:16-358]id = 18f00111, dlc = 8
[14:49:16-358]01 00 00 00 01 00 00 00 
[14:49:16-358]relay_H: 1.0.0.0        relay_F: 1.0.0.0
[14:49:16-467]<Recv>:
[14:49:16-467]id = 18f00211, dlc = 8
[14:49:16-467]52 45 4c 41 59 00 00 00 
[14:49:16-467]relay_PN: RELAY
[14:49:16-561]<Recv>:
[14:49:16-561]id = 18f00311, dlc = 7
[14:49:16-561]59 04 00 00 00 00 00 
[14:49:16-577]relay_SN: 1113000000000
[14:49:16-686]<Recv>:
[14:49:16-686]id = 18f51111, dlc = 6
[14:49:16-686]01 00 02 00 00 00 
[14:49:16-686]dev_relay:ch=1, os=0, ks=2, err=0, cur=0(mA)
[14:49:16-686]<Recv>:
[14:49:16-686]id = 18f51111, dlc = 6
[14:49:16-686]02 00 02 00 00 00 
[14:49:16-686]dev_relay:ch=2, os=0, ks=2, err=0, cur=0(mA)
[14:49:16-686]<Recv>:
[14:49:16-686]id = 18f51111, dlc = 6
[14:49:16-686]03 01 02 00 1f 02 
[14:49:16-702]dev_relay:ch=3, os=1, ks=2, err=0, cur=5430(mA)
[14:49:16-702]<Recv>:
[14:49:16-702]id = 18f51111, dlc = 6
[14:49:16-702]04 00 02 00 02 00 
[14:49:16-702]dev_relay:ch=4, os=0, ks=2, err=0, cur=20(mA)
[14:49:16-702]<Recv>:
[14:49:16-717]id = 18f51111, dlc = 6
[14:49:16-717]05 00 02 00 01 00 
[14:49:16-733]dev_relay:ch=5, os=0, ks=2, err=0, cur=10(mA)
[14:49:16-733]feed
[14:49:16-749]
[14:49:16-749]Sensors read rc -2 s -2
[14:49:16-749]CSQ: 6
[14:49:17-233]feed
[14:49:17-249]device:9100334 csq:6 net:1 server:1, relay:1
[14:49:17-749]feed
[14:49:17-749]Rw:  len=8, data=02 03 00 00 00 03 05 f8 
[14:49:18-249]Rr:  len=1, data=feed
[14:49:18-249]device:9100334 csq:6 net:1 server:1, relay:1
[14:49:18-483]now: 2023-01-13 14:49:15
[14:49:18-483]relay_output_status ON
[14:49:18-499]Pw:  len=52, data=00 8a dc 2e 03 40 00 00 12 d0 00 01 25 01 17 01 0d 0e 31 0f ff fc 00 00 20 00 00 00 00 00 00 00 00 00 20 00 20 00 00 00 00 00 00 00 00 00 00 00 00 00 45 40 
[14:49:18-499]
[14:49:18-749]feed
[14:49:18-764]
[14:49:18-764]Sensors read rc -2 s -2
[14:49:19-249]feed
[14:49:19-249]device:9100334 csq:6 net:1 server:1, relay:1
[14:49:19-749]feed
[14:49:19-764]read each end
[14:49:19-764]indicators_values[1].sensor = 20000a1c
[14:49:19-764]indicators_values[2].sensor = 20000a8c
[14:49:20-249]feed
[14:49:20-249]device:9100334 csq:6 net:1 server:1, relay:1
[14:49:20-749]feed
[14:49:20-780]air blow: err: 10, rst: 3, status: -2
[14:49:20-780]Rw:  len=8, data=fb 03 00 00 00 0a d1 97 
[14:49:21-249]Rr:  len=1, data=feed
[14:49:21-264]device:9100334 csq:6 net:1 server:1, relay:1
[14:49:21-499]now: 2023-01-13 14:49:18
[14:49:21-764]feed
[14:49:22-264]feed
[14:49:22-264]device:9100334 csq:6 net:1 server:1, relay:1
[14:49:22-764]feed
[14:49:22-796]probe u_value = 0
[14:49:22-796]probe u_value = 0
[14:49:22-796]probe u_value = 0
[14:49:22-796]Rw:  len=8, data=01 06 00 0a 00 00 a9 c8 
[14:49:22-811]Rr:  len=1, data=Pw:  len=15, data=00 8a dc 2e 03 40 00 00 22 d0 00 01 00 3f 16 
[14:49:22-811]
[14:49:22-999]Pr:  len=13, data=00 8a dc 2e 03 40 00 00 22 d1 00 01 00 
[14:49:23-014]Pr:  len=2, data=3e ea 
[14:49:23-264]feed
[14:49:23-264]device:9100334 csq:6 net:1 server:1, relay:1
[14:49:23-764]feed
[14:49:23-811]read each start
[14:49:23-811]Rw:  len=8, data=01 03 00 00 00 05 85 c9 
[14:49:24-264]Rr:  len=1, data=feed
[14:49:24-264]device:9100334 csq:6 net:1 server:1, relay:1
[14:49:24-514]now: 2023-01-13 14:49:21
[14:49:24-764]feed
[14:49:24-827]
[14:49:24-827]Sensors read rc -2 s -2
[14:49:25-264]feed
[14:49:25-280]device:9100334 csq:6 net:1 server:1, relay:1
[14:49:25-780]feed
[14:49:25-827]Rw:  len=8, data=02 03 00 00 00 03 05 f8 
[14:49:26-280]Rr:  len=1, data=feed
[14:49:26-280]device:9100334 csq:6 net:1 server:1, relay:1
[14:49:26-780]feed
[14:49:26-842]
[14:49:26-842]Sensors read rc -2 s -2
[14:49:27-280]feed
[14:49:27-280]device:9100334 csq:6 net:1 server:1, relay:1
[14:49:27-514]now: 2023-01-13 14:49:24
[14:49:27-780]feed
[14:49:27-843]read each end
[14:49:27-843]indicators_values[1].sensor = 20000a1c
[14:49:27-843]indicators_values[2].sensor = 20000a8c
[14:49:28-280]feed
[14:49:28-280]device:9100334 csq:6 net:1 server:1, relay:1
[14:49:28-780]feed
[14:49:28-842]air blow: err: 10, rst: 3, status: -2
[14:49:28-858]Rw:  len=8, data=fb 03 00 00 00 0a d1 97 
[14:49:29-296]Rr:  len=1, data=feed
[14:49:29-296]device:9100334 csq:6 net:1 server:1, relay:1
[14:49:29-608]CSQ: 6
[14:49:29-796]feed
[14:49:30-296]feed
[14:49:30-296]device:9100334 csq:6 net:1 server:1, relay:1
[14:49:30-514]now: 2023-01-13 14:49:27
[14:49:30-796]feed
[14:49:30-858]probe u_value = 0
[14:49:30-874]probe u_value = 0
[14:49:30-874]probe u_value = 0
[14:49:30-874]Rw:  len=8, data=01 06 00 0a 00 00 a9 c8 
[14:49:31-296]Rr:  len=1, data=feed
[14:49:31-296]device:9100334 csq:6 net:1 server:1, relay:1
[14:49:31-796]feed
[14:49:31-889]read each start
[14:49:31-889]Rw:  len=8, data=01 03 00 00 00 05 85 c9 
[14:49:32-218]Rr:  len=1, data=<Recv>:
[14:49:32-218]id = 18f51111, dlc = 6
[14:49:32-218]01 00 02 00 00 00 
[14:49:32-218]dev_relay:ch=1, os=0, ks=2, err=0, cur=0(mA)
[14:49:32-218]<Recv>:
[14:49:32-218]id = 18f51111, dlc = 6
[14:49:32-218]02 00 02 00 00 00 
[14:49:32-218]dev_relay:ch=2, os=0, ks=2, err=0, cur=0(mA)
[14:49:32-218]<Recv>:
[14:49:32-218]id = 18f51111, dlc = 6
[14:49:32-233]03 01 01 00 17 01 
[14:49:32-233]dev_relay:ch=3, os=1, ks=1, err=0, cur=2790(mA)
[14:49:32-233]<Recv>:
[14:49:32-249]id = 18f51111, dlc = 6
[14:49:32-249]04 00 02 00 03 00 
[14:49:32-249]dev_relay:ch=4, os=0, ks=2, err=0, cur=30(mA)
[14:49:32-249]<Recv>:
[14:49:32-249]id = 18f51111, dlc = 6
[14:49:32-249]05 00 02 00 01 00 
[14:49:32-264]dev_relay:ch=5, os=0, ks=2, err=0, cur=10(mA)
[14:49:32-296]feed
[14:49:32-296]device:9100334 csq:6 net:1 server:1, relay:1
[14:49:32-514]key<3> press
[14:49:32-530]Pw:  len=52, data=00 8a dc 2e 03 40 00 00 12 d0 00 01 25 01 17 01 0d 0e 31 1d ff fc 00 00 20 00 20 00 00 00 20 00 00 00 20 00 20 00 00 00 00 00 00 00 00 00 00 00 00 00 7b 44 
[14:49:32-530]
[14:49:32-796]feed
[14:49:32-905]
[14:49:32-905]Sensors read rc -2 s -2
[14:49:33-311]feed
[14:49:33-311]device:9100334 csq:6 net:1 server:1, relay:1
[14:49:33-530]now: 2023-01-13 14:49:30
[14:49:33-811]feed
[14:49:33-905]Rw:  len=8, data=02 03 00 00 00 03 05 f8 
[14:49:34-311]Rr:  len=1, data=feed
[14:49:34-311]device:9100334 csq:6 net:1 server:1, relay:1
[14:49:34-811]feed
[14:49:34-921]
[14:49:34-921]Sensors read rc -2 s -2
[14:49:35-311]feed
[14:49:35-311]device:9100334 csq:6 net:1 server:1, relay:1
[14:49:35-811]feed
[14:49:35-921]read each end
[14:49:35-921]indicators_values[1].sensor = 20000a1c
[14:49:35-921]indicators_values[2].sensor = 20000a8c
[14:49:36-311]feed
[14:49:36-327]device:9100334 csq:6 net:1 server:1, relay:1
[14:49:36-530]now: 2023-01-13 14:49:33
[14:49:36-827]feed
[14:49:36-921]air blow: err: 10, rst: 3, status: -2
[14:49:36-921]Rw:  len=8, data=fb 03 00 00 00 0a d1 97 
[14:49:37-327]Rr:  len=1, data=feed
[14:49:37-327]device:9100334 csq:6 net:1 server:1, relay:1
[14:49:37-827]feed
[14:49:38-327]feed
[14:49:38-327]device:9100334 csq:6 net:1 server:1, relay:1
[14:49:38-827]feed
[14:49:38-936]probe u_value = 0
[14:49:38-936]probe u_value = 0
[14:49:38-936]probe u_value = 0
[14:49:38-952]Rw:  len=8, data=01 06 00 0a 00 00 a9 c8 
[14:49:39-327]Rr:  len=1, data=feed
[14:49:39-327]device:9100334 csq:6 net:1 server:1, relay:1
[14:49:39-546]now: 2023-01-13 14:49:36
[14:49:39-827]feed
[14:49:39-952]read each start
[14:49:39-968]Rw:  len=8, data=01 03 00 00 00 05 85 c9 
[14:49:40-327]Rr:  len=1, data=feed
[14:49:40-343]device:9100334 csq:6 net:1 server:1, relay:1
[14:49:40-843]feed
[14:49:40-968]
[14:49:40-968]Sensors read rc -2 s -2
[14:49:41-343]feed
[14:49:41-343]device:9100334 csq:6 net:1 server:1, relay:1
[14:49:41-749]<Recv>:
[14:49:41-749]id = 18f61111, dlc = 7
[14:49:41-749]04 48 08 52 08 52 08 
[14:49:41-749]power in:cfg=4, VA=212(V), VB=213(V), VC=213(V)
[14:49:41-843]feed
[14:49:41-983]Rw:  len=8, data=02 03 00 00 00 03 05 f8 
[14:49:42-343]Rr:  len=1, data=feed
[14:49:42-343]device:9100334 csq:6 net:1 server:1, relay:1
[14:49:42-546]now: 2023-01-13 14:49:39
[14:49:42-733]CSQ: 6
[14:49:42-843]feed
[14:49:42-983]
[14:49:42-983]Sensors read rc -2 s -2
[14:49:43-343]feed
[14:49:43-343]device:9100334 csq:6 net:1 server:1, relay:1
[14:49:43-843]feed
[14:49:43-983]read each end
[14:49:43-999]indicators_values[1].sensor = 20000a1c
[14:49:43-999]indicators_values[2].sensor = 20000a8c
[14:49:44-249]<Recv>:
[14:49:44-249]id = 18f51111, dlc = 6
[14:49:44-249]01 00 02 00 00 00 
[14:49:44-249]dev_relay:ch=1, os=0, ks=2, err=0, cur=0(mA)
[14:49:44-249]<Recv>:
[14:49:44-249]id = 18f51111, dlc = 6
[14:49:44-249]02 00 02 00 00 00 
[14:49:44-249]dev_relay:ch=2, os=0, ks=2, err=0, cur=0(mA)
[14:49:44-249]<Recv>:
[14:49:44-265]id = 18f51111, dlc = 6
[14:49:44-265]03 01 02 00 16 01 
[14:49:44-265]dev_relay:ch=3, os=1, ks=2, err=0, cur=2780(mA)
[14:49:44-265]<Recv>:
[14:49:44-265]id = 18f51111, dlc = 6
[14:49:44-265]04 00 02 00 03 00 
[14:49:44-280]dev_relay:ch=4, os=0, ks=2, err=0, cur=30(mA)
[14:49:44-280]<Recv>:
[14:49:44-280]id = 18f51111, dlc = 6
[14:49:44-296]05 00 02 00 01 00 
[14:49:44-296]dev_relay:ch=5, os=0, ks=2, err=0, cur=10(mA)
[14:49:44-343]feed
[14:49:44-358]device:9100334 csq:6 net:1 server:1, relay:1
[14:49:44-546]key<3> release
[14:49:44-562]Pw:  len=52, data=00 8a dc 2e 03 40 00 00 12 d0 00 01 25 01 17 01 0d 0e 31 29 ff fc 00 00 20 00 00 00 00 00 00 00 00 00 20 00 20 00 00 00 00 00 00 00 00 00 00 00 00 00 24 91 
[14:49:44-562]
[14:49:44-858]feed
[14:49:44-999]air blow: err: 10, rst: 3, status: -2
[14:49:44-999]Rw:  len=8, data=fb 03 00 00 00 0a d1 97 
[14:49:45-358]Rr:  len=1, data=feed
[14:49:45-358]device:9100334 csq:6 net:1 server:1, relay:1
[14:49:45-562]now: 2023-01-13 14:49:42
[14:49:45-858]feed
[14:49:46-358]feed
[14:49:46-358]device:9100334 csq:6 net:1 server:1, relay:1
[14:49:46-858]feed
[14:49:47-015]probe u_value = 0
[14:49:47-015]probe u_value = 0
[14:49:47-015]probe u_value = 0
[14:49:47-030]Rw:  len=8, data=01 06 00 0a 00 00 a9 c8 
[14:49:47-358]Rr:  len=1, data=feed
[14:49:47-358]device:9100334 csq:6 net:1 server:1, relay:1
[14:49:47-858]feed
[14:49:48-030]read each start
[14:49:48-030]Rw:  len=8, data=01 03 00 00 00 05 85 c9 
[14:49:48-374]Rr:  len=1, data=feed
[14:49:48-374]device:9100334 csq:6 net:1 server:1, relay:1
[14:49:48-562]now: 2023-01-13 14:49:45
[14:49:48-874]feed
[14:49:49-046]
[14:49:49-046]Sensors read rc -2 s -2
[14:49:49-374]feed
[14:49:49-374]device:9100334 csq:6 net:1 server:1, relay:1
[14:49:49-874]feed
[14:49:50-046]Rw:  len=8, data=02 03 00 00 00 03 05 f8 
[14:49:50-374]Rr:  len=1, data=feed
[14:49:50-374]device:9100334 csq:6 net:1 server:1, relay:1
[14:49:50-874]feed
[14:49:51-062]
[14:49:51-062]Sensors read rc -2 s -2
[14:49:51-374]feed
[14:49:51-374]device:9100334 csq:6 net:1 server:1, relay:1
[14:49:51-577]now: 2023-01-13 14:49:48
[14:49:51-874]feed
[14:49:52-062]read each end
[14:49:52-062]indicators_values[1].sensor = 20000a1c
[14:49:52-077]indicators_values[2].sensor = 20000a8c
[14:49:52-390]feed
[14:49:52-390]device:9100334 csq:6 net:1 server:1, relay:1
[14:49:52-890]feed
[14:49:53-077]air blow: err: 10, rst: 3, status: -2
[14:49:53-077]Rw:  len=8, data=fb 03 00 00 00 0a d1 97 
[14:49:53-390]Rr:  len=1, data=feed
[14:49:53-390]device:9100334 csq:6 net:1 server:1, relay:1
[14:49:53-890]feed
[14:49:54-390]feed
[14:49:54-390]device:9100334 csq:6 net:1 server:1, relay:1
[14:49:54-577]now: 2023-01-13 14:49:51
[14:49:54-890]feed
[14:49:55-093]probe u_value = 0
[14:49:55-093]probe u_value = 0
[14:49:55-093]probe u_value = 0
[14:49:55-093]Rw:  len=8, data=01 06 00 0a 00 00 a9 c8 
[14:49:55-390]Rr:  len=1, data=feed
[14:49:55-405]device:9100334 csq:6 net:1 server:1, relay:1
[14:49:55-608]CSQ: 6
[14:49:55-890]feed
[14:49:56-108]read each start
[14:49:56-108]Rw:  len=8, data=01 03 00 00 00 05 85 c9 
[14:49:56-405]Rr:  len=1, data=feed
[14:49:56-405]device:9100334 csq:6 net:1 server:1, relay:1
[14:49:56-905]feed
[14:49:57-124]
[14:49:57-124]Sensors read rc -2 s -2
[14:49:57-405]feed
[14:49:57-405]device:9100334 csq:6 net:1 server:1, relay:1
[14:49:57-577]now: 2023-01-13 14:49:54
[14:49:57-905]feed
[14:49:58-124]Rw:  len=8, data=02 03 00 00 00 03 05 f8 
[14:49:58-405]Rr:  len=1, data=feed
[14:49:58-405]device:9100334 csq:6 net:1 server:1, relay:1
[14:49:58-515]Pr:  len=13, data=00 8a dc 2e 16 40 00 02 0b 00 00 01 06 
[14:49:58-515]Pr:  len=6, data=01 20 00 00 00 14 
[14:49:58-515]Pr:  len=2, data=07 e8 
[14:49:58-530]eeprom write: 1578 page
[14:49:58-530]01 01 00 17 01 0d 0e 31 37 17 01 0d 0f 09 37 00 00 00 00 00 00 00 00 00 00 00 00 00 00 00 1a 80 
[14:49:58-546]Pw:  len=15, data=00 8a dc 2e 16 40 00 02 0b d0 00 01 00 91 a2 
[14:49:58-546]
[14:49:58-577]set_ch <3> = OFF
[14:49:58-577]<USend>:
[14:49:58-577]id = 0c501101, dlc = 7
[14:49:58-577]03 00 03 00 00 00 00 
[14:49:58-593]<Recv>:
[14:49:58-593]id = 18e80111, dlc = 4
[14:49:58-593]50 00 00 00 
[14:49:58-593]dev_respon:PGN=5000,status=0
[14:49:58-905]feed
[14:49:58-983]<Recv>:
[14:49:58-983]id = 18f51111, dlc = 6
[14:49:58-983]01 00 02 00 00 00 
[14:49:58-983]dev_relay:ch=1, os=0, ks=2, err=0, cur=0(mA)
[14:49:58-983]<Recv>:
[14:49:58-983]id = 18f51111, dlc = 6
[14:49:58-999]02 00 02 00 00 00 
[14:49:58-999]dev_relay:ch=2, os=0, ks=2, err=0, cur=0(mA)
[14:49:58-999]<Recv>:
[14:49:58-999]id = 18f51111, dlc = 6
[14:49:58-999]03 00 02 00 18 01 
[14:49:58-999]dev_relay:ch=3, os=0, ks=2, err=0, cur=2800(mA)
[14:49:58-999]<Recv>:
[14:49:59-015]id = 18f51111, dlc = 6
[14:49:59-015]04 00 02 00 03 00 
[14:49:59-015]dev_relay:ch=4, os=0, ks=2, err=0, cur=30(mA)
[14:49:59-015]<Recv>:
[14:49:59-015]id = 18f51111, dlc = 6
[14:49:59-015]05 00 02 00 01 00 
[14:49:59-030]dev_relay:ch=5, os=0, ks=2, err=0, cur=10(mA)
[14:49:59-140]
[14:49:59-140]Sensors read rc -2 s -2
[14:49:59-405]feed
[14:49:59-421]device:9100334 csq:6 net:1 server:1, relay:1
[14:49:59-921]feed
[14:50:00-140]read each end
[14:50:00-140]indicators_values[1].sensor = 20000a1c
[14:50:00-155]indicators_values[2].sensor = 20000a8c
[14:50:00-421]feed
[14:50:00-421]device:9100334 csq:6 net:1 server:1, relay:1
[14:50:00-515]<Recv>:
[14:50:00-515]id = 18f51111, dlc = 6
[14:50:00-515]01 00 02 00 00 00 
[14:50:00-515]dev_relay:ch=1, os=0, ks=2, err=0, cur=0(mA)
[14:50:00-515]<Recv>:
[14:50:00-515]id = 18f51111, dlc = 6
[14:50:00-515]02 00 02 00 00 00 
[14:50:00-530]dev_relay:ch=2, os=0, ks=2, err=0, cur=0(mA)
[14:50:00-530]<Recv>:
[14:50:00-530]id = 18f51111, dlc = 6
[14:50:00-530]03 00 02 00 00 00 
[14:50:00-530]dev_relay:ch=3, os=0, ks=2, err=0, cur=0(mA)
[14:50:00-530]<Recv>:
[14:50:00-546]id = 18f51111, dlc = 6
[14:50:00-546]04 00 02 00 01 00 
[14:50:00-546]dev_relay:ch=4, os=0, ks=2, err=0, cur=10(mA)
[14:50:00-546]<Recv>:
[14:50:00-546]id = 18f51111, dlc = 6
[14:50:00-562]05 00 02 00 01 00 
[14:50:00-562]dev_relay:ch=5, os=0, ks=2, err=0, cur=10(mA)
[14:50:00-921]feed
[14:50:01-155]air blow: err: 10, rst: 3, status: -2
[14:50:01-155]Rw:  len=8, data=fb 03 00 00 00 0a d1 97 
[14:50:01-421]Rr:  len=1, data=feed
[14:50:01-421]device:9100334 csq:6 net:1 server:1, relay:1
[14:50:01-687]now: 2023-01-13 14:49:59
[14:50:01-687]relay_output_status OFF
[14:50:01-702]Pw:  len=52, data=00 8a dc 2e 03 40 00 00 12 d0 00 01 25 01 17 01 0d 0e 31 3b ff fc 00 00 00 00 00 00 20 00 00 00 00 00 00 00 00 00 00 00 00 00 00 00 00 00 00 00 00 00 35 04 
[14:50:01-702]
[14:50:01-921]feed
[14:50:02-421]feed
[14:50:02-421]device:9100334 csq:6 net:1 server:1, relay:1
[14:50:02-921]feed
[14:50:03-171]probe u_value = 0
[14:50:03-171]probe u_value = 0
[14:50:03-171]probe u_value = 0
[14:50:03-171]Rw:  len=8, data=01 06 00 0a 00 00 a9 c8 
[14:50:03-421]Rr:  len=1, data=feed
[14:50:03-437]device:9100334 csq:6 net:1 server:1, relay:1
[14:50:03-937]feed
[14:50:04-187]read each start
[14:50:04-187]Rw:  len=8, data=01 03 00 00 00 05 85 c9 
[14:50:04-437]Rr:  len=1, data=feed
[14:50:04-437]device:9100334 csq:6 net:1 server:1, relay:1
[14:50:04-702]now: 2023-01-13 14:50:02
[14:50:04-937]feed
[14:50:05-202]
[14:50:05-202]Sensors read rc -2 s -2
[14:50:05-437]feed
[14:50:05-437]device:9100334 csq:6 net:1 server:1, relay:1
