[14:41:52-677]feed
[14:41:52-912]Pr:  len=13, data=00 8a dc 2e 03 40 00 00 07 00 00 01 01 
[14:41:52-912]Pr:  len=1, data=01 
[14:41:52-927]Pr:  len=2, data=50 a7 
[14:41:52-927]Pw:  len=18, data=00 8a dc 2e 03 40 00 00 07 d0 00 01 03 01 00 00 ad cf 
[14:41:52-927]
[14:41:53-177]feed
[14:41:53-177]device:9100334 csq:6 net:1 server:1, relay:1
[14:41:53-427]air blow: err: 3, rst: 1, status: -2
[14:41:53-427]Rw:  len=8, data=fb 03 00 00 00 0a d1 97 
[14:41:53-677]Rr:  len=1, data=feed
[14:41:54-177]feed
[14:41:54-177]device:9100334 csq:6 net:1 server:1, relay:1
[14:41:54-177]now: 2023-01-13 14:41:51
[14:41:54-677]feed
[14:41:55-177]feed
[14:41:55-177]device:9100334 csq:6 net:1 server:1, relay:1
[14:41:55-443]air blow: err: 4, rst: 1, status: -2
[14:41:55-443]Rw:  len=8, data=fb 03 00 00 00 0a d1 97 
[14:41:55-677]Rr:  len=1, data=feed
[14:41:56-193]feed
[14:41:56-193]device:9100334 csq:6 net:1 server:1, relay:1
[14:41:56-693]feed
[14:41:57-193]feed
[14:41:57-193]device:9100334 csq:6 net:1 server:1, relay:1
[14:41:57-193]now: 2023-01-13 14:41:54
[14:41:57-459]air blow: err: 5, rst: 1, status: -2
[14:41:57-459]Rw:  len=8, data=fb 03 00 00 00 0a d1 97 
[14:41:57-693]Rr:  len=1, data=feed
[14:41:58-193]feed
[14:41:58-193]device:9100334 csq:6 net:1 server:1, relay:1
[14:41:58-693]feed
[14:41:59-193]feed
[14:41:59-209]device:9100334 csq:6 net:1 server:1, relay:1
[14:41:59-474]air blow: err: 6, rst: 1, status: -2
[14:41:59-474]Rw:  len=8, data=fb 03 00 00 00 0a d1 97 
[14:41:59-709]Rr:  len=1, data=feed
[14:42:00-209]feed
[14:42:00-209]device:9100334 csq:6 net:1 server:1, relay:1
[14:42:00-209]now: 2023-01-13 14:41:57
[14:42:00-709]feed
[14:42:01-209]feed
[14:42:01-209]device:9100334 csq:6 net:1 server:1, relay:1
[14:42:01-490]air blow: err: 7, rst: 1, status: -2
[14:42:01-490]Rw:  len=8, data=fb 03 00 00 00 0a d1 97 
[14:42:01-709]Rr:  len=1, data=feed
[14:42:02-209]feed
[14:42:02-209]device:9100334 csq:6 net:1 server:1, relay:1
[14:42:02-709]feed
[14:42:02-756]CSQ: 6
[14:42:03-209]feed
[14:42:03-224]device:9100334 csq:6 net:1 server:1, relay:1
[14:42:03-224]now: 2023-01-13 14:42:00
[14:42:03-506]air blow: err: 8, rst: 1, status: -2
[14:42:03-506]Rw:  len=8, data=fb 03 00 00 00 0a d1 97 
[14:42:03-724]Rr:  len=1, data=feed
[14:42:04-224]feed
[14:42:04-224]device:9100334 csq:6 net:1 server:1, relay:1
[14:42:04-724]feed
[14:42:05-224]feed
[14:42:05-224]device:9100334 csq:6 net:1 server:1, relay:1
[14:42:05-521]air blow: err: 9, rst: 1, status: -2
[14:42:05-521]Rw:  len=8, data=fb 03 00 00 00 0a d1 97 
[14:42:05-724]Rr:  len=1, data=feed
[14:42:06-224]feed
[14:42:06-224]device:9100334 csq:6 net:1 server:1, relay:1
[14:42:06-224]now: 2023-01-13 14:42:03
[14:42:06-724]feed
[14:42:07-224]feed
[14:42:07-240]device:9100334 csq:6 net:1 server:1, relay:1
[14:42:07-740]feed
[14:42:08-240]feed
[14:42:08-240]device:9100334 csq:6 net:1 server:1, relay:1
[14:42:08-740]feed
[14:42:09-240]feed
[14:42:09-240]device:9100334 csq:6 net:1 server:1, relay:1
[14:42:09-240]now: 2023-01-13 14:42:06
[14:42:09-740]feed
[14:42:10-240]feed
[14:42:10-240]device:9100334 csq:6 net:1 server:1, relay:1
[14:42:10-740]feed
[14:42:11-240]feed
[14:42:11-256]device:9100334 csq:6 net:1 server:1, relay:1
[14:42:11-756]feed
[14:42:12-256]feed
[14:42:12-256]device:9100334 csq:6 net:1 server:1, relay:1
[14:42:12-256]now: 2023-01-13 14:42:09
[14:42:12-537]air blow: err: 0, rst: 2, status: -1
[14:42:12-537]Rw:  len=8, data=fb 03 00 00 00 0a d1 97 
[14:42:12-756]Rr:  len=1, data=feed
[14:42:13-256]feed
[14:42:13-256]device:9100334 csq:6 net:1 server:1, relay:1
[14:42:13-756]feed
[14:42:13-990]<Recv>:
[14:42:13-990]id = 18f61111, dlc = 7
[14:42:13-990]04 48 08 5c 08 5c 08 
[14:42:14-006]power in:cfg=4, VA=212(V), VB=214(V), VC=214(V)
[14:42:14-256]feed
[14:42:14-256]device:9100334 csq:6 net:1 server:1, relay:1
[14:42:14-553]air blow: err: 1, rst: 2, status: -2
[14:42:14-568]Rw:  len=8, data=fb 03 00 00 00 0a d1 97 
[14:42:14-756]Rr:  len=1, data=feed
[14:42:15-256]feed
[14:42:15-271]device:9100334 csq:6 net:1 server:1, relay:1
[14:42:15-271]now: 2023-01-13 14:42:12
[14:42:15-771]feed
[14:42:15-818]CSQ: 6
[14:42:16-271]feed
[14:42:16-271]device:9100334 csq:6 net:1 server:1, relay:1
[14:42:16-568]air blow: err: 2, rst: 2, status: -2
[14:42:16-584]Rw:  len=8, data=fb 03 00 00 00 0a d1 97 
[14:42:16-771]Rr:  len=1, data=feed
[14:42:17-271]feed
[14:42:17-271]device:9100334 csq:6 net:1 server:1, relay:1
[14:42:17-771]feed
[14:42:18-271]feed
[14:42:18-271]device:9100334 csq:6 net:1 server:1, relay:1
[14:42:18-287]now: 2023-01-13 14:42:15
[14:42:18-600]air blow: err: 3, rst: 2, status: -2
[14:42:18-600]Rw:  len=8, data=fb 03 00 00 00 0a d1 97 
[14:42:18-771]Rr:  len=1, data=feed
[14:42:19-287]feed
[14:42:19-287]device:9100334 csq:6 net:1 server:1, relay:1
[14:42:19-787]feed
[14:42:20-287]feed
[14:42:20-287]device:9100334 csq:6 net:1 server:1, relay:1
[14:42:20-615]air blow: err: 4, rst: 2, status: -2
[14:42:20-615]Rw:  len=8, data=fb 03 00 00 00 0a d1 97 
[14:42:20-787]Rr:  len=1, data=feed
[14:42:21-287]feed
[14:42:21-287]device:9100334 csq:6 net:1 server:1, relay:1
[14:42:21-287]now: 2023-01-13 14:42:18
[14:42:21-787]feed
[14:42:22-287]feed
[14:42:22-287]device:9100334 csq:6 net:1 server:1, relay:1
[14:42:22-631]air blow: err: 5, rst: 2, status: -2
[14:42:22-631]Rw:  len=8, data=fb 03 00 00 00 0a d1 97 
[14:42:22-787]Rr:  len=1, data=feed
[14:42:23-303]feed
[14:42:23-303]device:9100334 csq:6 net:1 server:1, relay:1
[14:42:23-803]feed
[14:42:24-303]feed
[14:42:24-303]device:9100334 csq:6 net:1 server:1, relay:1
[14:42:24-303]now: 2023-01-13 14:42:21
[14:42:24-647]air blow: err: 6, rst: 2, status: -2
[14:42:24-647]Rw:  len=8, data=fb 03 00 00 00 0a d1 97 
[14:42:24-803]Rr:  len=1, data=feed
[14:42:25-303]feed
[14:42:25-303]device:9100334 csq:6 net:1 server:1, relay:1
[14:42:25-803]feed
[14:42:26-303]feed
[14:42:26-318]device:9100334 csq:6 net:1 server:1, relay:1
[14:42:26-662]air blow: err: 7, rst: 2, status: -2
[14:42:26-662]Rw:  len=8, data=fb 03 00 00 00 0a d1 97 
[14:42:26-803]Rr:  len=1, data=feed
[14:42:27-318]feed
[14:42:27-318]device:9100334 csq:6 net:1 server:1, relay:1
[14:42:27-318]now: 2023-01-13 14:42:24
[14:42:27-818]feed
[14:42:28-318]feed
[14:42:28-318]device:9100334 csq:6 net:1 server:1, relay:1
[14:42:28-678]air blow: err: 8, rst: 2, status: -2
[14:42:28-678]Rw:  len=8, data=fb 03 00 00 00 0a d1 97 
[14:42:28-693]Rr:  len=1, data=CSQ: 6
[14:42:28-818]feed
[14:42:29-318]feed
[14:42:29-318]device:9100334 csq:6 net:1 server:1, relay:1
[14:42:29-819]feed
[14:42:30-319]feed
[14:42:30-334]device:9100334 csq:6 net:1 server:1, relay:1
[14:42:30-334]now: 2023-01-13 14:42:27
[14:42:30-694]air blow: err: 9, rst: 2, status: -2
[14:42:30-694]Rw:  len=8, data=fb 03 00 00 00 0a d1 97 
[14:42:30-834]Rr:  len=1, data=feed
[14:42:31-225]Pr:  len=13, data=00 8a dc 2e 16 40 00 01 0b 00 00 01 06 
[14:42:31-225]Pr:  len=6, data=01 20 00 01 00 14 
[14:42:31-240]Pr:  len=2, data=52 2c 
[14:42:31-240]eeprom write: 1578 page
[14:42:31-256]01 01 01 17 01 0d 0e 2a 1c 17 01 0d 0f 02 1c 00 00 00 00 00 00 00 00 00 00 00 00 00 00 00 16 3b 
[14:42:31-272]Pw:  len=15, data=00 8a dc 2e 16 40 00 01 0b d0 00 01 00 91 91 
[14:42:31-272]
[14:42:31-334]feed
[14:42:31-334]device:9100334 csq:6 net:1 server:1, relay:1
[14:42:31-334]set_ch <3> = ON
[14:42:31-334]<USend>:
[14:42:31-334]id = 0c501101, dlc = 7
[14:42:31-334]03 01 03 00 00 00 00 
[14:42:31-350]<Recv>:
[14:42:31-350]id = 18e80111, dlc = 4
[14:42:31-350]50 00 00 00 
[14:42:31-350]dev_respon:PGN=5000,status=0
[14:42:31-490]<Recv>:
[14:42:31-490]id = 18f51111, dlc = 6
[14:42:31-490]01 00 02 00 00 00 
[14:42:31-506]dev_relay:ch=1, os=0, ks=2, err=0, cur=0(mA)
[14:42:31-506]<Recv>:
[14:42:31-506]id = 18f51111, dlc = 6
[14:42:31-506]02 00 02 00 00 00 
[14:42:31-522]dev_relay:ch=2, os=0, ks=2, err=0, cur=0(mA)
[14:42:31-522]<Recv>:
[14:42:31-522]id = 18f51111, dlc = 6
[14:42:31-522]03 00 02 00 00 00 
[14:42:31-522]dev_relay:ch=3, os=0, ks=2, err=0, cur=0(mA)
[14:42:31-522]<Recv>:
[14:42:31-522]id = 18f51111, dlc = 6
[14:42:31-522]04 00 02 00 01 00 
[14:42:31-537]dev_relay:ch=4, os=0, ks=2, err=0, cur=10(mA)
[14:42:31-537]<Recv>:
[14:42:31-537]id = 18f51111, dlc = 6
[14:42:31-537]05 00 02 00 01 00 
[14:42:31-537]dev_relay:ch=5, os=0, ks=2, err=0, cur=10(mA)
[14:42:31-725]<Recv>:
[14:42:31-725]id = 18f51111, dlc = 6
[14:42:31-725]01 00 02 00 00 00 
[14:42:31-725]dev_relay:ch=1, os=0, ks=2, err=0, cur=0(mA)
[14:42:31-740]<Recv>:
[14:42:31-740]id = 18f51111, dlc = 6
[14:42:31-740]02 00 02 00 00 00 
[14:42:31-740]dev_relay:ch=2, os=0, ks=2, err=0, cur=0(mA)
[14:42:31-740]<Recv>:
[14:42:31-756]id = 18f51111, dlc = 6
[14:42:31-756]03 01 02 00 00 00 
[14:42:31-756]dev_relay:ch=3, os=1, ks=2, err=0, cur=0(mA)
[14:42:31-756]<Recv>:
[14:42:31-756]id = 18f51111, dlc = 6
[14:42:31-756]04 00 02 00 01 00 
[14:42:31-772]dev_relay:ch=4, os=0, ks=2, err=0, cur=10(mA)
[14:42:31-772]<Recv>:
[14:42:31-772]id = 18f51111, dlc = 6
[14:42:31-772]05 00 02 00 01 00 
[14:42:31-772]dev_relay:ch=5, os=0, ks=2, err=0, cur=10(mA)
[14:42:31-834]feed
[14:42:32-256]<Recv>:
[14:42:32-256]id = 18f51111, dlc = 6
[14:42:32-256]01 00 02 00 00 00 
[14:42:32-272]dev_relay:ch=1, os=0, ks=2, err=0, cur=0(mA)
[14:42:32-272]<Recv>:
[14:42:32-272]id = 18f51111, dlc = 6
[14:42:32-272]02 00 02 00 00 00 
[14:42:32-272]dev_relay:ch=2, os=0, ks=2, err=0, cur=0(mA)
[14:42:32-272]<Recv>:
[14:42:32-287]id = 18f51111, dlc = 6
[14:42:32-287]03 01 02 00 ed 01 
[14:42:32-287]dev_relay:ch=3, os=1, ks=2, err=0, cur=4930(mA)
[14:42:32-287]<Recv>:
[14:42:32-287]id = 18f51111, dlc = 6
[14:42:32-287]04 00 02 00 01 00 
[14:42:32-287]dev_relay:ch=4, os=0, ks=2, err=0, cur=10(mA)
[14:42:32-287]<Recv>:
[14:42:32-303]id = 18f51111, dlc = 6
[14:42:32-303]05 00 02 00 01 00 
[14:42:32-303]dev_relay:ch=5, os=0, ks=2, err=0, cur=10(mA)
[14:42:32-334]feed
[14:42:32-334]device:9100334 csq:6 net:1 server:1, relay:1
[14:42:32-834]feed
[14:42:33-334]feed
[14:42:33-334]device:9100334 csq:6 net:1 server:1, relay:1
[14:42:33-834]feed
[14:42:34-334]feed
[14:42:34-350]device:9100334 csq:6 net:1 server:1, relay:1
[14:42:34-444]now: 2023-01-13 14:42:31
[14:42:34-444]relay_output_status ON
[14:42:34-459]Pw:  len=52, data=00 8a dc 2e 03 40 00 00 12 d0 00 01 25 01 17 01 0d 0e 2a 1f ff fc 00 00 00 00 20 00 20 00 00 00 00 00 20 00 20 00 00 00 00 00 00 00 00 00 00 00 00 00 d8 53 
[14:42:34-459]
[14:42:34-850]feed
[14:42:35-350]feed
[14:42:35-350]device:9100334 csq:6 net:1 server:1, relay:1
[14:42:35-850]feed
[14:42:36-350]feed
[14:42:36-350]device:9100334 csq:6 net:1 server:1, relay:1
[14:42:36-850]feed
[14:42:37-350]feed
[14:42:37-350]device:9100334 csq:6 net:1 server:1, relay:1
[14:42:37-459]now: 2023-01-13 14:42:34
[14:42:37-709]air blow: err: 0, rst: 3, status: -1
[14:42:37-709]Rw:  len=8, data=fb 03 00 00 00 0a d1 97 
[14:42:37-850]Rr:  len=1, data=feed
[14:42:38-350]feed
[14:42:38-366]device:9100334 csq:6 net:1 server:1, relay:1
[14:42:38-866]feed
[14:42:39-366]feed
[14:42:39-366]device:9100334 csq:6 net:1 server:1, relay:1
[14:42:39-725]air blow: err: 1, rst: 3, status: -2
[14:42:39-741]Rw:  len=8, data=fb 03 00 00 00 0a d1 97 
[14:42:39-866]Rr:  len=1, data=feed
[14:42:40-366]feed
[14:42:40-366]device:9100334 csq:6 net:1 server:1, relay:1
[14:42:40-475]now: 2023-01-13 14:42:37
[14:42:40-866]feed
[14:42:41-366]feed
[14:42:41-366]device:9100334 csq:6 net:1 server:1, relay:1
[14:42:41-741]air blow: err: 2, rst: 3, status: -2
[14:42:41-756]Rw:  len=8, data=fb 03 00 00 00 0a d1 97 
[14:42:41-756]Rr:  len=1, data=CSQ: 6
[14:42:41-866]feed
[14:42:42-366]feed
[14:42:42-381]device:9100334 csq:6 net:1 server:1, relay:1
[14:42:42-881]feed
[14:42:43-381]feed
[14:42:43-381]device:9100334 csq:6 net:1 server:1, relay:1
[14:42:43-475]now: 2023-01-13 14:42:40
[14:42:43-772]air blow: err: 3, rst: 3, status: -2
[14:42:43-772]Rw:  len=8, data=fb 03 00 00 00 0a d1 97 
[14:42:43-787]Rr:  len=1, data=<Recv>:
[14:42:43-787]id = 18f51111, dlc = 6
[14:42:43-787]01 00 02 00 00 00 
[14:42:43-803]dev_relay:ch=1, os=0, ks=2, err=0, cur=0(mA)
[14:42:43-803]<Recv>:
[14:42:43-803]id = 18f51111, dlc = 6
[14:42:43-803]02 00 02 00 00 00 
[14:42:43-803]dev_relay:ch=2, os=0, ks=2, err=0, cur=0(mA)
[14:42:43-803]<Recv>:
[14:42:43-803]id = 18f51111, dlc = 6
[14:42:43-819]03 01 01 00 19 01 
[14:42:43-819]dev_relay:ch=3, os=1, ks=1, err=0, cur=2810(mA)
[14:42:43-819]<Recv>:
[14:42:43-819]id = 18f51111, dlc = 6
[14:42:43-819]04 00 02 00 03 00 
[14:42:43-819]dev_relay:ch=4, os=0, ks=2, err=0, cur=30(mA)
[14:42:43-819]<Recv>:
[14:42:43-834]id = 18f51111, dlc = 6
[14:42:43-834]05 00 02 00 01 00 
[14:42:43-834]dev_relay:ch=5, os=0, ks=2, err=0, cur=10(mA)
[14:42:43-881]feed
[14:42:44-319]<Recv>:
[14:42:44-319]id = 18f61111, dlc = 7
[14:42:44-319]04 48 08 52 08 5c 08 
[14:42:44-335]power in:cfg=4, VA=212(V), VB=213(V), VC=214(V)
[14:42:44-381]feed
[14:42:44-381]device:9100334 csq:6 net:1 server:1, relay:1
[14:42:44-475]key<3> press
[14:42:44-881]feed
[14:42:45-381]feed
[14:42:45-381]device:9100334 csq:6 net:1 server:1, relay:1
[14:42:45-788]air blow: err: 4, rst: 3, status: -2
[14:42:45-788]Rw:  len=8, data=fb 03 00 00 00 0a d1 97 
[14:42:45-881]Rr:  len=1, data=feed
[14:42:46-382]feed
[14:42:46-397]device:9100334 csq:6 net:1 server:1, relay:1
[14:42:46-475]now: 2023-01-13 14:42:43
[14:42:46-897]feed
[14:42:47-397]feed
[14:42:47-397]device:9100334 csq:6 net:1 server:1, relay:1
[14:42:47-794]air blow: err: 5, rst: 3, status: -2
[14:42:47-809]Rw:  len=8, data=fb 03 00 00 00 0a d1 97 
[14:42:47-903]Rr:  len=1, data=feed
[14:42:48-403]feed
[14:42:48-403]device:9100334 csq:6 net:1 server:1, relay:1
[14:42:48-903]feed
[14:42:49-403]feed
[14:42:49-403]device:9100334 csq:6 net:1 server:1, relay:1
[14:42:49-481]now: 2023-01-13 14:42:46
[14:42:49-809]air blow: err: 6, rst: 3, status: -2
[14:42:49-825]Rw:  len=8, data=fb 03 00 00 00 0a d1 97 
[14:42:49-903]Rr:  len=1, data=feed
[14:42:50-403]feed
[14:42:50-403]device:9100334 csq:6 net:1 server:1, relay:1
[14:42:50-903]feed
[14:42:51-403]feed
[14:42:51-419]device:9100334 csq:6 net:1 server:1, relay:1
[14:42:51-840]air blow: err: 7, rst: 3, status: -2
[14:42:51-840]Rw:  len=8, data=fb 03 00 00 00 0a d1 97 
[14:42:51-919]Rr:  len=1, data=feed
[14:42:52-419]feed
[14:42:52-419]device:9100334 csq:6 net:1 server:1, relay:1
[14:42:52-481]now: 2023-01-13 14:42:49
[14:42:52-919]feed
[14:42:53-419]feed
[14:42:53-419]device:9100334 csq:6 net:1 server:1, relay:1
[14:42:53-575]Pr:  len=13, data=00 8a dc 2e 16 40 00 02 0b 00 00 01 06 
[14:42:53-575]Pr:  len=6, data=01 20 00 00 00 14 
[14:42:53-575]Pr:  len=2, data=07 e8 
[14:42:53-575]eeprom write: 1578 page
[14:42:53-590]01 01 00 17 01 0d 0e 2a 32 17 01 0d 0f 02 32 00 00 00 00 00 00 00 00 00 00 00 00 00 00 00 c5 91 
[14:42:53-606]Pw:  len=15, data=00 8a dc 2e 16 40 00 02 0b d0 00 01 00 91 a2 
[14:42:53-606]
[14:42:53-856]air blow: err: 8, rst: 3, status: -2
[14:42:53-856]Rw:  len=8, data=fb 03 00 00 00 0a d1 97 
[14:42:53-919]Rr:  len=1, data=feed
[14:42:54-419]feed
[14:42:54-419]device:9100334 csq:6 net:1 server:1, relay:1
[14:42:54-606]CSQ: 6
[14:42:54-919]feed
[14:42:55-419]feed
[14:42:55-434]device:9100334 csq:6 net:1 server:1, relay:1
[14:42:55-481]now: 2023-01-13 14:42:52
[14:42:55-872]air blow: err: 9, rst: 3, status: -2
[14:42:55-872]Rw:  len=8, data=fb 03 00 00 00 0a d1 97 
[14:42:55-934]Rr:  len=1, data=feed
[14:42:56-434]feed
[14:42:56-434]device:9100334 csq:6 net:1 server:1, relay:1
[14:42:56-934]feed
[14:42:57-434]feed
[14:42:57-434]device:9100334 csq:6 net:1 server:1, relay:1
[14:42:57-887]Rw:  len=8, data=01 06 00 0a 00 00 a9 c8 
[14:42:57-934]Rr:  len=1, data=feed
[14:42:58-434]feed
[14:42:58-434]device:9100334 csq:6 net:1 server:1, relay:1
[14:42:58-481]now: 2023-01-13 14:42:55
[14:42:58-887]read each start
[14:42:58-903]Rw:  len=8, data=01 03 00 00 00 05 85 c9 
[14:42:58-934]Rr:  len=1, data=feed
[14:42:59-434]feed
[14:42:59-450]device:9100334 csq:6 net:1 server:1, relay:1
[14:42:59-903]
[14:42:59-903]Sensors read rc -2 s -2
[14:42:59-950]feed
[14:43:00-450]feed
[14:43:00-450]device:9100334 csq:6 net:1 server:1, relay:1
[14:43:00-919]Rw:  len=8, data=02 03 00 00 00 03 05 f8 
[14:43:00-950]Rr:  len=1, data=feed
[14:43:01-450]feed
[14:43:01-450]device:9100334 csq:6 net:1 server:1, relay:1
[14:43:01-481]now: 2023-01-13 14:42:58
[14:43:01-919]
[14:43:01-919]Sensors read rc -2 s -2
[14:43:01-950]feed
[14:43:02-450]feed
[14:43:02-450]device:9100334 csq:6 net:1 server:1, relay:1
[14:43:02-934]read each end
[14:43:02-934]indicators_values[1].sensor = 20000a1c
[14:43:02-934]indicators_values[2].sensor = 20000a8c
[14:43:02-950]feed
[14:43:03-466]feed
[14:43:03-466]device:9100334 csq:6 net:1 server:1, relay:1
[14:43:03-934]air blow: err: 10, rst: 3, status: -2
[14:43:03-934]Rw:  len=8, data=fb 03 00 00 00 0a d1 97 
[14:43:03-966]Rr:  len=1, data=feed
[14:43:04-466]feed
[14:43:04-466]device:9100334 csq:6 net:1 server:1, relay:1
[14:43:04-481]now: 2023-01-13 14:43:01
[14:43:04-966]feed
[14:43:05-466]feed
[14:43:05-466]device:9100334 csq:6 net:1 server:1, relay:1
[14:43:05-950]probe u_value = 0
[14:43:05-950]probe u_value = 0
[14:43:05-950]probe u_value = 0
[14:43:05-966]Rw:  len=8, data=01 06 00 0a 00 00 a9 c8 
[14:43:06-466]Rr:  len=1, data=feed
[14:43:06-466]device:9100334 csq:6 net:1 server:1, relay:1
[14:43:06-966]read each start
[14:43:06-981]Rw:  len=8, data=01 03 00 00 00 05 85 c9 
[14:43:07-481]Rr:  len=1, data=feed
[14:43:07-481]device:9100334 csq:6 net:1 server:1, relay:1
[14:43:07-481]now: 2023-01-13 14:43:04
[14:43:07-731]CSQ: 6
[14:43:07-981]feed
[14:43:07-981]
[14:43:07-981]Sensors read rc -2 s -2
[14:43:08-481]feed
[14:43:08-481]device:9100334 csq:6 net:1 server:1, relay:1
[14:43:08-981]feed
[14:43:08-997]Rw:  len=8, data=02 03 00 00 00 03 05 f8 
[14:43:09-481]Rr:  len=1, data=feed
[14:43:09-481]device:9100334 csq:6 net:1 server:1, relay:1
[14:43:09-981]feed
[14:43:09-997]
[14:43:09-997]Sensors read rc -2 s -2
[14:43:10-481]feed
[14:43:10-481]device:9100334 csq:6 net:1 server:1, relay:1
[14:43:10-497]now: 2023-01-13 14:43:07
[14:43:10-981]feed
[14:43:10-997]read each end
[14:43:11-013]indicators_values[1].sensor = 20000a1c
[14:43:11-013]indicators_values[2].sensor = 20000a8c
[14:43:11-497]feed
[14:43:11-497]device:9100334 csq:6 net:1 server:1, relay:1
[14:43:11-825]<Recv>:
[14:43:11-825]id = 18f51111, dlc = 6
[14:43:11-825]01 00 02 00 00 00 
[14:43:11-841]dev_relay:ch=1, os=0, ks=2, err=0, cur=0(mA)
[14:43:11-841]<Recv>:
[14:43:11-841]id = 18f51111, dlc = 6
[14:43:11-841]02 00 02 00 00 00 
[14:43:11-841]dev_relay:ch=2, os=0, ks=2, err=0, cur=0(mA)
[14:43:11-841]<Recv>:
[14:43:11-841]id = 18f51111, dlc = 6
[14:43:11-841]03 01 02 00 19 01 
[14:43:11-857]dev_relay:ch=3, os=1, ks=2, err=0, cur=2810(mA)
[14:43:11-857]<Recv>:
[14:43:11-857]id = 18f51111, dlc = 6
[14:43:11-857]04 00 02 00 03 00 
[14:43:11-857]dev_relay:ch=4, os=0, ks=2, err=0, cur=30(mA)
[14:43:11-857]<Recv>:
[14:43:11-857]id = 18f51111, dlc = 6
[14:43:11-872]05 00 02 00 01 00 
[14:43:11-872]dev_relay:ch=5, os=0, ks=2, err=0, cur=10(mA)
[14:43:11-997]feed
[14:43:12-013]air blow: err: 10, rst: 3, status: -2
[14:43:12-013]Rw:  len=8, data=fb 03 00 00 00 0a d1 97 
[14:43:12-497]Rr:  len=1, data=feed
[14:43:12-497]device:9100334 csq:6 net:1 server:1, relay:1
[14:43:12-497]key<3> release
[14:43:12-497]set_ch <3> = OFF
[14:43:12-497]<USend>:
[14:43:12-497]id = 0c501101, dlc = 7
[14:43:12-513]03 00 03 00 00 00 00 
[14:43:12-513]<Recv>:
[14:43:12-528]id = 18e80111, dlc = 4
[14:43:12-528]50 00 00 00 
[14:43:12-528]dev_respon:PGN=5000,status=0
[14:43:12-857]usart reinit
[14:43:12-997]feed
[14:43:13-060]<Recv>:
[14:43:13-060]id = 18f51111, dlc = 6
[14:43:13-060]01 00 02 00 00 00 
[14:43:13-060]dev_relay:ch=1, os=0, ks=2, err=0, cur=0(mA)
[14:43:13-060]<Recv>:
[14:43:13-060]id = 18f51111, dlc = 6
[14:43:13-060]02 00 02 00 00 00 
[14:43:13-060]dev_relay:ch=2, os=0, ks=2, err=0, cur=0(mA)
[14:43:13-060]<Recv>:
[14:43:13-060]id = 18f51111, dlc = 6
[14:43:13-075]03 00 02 00 19 01 
[14:43:13-075]dev_relay:ch=3, os=0, ks=2, err=0, cur=2810(mA)
[14:43:13-075]<Recv>:
[14:43:13-091]id = 18f51111, dlc = 6
[14:43:13-091]04 00 02 00 03 00 
[14:43:13-091]dev_relay:ch=4, os=0, ks=2, err=0, cur=30(mA)
[14:43:13-091]<Recv>:
[14:43:13-091]id = 18f51111, dlc = 6
[14:43:13-091]05 00 02 00 01 00 
[14:43:13-107]dev_relay:ch=5, os=0, ks=2, err=0, cur=10(mA)
[14:43:13-497]feed
[14:43:13-497]device:9100334 csq:6 net:1 server:1, relay:1
[14:43:13-997]feed
[14:43:14-028]probe u_value = 0
[14:43:14-028]probe u_value = 0
[14:43:14-028]probe u_value = 0
[14:43:14-028]Rw:  len=8, data=01 06 00 0a 00 00 a9 c8 
[14:43:14-044]Rr:  len=1, data=Pw:  len=15, data=00 8a dc 2e 03 40 00 00 22 d0 00 01 00 3f 16 
[14:43:14-060]
[14:43:14-091]<Recv>:
[14:43:14-091]id = 18f51111, dlc = 6
[14:43:14-091]01 00 02 00 00 00 
[14:43:14-091]dev_relay:ch=1, os=0, ks=2, err=0, cur=0(mA)
[14:43:14-091]<Recv>:
[14:43:14-091]id = 18f51111, dlc = 6
[14:43:14-091]02 00 02 00 00 00 
[14:43:14-107]dev_relay:ch=2, os=0, ks=2, err=0, cur=0(mA)
[14:43:14-107]<Recv>:
[14:43:14-107]id = 18f51111, dlc = 6
[14:43:14-107]03 00 02 00 00 00 
[14:43:14-107]dev_relay:ch=3, os=0, ks=2, err=0, cur=0(mA)
[14:43:14-107]<Recv>:
[14:43:14-107]id = 18f51111, dlc = 6
[14:43:14-107]04 00 02 00 01 00 
[14:43:14-122]dev_relay:ch=4, os=0, ks=2, err=0, cur=10(mA)
[14:43:14-122]<Recv>:
[14:43:14-122]id = 18f51111, dlc = 6
[14:43:14-122]05 00 02 00 01 00 
[14:43:14-122]dev_relay:ch=5, os=0, ks=2, err=0, cur=10(mA)
[14:43:14-310]Pr:  len=13, data=00 8a dc 2e 03 40 00 00 22 d1 00 01 00 
[14:43:14-310]Pr:  len=2, data=3e ea 
[14:43:14-497]feed
[14:43:14-513]device:9100334 csq:6 net:1 server:1, relay:1
[14:43:14-622]<Recv>:
[14:43:14-622]id = 18f61111, dlc = 7
[14:43:14-622]04 48 08 5c 08 5c 08 
[14:43:14-622]power in:cfg=4, VA=212(V), VB=214(V), VC=214(V)
[14:43:15-013]feed
[14:43:15-044]read each start
[14:43:15-044]Rw:  len=8, data=01 03 00 00 00 05 85 c9 
[14:43:15-513]Rr:  len=1, data=feed
[14:43:15-513]device:9100334 csq:6 net:1 server:1, relay:1
[14:43:15-607]now: 2023-01-13 14:43:12
[14:43:15-607]relay_output_status OFF
[14:43:15-622]Pw:  len=52, data=00 8a dc 2e 03 40 00 00 12 d0 00 01 25 01 17 01 0d 0e 2b 0c ff fc 00 00 00 00 00 00 20 00 00 00 00 00 00 00 00 00 00 00 00 00 00 00 00 00 00 00 00 00 c9 64 
[14:43:15-638]
[14:43:16-013]feed
[14:43:16-060]
[14:43:16-060]Sensors read rc -2 s -2
[14:43:16-513]feed
[14:43:16-513]device:9100334 csq:6 net:1 server:1, relay:1
[14:43:17-013]feed
[14:43:17-060]Rw:  len=8, data=02 03 00 00 00 03 05 f8 
[14:43:17-513]Rr:  len=1, data=feed
[14:43:17-513]device:9100334 csq:6 net:1 server:1, relay:1
[14:43:18-013]feed
[14:43:18-075]
[14:43:18-075]Sensors read rc -2 s -2
[14:43:18-513]feed
[14:43:18-529]device:9100334 csq:6 net:1 server:1, relay:1
[14:43:18-638]now: 2023-01-13 14:43:15
[14:43:19-029]feed
[14:43:19-075]read each end
[14:43:19-075]indicators_values[1].sensor = 20000a1c
[14:43:19-091]indicators_values[2].sensor = 20000a8c
[14:43:19-529]feed
[14:43:19-529]device:9100334 csq:6 net:1 server:1, relay:1
[14:43:20-029]feed
[14:43:20-091]air blow: err: 10, rst: 3, status: -2
[14:43:20-091]Rw:  len=8, data=fb 03 00 00 00 0a d1 97 
[14:43:20-529]Rr:  len=1, data=feed
[14:43:20-529]device:9100334 csq:6 net:1 server:1, relay:1
[14:43:20-607]CSQ: 6
[14:43:21-029]feed
[14:43:21-529]feed
[14:43:21-529]device:9100334 csq:6 net:1 server:1, relay:1
[14:43:21-638]now: 2023-01-13 14:43:18
[14:43:22-029]feed
[14:43:22-107]probe u_value = 0
[14:43:22-107]probe u_value = 0
[14:43:22-107]probe u_value = 0
[14:43:22-107]Rw:  len=8, data=01 06 00 0a 00 00 a9 c8 
[14:43:22-529]Rr:  len=1, data=feed
[14:43:22-544]device:9100334 csq:6 net:1 server:1, relay:1
[14:43:23-044]feed
[14:43:23-122]read each start
[14:43:23-122]Rw:  len=8, data=01 03 00 00 00 05 85 c9 
[14:43:23-544]Rr:  len=1, data=feed
[14:43:23-544]device:9100334 csq:6 net:1 server:1, relay:1
[14:43:24-044]feed
[14:43:24-138]
[14:43:24-138]Sensors read rc -2 s -2
[14:43:24-544]feed
[14:43:24-544]device:9100334 csq:6 net:1 server:1, relay:1
[14:43:24-638]now: 2023-01-13 14:43:21
[14:43:24-826]<Recv>:
[14:43:24-826]id = 18f51111, dlc = 6
[14:43:24-826]01 00 02 00 00 00 
[14:43:24-826]dev_relay:ch=1, os=0, ks=2, err=0, cur=0(mA)
[14:43:24-826]<Recv>:
[14:43:24-826]id = 18f51111, dlc = 6
[14:43:24-826]02 00 02 00 00 00 
[14:43:24-826]dev_relay:ch=2, os=0, ks=2, err=0, cur=0(mA)
[14:43:24-826]<Recv>:
[14:43:24-826]id = 18f51111, dlc = 6
[14:43:24-841]03 01 01 00 00 00 
[14:43:24-841]dev_relay:ch=3, os=1, ks=1, err=0, cur=0(mA)
[14:43:24-841]<Recv>:
[14:43:24-857]id = 18f51111, dlc = 6
[14:43:24-857]04 00 02 00 01 00 
[14:43:24-857]dev_relay:ch=4, os=0, ks=2, err=0, cur=10(mA)
[14:43:24-857]<Recv>:
[14:43:24-857]id = 18f51111, dlc = 6
[14:43:24-857]05 00 02 00 01 00 
[14:43:24-873]dev_relay:ch=5, os=0, ks=2, err=0, cur=10(mA)
[14:43:25-044]feed
[14:43:25-138]Rw:  len=8, data=02 03 00 00 00 03 05 f8 
[14:43:25-341]Rr:  len=1, data=<Recv>:
[14:43:25-357]id = 18f51111, dlc = 6
[14:43:25-357]01 00 02 00 00 00 
[14:43:25-357]dev_relay:ch=1, os=0, ks=2, err=0, cur=0(mA)
[14:43:25-357]<Recv>:
[14:43:25-357]id = 18f51111, dlc = 6
[14:43:25-357]02 00 02 00 00 00 
[14:43:25-373]dev_relay:ch=2, os=0, ks=2, err=0, cur=0(mA)
[14:43:25-373]<Recv>:
[14:43:25-373]id = 18f51111, dlc = 6
[14:43:25-373]03 01 01 00 ae 01 
[14:43:25-373]dev_relay:ch=3, os=1, ks=1, err=0, cur=4300(mA)
[14:43:25-373]<Recv>:
[14:43:25-373]id = 18f51111, dlc = 6
[14:43:25-388]04 00 02 00 01 00 
[14:43:25-388]dev_relay:ch=4, os=0, ks=2, err=0, cur=10(mA)
[14:43:25-388]<Recv>:
[14:43:25-388]id = 18f51111, dlc = 6
[14:43:25-388]05 00 02 00 01 00 
[14:43:25-388]dev_relay:ch=5, os=0, ks=2, err=0, cur=10(mA)
[14:43:25-544]feed
[14:43:25-544]device:9100334 csq:6 net:1 server:1, relay:1
[14:43:25-638]key<3> press
[14:43:25-638]get_ch <3> = ON
[14:43:26-044]feed
[14:43:26-154]
[14:43:26-154]Sensors read rc -2 s -2
[14:43:26-544]feed
[14:43:26-560]device:9100334 csq:6 net:1 server:1, relay:1
[14:43:26-638]relay_output_status ON
[14:43:26-638]Pw:  len=52, data=00 8a dc 2e 03 40 00 00 12 d0 00 01 25 01 17 01 0d 0e 2b 17 ff fc 00 00 00 00 20 00 20 00 20 00 00 00 20 00 20 00 00 00 00 00 00 00 00 00 00 00 00 00 df 5c 
[14:43:26-669]
[14:43:27-060]feed
[14:43:27-154]read each end
[14:43:27-154]indicators_values[1].sensor = 20000a1c
[14:43:27-154]indicators_values[2].sensor = 20000a8c
[14:43:27-560]feed
[14:43:27-560]device:9100334 csq:6 net:1 server:1, relay:1
[14:43:27-669]now: 2023-01-13 14:43:24
[14:43:28-060]feed
[14:43:28-169]air blow: err: 10, rst: 3, status: -2
[14:43:28-169]Rw:  len=8, data=fb 03 00 00 00 0a d1 97 
[14:43:28-560]Rr:  len=1, data=feed
[14:43:28-560]device:9100334 csq:6 net:1 server:1, relay:1
[14:43:29-060]feed
[14:43:29-560]feed
[14:43:29-560]device:9100334 csq:6 net:1 server:1, relay:1
[14:43:30-060]feed
[14:43:30-185]probe u_value = 0
[14:43:30-185]probe u_value = 0
[14:43:30-185]probe u_value = 0
[14:43:30-185]Rw:  len=8, data=01 06 00 0a 00 00 a9 c8 
[14:43:30-576]Rr:  len=1, data=feed
[14:43:30-576]device:9100334 csq:6 net:1 server:1, relay:1
[14:43:30-670]now: 2023-01-13 14:43:27
[14:43:31-076]feed
[14:43:31-201]read each start
[14:43:31-201]Rw:  len=8, data=01 03 00 00 00 05 85 c9 
[14:43:31-576]Rr:  len=1, data=feed
[14:43:31-576]device:9100334 csq:6 net:1 server:1, relay:1
[14:43:32-076]feed
[14:43:32-217]
[14:43:32-217]Sensors read rc -2 s -2
[14:43:32-576]feed
[14:43:32-576]device:9100334 csq:6 net:1 server:1, relay:1
[14:43:33-076]feed
[14:43:33-217]Rw:  len=8, data=02 03 00 00 00 03 05 f8 
[14:43:33-576]Rr:  len=1, data=feed
[14:43:33-592]device:9100334 csq:6 net:1 server:1, relay:1
[14:43:33-670]now: 2023-01-13 14:43:30
[14:43:33-732]CSQ: 6
[14:43:34-076]feed
[14:43:34-232]
[14:43:34-232]Sensors read rc -2 s -2
[14:43:34-592]feed
[14:43:34-592]device:9100334 csq:6 net:1 server:1, relay:1
[14:43:35-092]feed
[14:43:35-232]read each end
[14:43:35-232]indicators_values[1].sensor = 20000a1c
[14:43:35-232]indicators_values[2].sensor = 20000a8c
[14:43:35-592]feed
[14:43:35-592]device:9100334 csq:6 net:1 server:1, relay:1
[14:43:36-092]feed
[14:43:36-232]air blow: err: 10, rst: 3, status: -2
[14:43:36-248]Rw:  len=8, data=fb 03 00 00 00 0a d1 97 
[14:43:36-592]Rr:  len=1, data=feed
[14:43:36-592]device:9100334 csq:6 net:1 server:1, relay:1
[14:43:36-670]now: 2023-01-13 14:43:33
[14:43:37-092]feed
[14:43:37-592]feed
[14:43:37-607]device:9100334 csq:6 net:1 server:1, relay:1
[14:43:38-107]feed
[14:43:38-248]probe u_value = 0
[14:43:38-263]probe u_value = 0
[14:43:38-263]probe u_value = 0
[14:43:38-263]Rw:  len=8, data=01 06 00 0a 00 00 a9 c8 
[14:43:38-607]Rr:  len=1, data=feed
[14:43:38-607]device:9100334 csq:6 net:1 server:1, relay:1
[14:43:39-107]feed
[14:43:39-279]read each start
[14:43:39-279]Rw:  len=8, data=01 03 00 00 00 05 85 c9 
[14:43:39-607]Rr:  len=1, data=feed
[14:43:39-607]device:9100334 csq:6 net:1 server:1, relay:1
[14:43:39-670]now: 2023-01-13 14:43:36
[14:43:40-107]feed
[14:43:40-295]
[14:43:40-295]Sensors read rc -2 s -2
[14:43:40-607]feed
[14:43:40-607]device:9100334 csq:6 net:1 server:1, relay:1
[14:43:41-107]feed
[14:43:41-295]Rw:  len=8, data=02 03 00 00 00 03 05 f8 
[14:43:41-607]Rr:  len=1, data=feed
[14:43:41-623]device:9100334 csq:6 net:1 server:1, relay:1
[14:43:42-123]feed
[14:43:42-310]
[14:43:42-310]Sensors read rc -2 s -2
[14:43:42-623]feed
[14:43:42-623]device:9100334 csq:6 net:1 server:1, relay:1
[14:43:42-670]now: 2023-01-13 14:43:39
[14:43:43-123]feed
[14:43:43-310]read each end
[14:43:43-310]indicators_values[1].sensor = 20000a1c
[14:43:43-310]indicators_values[2].sensor = 20000a8c
[14:43:43-623]feed
[14:43:43-623]device:9100334 csq:6 net:1 server:1, relay:1
[14:43:44-076]<Recv>:
[14:43:44-076]id = 18f51111, dlc = 6
[14:43:44-076]01 00 02 00 00 00 
[14:43:44-076]dev_relay:ch=1, os=0, ks=2, err=0, cur=0(mA)
[14:43:44-076]<Recv>:
[14:43:44-076]id = 18f51111, dlc = 6
[14:43:44-092]02 00 02 00 00 00 
[14:43:44-092]dev_relay:ch=2, os=0, ks=2, err=0, cur=0(mA)
[14:43:44-092]<Recv>:
[14:43:44-092]id = 18f51111, dlc = 6
[14:43:44-092]03 00 02 00 16 01 
[14:43:44-092]dev_relay:ch=3, os=0, ks=2, err=0, cur=2780(mA)
[14:43:44-107]<Recv>:
[14:43:44-107]id = 18f51111, dlc = 6
[14:43:44-107]04 00 02 00 03 00 
[14:43:44-123]dev_relay:ch=4, os=0, ks=2, err=0, cur=30(mA)
[14:43:44-123]<Recv>:
[14:43:44-123]id = 18f51111, dlc = 6
[14:43:44-123]05 00 02 00 01 00 
[14:43:44-123]dev_relay:ch=5, os=0, ks=2, err=0, cur=10(mA)
[14:43:44-310]air blow: err: 10, rst: 3, status: -2
[14:43:44-310]Rw:  len=8, data=fb 03 00 00 00 0a d1 97 
[14:43:44-623]Rr:  len=1, data=feed
[14:43:44-623]device:9100334 csq:6 net:1 server:1, relay:1
[14:43:44-685]key<3> release
[14:43:44-685]get_ch <3> = OFF
[14:43:45-107]<Recv>:
[14:43:45-107]id = 18f61111, dlc = 7
[14:43:45-107]04 48 08 5c 08 5c 08 
[14:43:45-123]power in:cfg=4, VA=212(V), VB=214(V), VC=214(V)
[14:43:45-123]feed
[14:43:45-623]<Recv>:
[14:43:45-623]id = 18f51111, dlc = 6
[14:43:45-623]01 00 02 00 00 00 
[14:43:45-623]dev_relay:ch=1, os=0, ks=2, err=0, cur=0(mA)
[14:43:45-623]<Recv>:
[14:43:45-623]id = 18f51111, dlc = 6
[14:43:45-623]02 00 02 00 00 00 
[14:43:45-638]dev_relay:ch=2, os=0, ks=2, err=0, cur=0(mA)
[14:43:45-638]<Recv>:
[14:43:45-638]id = 18f51111, dlc = 6
[14:43:45-638]03 00 02 00 00 00 
[14:43:45-638]dev_relay:ch=3, os=0, ks=2, err=0, cur=0(mA)
[14:43:45-638]<Recv>:
[14:43:45-638]id = 18f51111, dlc = 6
[14:43:45-638]04 00 02 00 01 00 
[14:43:45-654]dev_relay:ch=4, os=0, ks=2, err=0, cur=10(mA)
[14:43:45-654]<Recv>:
[14:43:45-654]id = 18f51111, dlc = 6
[14:43:45-654]05 00 02 00 01 00 
[14:43:45-654]dev_relay:ch=5, os=0, ks=2, err=0, cur=10(mA)
[14:43:45-685]now: 2023-01-13 14:43:42
[14:43:45-685]relay_output_status OFF
[14:43:45-701]Pw:  len=52, data=00 8a dc 2e 03 40 00 00 12 d0 00 01 25 01 17 01 0d 0e 2b 2a ff fc 00 00 00 00 00 00 20 00 00 00 00 00 00 00 00 00 00 00 00 00 00 00 00 00 00 00 00 00 a8 b5 
[14:43:45-701]
[14:43:46-123]feed
[14:43:46-326]probe u_value = 0
[14:43:46-326]probe u_value = 0
[14:43:46-326]probe u_value = 0
[14:43:46-342]Rw:  len=8, data=01 06 00 0a 00 00 a9 c8 
[14:43:46-592]Rr:  len=1, data=CSQ: 6
[14:43:46-623]feed
[14:43:46-639]device:9100334 csq:6 net:1 server:1, relay:1
[14:43:47-139]feed
[14:43:47-342]read each start
[14:43:47-357]Rw:  len=8, data=01 03 00 00 00 05 85 c9 
[14:43:47-639]Rr:  len=1, data=feed
[14:43:47-639]device:9100334 csq:6 net:1 server:1, relay:1
[14:43:48-139]feed
[14:43:48-357]
[14:43:48-357]Sensors read rc -2 s -2
[14:43:48-639]feed
[14:43:48-639]device:9100334 csq:6 net:1 server:1, relay:1
[14:43:48-701]now: 2023-01-13 14:43:45
[14:43:49-139]feed
[14:43:49-373]Rw:  len=8, data=02 03 00 00 00 03 05 f8 
[14:43:49-639]Rr:  len=1, data=feed
[14:43:49-639]device:9100334 csq:6 net:1 server:1, relay:1
[14:43:50-139]feed
[14:43:50-373]
[14:43:50-373]Sensors read rc -2 s -2
[14:43:50-654]feed
[14:43:50-654]device:9100334 csq:6 net:1 server:1, relay:1
[14:43:51-154]feed
[14:43:51-373]read each end
[14:43:51-389]indicators_values[1].sensor = 20000a1c
[14:43:51-389]indicators_values[2].sensor = 20000a8c
[14:43:51-654]feed
[14:43:51-654]device:9100334 csq:6 net:1 server:1, relay:1
[14:43:51-717]now: 2023-01-13 14:43:48
[14:43:52-154]feed
[14:43:52-389]air blow: err: 10, rst: 3, status: -2
[14:43:52-389]Rw:  len=8, data=fb 03 00 00 00 0a d1 97 
[14:43:52-654]Rr:  len=1, data=feed
[14:43:52-654]device:9100334 csq:6 net:1 server:1, relay:1
[14:43:53-154]feed
[14:43:53-654]feed
[14:43:53-654]device:9100334 csq:6 net:1 server:1, relay:1
[14:43:54-154]feed
[14:43:54-404]probe u_value = 0
[14:43:54-404]probe u_value = 0
[14:43:54-404]probe u_value = 0
[14:43:54-404]Rw:  len=8, data=01 06 00 0a 00 00 a9 c8 
[14:43:54-670]Rr:  len=1, data=feed
[14:43:54-670]device:9100334 csq:6 net:1 server:1, relay:1
[14:43:54-717]now: 2023-01-13 14:43:51
[14:43:55-170]feed
[14:43:55-420]read each start
[14:43:55-420]Rw:  len=8, data=01 03 00 00 00 05 85 c9 
[14:43:55-670]Rr:  len=1, data=feed
[14:43:55-670]device:9100334 csq:6 net:1 server:1, relay:1
[14:43:56-170]feed
[14:43:56-436]
[14:43:56-436]Sensors read rc -2 s -2
[14:43:56-670]feed
[14:43:56-670]device:9100334 csq:6 net:1 server:1, relay:1
[14:43:57-170]feed
[14:43:57-436]Rw:  len=8, data=02 03 00 00 00 03 05 f8 
[14:43:57-670]Rr:  len=1, data=feed
[14:43:57-686]device:9100334 csq:6 net:1 server:1, relay:1
[14:43:57-717]now: 2023-01-13 14:43:54
[14:43:57-842]<Recv>:
[14:43:57-842]id = 18f51111, dlc = 6
[14:43:57-842]01 00 02 00 00 00 
[14:43:57-842]dev_relay:ch=1, os=0, ks=2, err=0, cur=0(mA)
[14:43:57-842]<Recv>:
[14:43:57-842]id = 18f51111, dlc = 6
[14:43:57-858]02 00 02 00 00 00 
[14:43:57-858]dev_relay:ch=2, os=0, ks=2, err=0, cur=0(mA)
[14:43:57-858]<Recv>:
[14:43:57-873]id = 18f51111, dlc = 6
[14:43:57-873]03 01 01 00 00 00 
[14:43:57-873]dev_relay:ch=3, os=1, ks=1, err=0, cur=0(mA)
[14:43:57-873]<Recv>:
[14:43:57-873]id = 18f51111, dlc = 6
[14:43:57-873]04 00 02 00 01 00 
[14:43:57-889]dev_relay:ch=4, os=0, ks=2, err=0, cur=10(mA)
[14:43:57-889]<Recv>:
[14:43:57-889]id = 18f51111, dlc = 6
[14:43:57-889]05 00 02 00 01 00 
[14:43:57-889]dev_relay:ch=5, os=0, ks=2, err=0, cur=10(mA)
[14:43:58-170]feed
[14:43:58-373]<Recv>:
[14:43:58-373]id = 18f51111, dlc = 6
[14:43:58-373]01 00 02 00 00 00 
[14:43:58-389]dev_relay:ch=1, os=0, ks=2, err=0, cur=0(mA)
[14:43:58-389]<Recv>:
[14:43:58-389]id = 18f51111, dlc = 6
[14:43:58-389]02 00 02 00 00 00 
[14:43:58-389]dev_relay:ch=2, os=0, ks=2, err=0, cur=0(mA)
[14:43:58-389]<Recv>:
[14:43:58-405]id = 18f51111, dlc = 6
[14:43:58-405]03 01 01 00 da 01 
[14:43:58-405]dev_relay:ch=3, os=1, ks=1, err=0, cur=4740(mA)
[14:43:58-405]<Recv>:
[14:43:58-405]id = 18f51111, dlc = 6
[14:43:58-405]04 00 02 00 02 00 
[14:43:58-420]dev_relay:ch=4, os=0, ks=2, err=0, cur=20(mA)
[14:43:58-420]<Recv>:
[14:43:58-420]id = 18f51111, dlc = 6
[14:43:58-420]05 00 02 00 01 00 
[14:43:58-420]dev_relay:ch=5, os=0, ks=2, err=0, cur=10(mA)
[14:43:58-451]
[14:43:58-451]Sensors read rc -2 s -2
[14:43:58-686]feed
[14:43:58-686]device:9100334 csq:6 net:1 server:1, relay:1
[14:43:58-717]key<3> press
[14:43:58-717]get_ch <3> = ON
[14:43:59-186]feed
[14:43:59-451]read each end
[14:43:59-451]indicators_values[1].sensor = 20000a1c
[14:43:59-467]indicators_values[2].sensor = 20000a8c
[14:43:59-686]feed
[14:43:59-686]device:9100334 csq:6 net:1 server:1, relay:1
[14:43:59-717]CSQ: 6
[14:43:59-717]relay_output_status ON
[14:43:59-733]Pw:  len=52, data=00 8a dc 2e 03 40 00 00 12 d0 00 01 25 01 17 01 0d 0e 2b 38 ff fc 00 00 00 00 20 00 20 00 20 00 00 00 20 00 20 00 00 00 00 00 00 00 00 00 00 00 00 00 ae 89 
[14:43:59-733]
[14:44:00-186]feed
[14:44:00-467]air blow: err: 10, rst: 3, status: -2
[14:44:00-467]Rw:  len=8, data=fb 03 00 00 00 0a d1 97 
[14:44:00-686]Rr:  len=1, data=feed
[14:44:00-686]device:9100334 csq:6 net:1 server:1, relay:1
[14:44:00-748]now: 2023-01-13 14:43:57
[14:44:01-186]feed
[14:44:01-686]feed
[14:44:01-701]device:9100334 csq:6 net:1 server:1, relay:1
[14:44:02-201]feed
[14:44:02-483]probe u_value = 0
[14:44:02-483]probe u_value = 0
[14:44:02-483]probe u_value = 0
[14:44:02-483]Rw:  len=8, data=01 06 00 0a 00 00 a9 c8 
[14:44:02-701]Rr:  len=1, data=feed
[14:44:02-701]device:9100334 csq:6 net:1 server:1, relay:1
[14:44:03-202]feed
[14:44:03-498]read each start
[14:44:03-498]Rw:  len=8, data=01 03 00 00 00 05 85 c9 
[14:44:03-702]Rr:  len=1, data=feed
[14:44:03-702]device:9100334 csq:6 net:1 server:1, relay:1
[14:44:03-748]now: 2023-01-13 14:44:00
[14:44:04-202]feed
[14:44:04-514]
[14:44:04-514]Sensors read rc -2 s -2
[14:44:04-702]feed
[14:44:04-702]device:9100334 csq:6 net:1 server:1, relay:1
[14:44:05-202]feed
[14:44:05-514]Rw:  len=8, data=02 03 00 00 00 03 05 f8 
[14:44:05-702]Rr:  len=1, data=feed
[14:44:05-717]device:9100334 csq:6 net:1 server:1, relay:1
[14:44:06-217]feed
[14:44:06-530]
[14:44:06-530]Sensors read rc -2 s -2
[14:44:06-717]feed
[14:44:06-717]device:9100334 csq:6 net:1 server:1, relay:1
[14:44:06-749]now: 2023-01-13 14:44:03
[14:44:07-217]feed
[14:44:07-530]read each end
[14:44:07-530]indicators_values[1].sensor = 20000a1c
[14:44:07-530]indicators_values[2].sensor = 20000a8c
[14:44:07-717]feed
[14:44:07-717]device:9100334 csq:6 net:1 server:1, relay:1
[14:44:08-217]feed
[14:44:08-546]air blow: err: 10, rst: 3, status: -2
[14:44:08-546]Rw:  len=8, data=fb 03 00 00 00 0a d1 97 
[14:44:08-717]Rr:  len=1, data=feed
[14:44:08-717]device:9100334 csq:6 net:1 server:1, relay:1
[14:44:09-218]feed
[14:44:09-718]feed
[14:44:09-733]device:9100334 csq:6 net:1 server:1, relay:1
[14:44:09-749]now: 2023-01-13 14:44:06
[14:44:10-233]feed
[14:44:10-561]probe u_value = 0
[14:44:10-561]probe u_value = 0
[14:44:10-561]probe u_value = 0
[14:44:10-561]Rw:  len=8, data=01 06 00 0a 00 00 a9 c8 
[14:44:10-733]Rr:  len=1, data=feed
[14:44:10-733]device:9100334 csq:6 net:1 server:1, relay:1
[14:44:11-233]feed
[14:44:11-577]read each start
[14:44:11-577]Rw:  len=8, data=01 03 00 00 00 05 85 c9 
[14:44:11-733]Rr:  len=1, data=feed
[14:44:11-733]device:9100334 csq:6 net:1 server:1, relay:1
[14:44:12-233]feed
[14:44:12-593]
[14:44:12-593]Sensors read rc -2 s -2
[14:44:12-733]feed
[14:44:12-733]device:9100334 csq:6 net:1 server:1, relay:1
[14:44:12-749]now: 2023-01-13 14:44:09
[14:44:12-843]CSQ: 6
[14:44:13-233]feed
[14:44:13-593]Rw:  len=8, data=02 03 00 00 00 03 05 f8 
[14:44:13-733]Rr:  len=1, data=feed
[14:44:13-749]device:9100334 csq:6 net:1 server:1, relay:1
[14:44:14-249]feed
[14:44:14-608]
[14:44:14-608]Sensors read rc -2 s -2
[14:44:14-749]feed
[14:44:14-749]device:9100334 csq:6 net:1 server:1, relay:1
[14:44:15-249]feed
[14:44:15-405]<Recv>:
[14:44:15-405]id = 18f61111, dlc = 7
[14:44:15-405]04 48 08 52 08 5c 08 
[14:44:15-421]power in:cfg=4, VA=212(V), VB=213(V), VC=214(V)
[14:44:15-608]read each end
[14:44:15-608]indicators_values[1].sensor = 20000a1c
[14:44:15-608]indicators_values[2].sensor = 20000a8c
[14:44:15-749]feed
[14:44:15-749]device:9100334 csq:6 net:1 server:1, relay:1
[14:44:15-749]now: 2023-01-13 14:44:12
[14:44:16-249]feed
[14:44:16-624]air blow: err: 10, rst: 3, status: -2
[14:44:16-624]Rw:  len=8, data=fb 03 00 00 00 0a d1 97 
[14:44:16-749]Rr:  len=1, data=feed
[14:44:16-749]device:9100334 csq:6 net:1 server:1, relay:1
[14:44:17-249]feed
[14:44:17-749]feed
[14:44:17-765]device:9100334 csq:6 net:1 server:1, relay:1
[14:44:18-265]feed
[14:44:18-624]probe u_value = 0
[14:44:18-640]probe u_value = 0
[14:44:18-640]probe u_value = 0
[14:44:18-640]Rw:  len=8, data=01 06 00 0a 00 00 a9 c8 
[14:44:18-765]Rr:  len=1, data=feed
[14:44:18-765]device:9100334 csq:6 net:1 server:1, relay:1
[14:44:18-765]now: 2023-01-13 14:44:15
[14:44:19-265]feed
[14:44:19-655]read each start
[14:44:19-655]Rw:  len=8, data=01 03 00 00 00 05 85 c9 
[14:44:19-765]Rr:  len=1, data=feed
[14:44:19-765]device:9100334 csq:6 net:1 server:1, relay:1
[14:44:20-265]feed
[14:44:20-671]
[14:44:20-671]Sensors read rc -2 s -2
[14:44:20-765]feed
[14:44:20-765]device:9100334 csq:6 net:1 server:1, relay:1
[14:44:21-265]feed
[14:44:21-671]Rw:  len=8, data=02 03 00 00 00 03 05 f8 
[14:44:21-765]Rr:  len=1, data=feed
[14:44:21-780]device:9100334 csq:6 net:1 server:1, relay:1
[14:44:21-780]now: 2023-01-13 14:44:18
[14:44:22-280]feed
[14:44:22-687]
[14:44:22-687]Sensors read rc -2 s -2
[14:44:22-780]feed
[14:44:22-780]device:9100334 csq:6 net:1 server:1, relay:1
[14:44:23-281]feed
[14:44:23-687]read each end
[14:44:23-687]indicators_values[1].sensor = 20000a1c
[14:44:23-687]indicators_values[2].sensor = 20000a8c
[14:44:23-781]feed
[14:44:23-781]device:9100334 csq:6 net:1 server:1, relay:1
[14:44:24-281]feed
[14:44:24-687]air blow: err: 10, rst: 3, status: -2
[14:44:24-702]Rw:  len=8, data=fb 03 00 00 00 0a d1 97 
[14:44:24-781]Rr:  len=1, data=feed
[14:44:24-781]device:9100334 csq:6 net:1 server:1, relay:1
[14:44:24-796]now: 2023-01-13 14:44:21
[14:44:25-281]feed
[14:44:25-702]CSQ: 6
[14:44:25-796]feed
[14:44:25-796]device:9100334 csq:6 net:1 server:1, relay:1
[14:44:26-296]feed
[14:44:26-702]probe u_value = 0
[14:44:26-702]probe u_value = 0
[14:44:26-702]probe u_value = 0
[14:44:26-718]Rw:  len=8, data=01 06 00 0a 00 00 a9 c8 
[14:44:26-796]Rr:  len=1, data=feed
[14:44:26-796]device:9100334 csq:6 net:1 server:1, relay:1
[14:44:27-296]feed
[14:44:27-718]read each start
[14:44:27-734]Rw:  len=8, data=01 03 00 00 00 05 85 c9 
[14:44:27-796]Rr:  len=1, data=feed
[14:44:27-796]device:9100334 csq:6 net:1 server:1, relay:1
[14:44:27-796]now: 2023-01-13 14:44:24
[14:44:28-296]feed
[14:44:28-734]
[14:44:28-734]Sensors read rc -2 s -2
[14:44:28-796]feed
[14:44:28-796]device:9100334 csq:6 net:1 server:1, relay:1
[14:44:29-296]feed
[14:44:29-750]Rw:  len=8, data=02 03 00 00 00 03 05 f8 
[14:44:29-812]Rr:  len=1, data=feed
[14:44:29-812]device:9100334 csq:6 net:1 server:1, relay:1
[14:44:30-312]feed
[14:44:30-750]
[14:44:30-750]Sensors read rc -2 s -2
[14:44:30-812]feed
[14:44:30-812]device:9100334 csq:6 net:1 server:1, relay:1
[14:44:30-812]now: 2023-01-13 14:44:27
[14:44:31-312]feed
[14:44:31-750]read each end
[14:44:31-765]indicators_values[1].sensor = 20000a1c
[14:44:31-765]indicators_values[2].sensor = 20000a8c
[14:44:31-812]feed
[14:44:31-812]device:9100334 csq:6 net:1 server:1, relay:1
[14:44:32-312]feed
[14:44:32-765]air blow: err: 10, rst: 3, status: -2
[14:44:32-765]Rw:  len=8, data=fb 03 00 00 00 0a d1 97 
[14:44:32-812]Rr:  len=1, data=feed
[14:44:32-828]device:9100334 csq:6 net:1 server:1, relay:1
[14:44:33-328]feed
[14:44:33-828]feed
[14:44:33-828]device:9100334 csq:6 net:1 server:1, relay:1
[14:44:33-828]now: 2023-01-13 14:44:30
[14:44:34-328]feed
[14:44:34-406]Pr:  len=13, data=00 8a dc 2e 16 40 00 03 06 00 00 01 15 
[14:44:34-422]Pr:  len=21, data=51 01 80 00 02 20 00 00 00 00 00 00 00 00 00 80 0e 2e 10 17 02 
[14:44:34-437]Pr:  len=2, data=6c 98 
[14:44:34-437]eeprom write: 1512 page
[14:44:34-437]02 00 20 00 00 00 00 00 00 00 82 0e 2e 10 17 00 00 00 00 00 00 00 00 00 00 00 00 00 00 00 84 60 
[14:44:34-453]eeprom read: 1512 page
[14:44:34-468]02 00 20 00 00 00 00 00 00 00 82 0e 2e 10 17 00 00 00 00 00 00 00 00 00 00 00 00 00 00 00 84 60 
[14:44:34-468]eeprom write: 1504 page
[14:44:34-468]01 01 00 00 00 00 00 00 00 00 00 00 00 00 00 00 00 00 00 00 00 00 00 00 00 00 00 00 00 00 3f 1e 
[14:44:34-484]Pw:  len=15, data=00 8a dc 2e 16 40 00 03 06 d0 00 01 00 bd b2 
[14:44:34-484]
[14:44:34-781]probe u_value = 0
[14:44:34-781]probe u_value = 0
[14:44:34-781]probe u_value = 0
[14:44:34-797]Rw:  len=8, data=01 06 00 0a 00 00 a9 c8 
[14:44:34-828]Rr:  len=1, data=feed
[14:44:34-828]device:9100334 csq:6 net:1 server:1, relay:1
[14:44:35-328]feed
[14:44:35-797]read each start
[14:44:35-797]Rw:  len=8, data=01 03 00 00 00 05 85 c9 
[14:44:35-828]Rr:  len=1, data=feed
[14:44:35-828]device:9100334 csq:6 net:1 server:1, relay:1
[14:44:36-328]feed
[14:44:36-812]
[14:44:36-812]Sensors read rc -2 s -2
[14:44:36-828]feed
[14:44:36-843]device:9100334 csq:6 net:1 server:1, relay:1
[14:44:36-843]now: 2023-01-13 14:44:33
[14:44:37-343]feed
[14:44:37-812]Rw:  len=8, data=02 03 00 00 00 03 05 f8 
[14:44:37-843]Rr:  len=1, data=feed
[14:44:37-843]device:9100334 csq:6 net:1 server:1, relay:1
[14:44:38-343]feed
[14:44:38-828]
[14:44:38-828]Sensors read rc -2 s -2
[14:44:38-828]CSQ: 6
[14:44:38-843]feed
[14:44:38-843]device:9100334 csq:6 net:1 server:1, relay:1
[14:44:39-343]feed
[14:44:39-828]read each end
[14:44:39-828]indicators_values[1].sensor = 20000a1c
[14:44:39-843]indicators_values[2].sensor = 20000a8c
[14:44:39-843]feed
[14:44:39-843]device:9100334 csq:6 net:1 server:1, relay:1
[14:44:39-843]now: 2023-01-13 14:44:36
[14:44:40-343]feed
[14:44:40-843]air blow: err: 10, rst: 3, status: -2
[14:44:40-843]Rw:  len=8, data=fb 03 00 00 00 0a d1 97 
[14:44:40-859]feed
[14:44:40-859]device:9100334 csq:6 net:1 server:1, relay:1
[14:44:41-359]feed
[14:44:41-859]feed
[14:44:41-859]device:9100334 csq:6 net:1 server:1, relay:1
[14:44:42-359]feed
[14:44:42-859]probe u_value = 0
[14:44:42-859]probe u_value = 0
[14:44:42-859]probe u_value = 0
[14:44:42-859]Rw:  len=8, data=01 06 00 0a 00 00 a9 c8 
[14:44:42-875]Rr:  len=1, data=now: 2023-01-13 14:44:39
[14:44:43-359]feed
[14:44:43-859]feed
[14:44:43-859]device:9100334 csq:6 net:1 server:1, relay:1
[14:44:43-875]read each start
[14:44:43-875]Rw:  len=8, data=01 03 00 00 00 05 85 c9 
[14:44:44-359]Rr:  len=1, data=feed
[14:44:44-859]feed
[14:44:44-875]device:9100334 csq:6 net:1 server:1, relay:1
[14:44:44-890]
[14:44:44-890]Sensors read rc -2 s -2
[14:44:45-375]feed
[14:44:45-422]<Recv>:
[14:44:45-422]id = 18f61111, dlc = 7
[14:44:45-422]04 48 08 52 08 5c 08 
[14:44:45-422]power in:cfg=4, VA=212(V), VB=213(V), VC=214(V)
[14:44:45-875]feed
[14:44:45-875]device:9100334 csq:6 net:1 server:1, relay:1
[14:44:45-890]Rw:  len=8, data=02 03 00 00 00 03 05 f8 
[14:44:45-906]Rr:  len=1, data=now: 2023-01-13 14:44:43
[14:44:46-375]feed
[14:44:46-875]feed
[14:44:46-875]device:9100334 csq:6 net:1 server:1, relay:1
[14:44:46-906]
[14:44:46-906]Sensors read rc -2 s -2
[14:44:47-375]feed
[14:44:47-875]feed
[14:44:47-875]device:9100334 csq:6 net:1 server:1, relay:1
[14:44:47-906]read each end
[14:44:47-906]indicators_values[1].sensor = 20000a1c
[14:44:47-922]indicators_values[2].sensor = 20000a8c
[14:44:48-375]feed
[14:44:48-875]feed
[14:44:48-890]device:9100334 csq:6 net:1 server:1, relay:1
[14:44:48-922]air blow: err: 10, rst: 3, status: -2
[14:44:48-922]Rw:  len=8, data=fb 03 00 00 00 0a d1 97 
[14:44:48-937]Rr:  len=1, data=now: 2023-01-13 14:44:46
[14:44:49-390]feed
[14:44:49-890]feed
[14:44:49-890]device:9100334 csq:6 net:1 server:1, relay:1
[14:44:50-390]feed
[14:44:50-890]feed
[14:44:50-890]device:9100334 csq:6 net:1 server:1, relay:1
[14:44:50-937]probe u_value = 0
[14:44:50-937]probe u_value = 0
[14:44:50-937]probe u_value = 0
[14:44:50-937]Rw:  len=8, data=01 06 00 0a 00 00 a9 c8 
[14:44:51-390]Rr:  len=1, data=feed
[14:44:51-703]CSQ: 6
[14:44:51-890]feed
[14:44:51-890]device:9100334 csq:6 net:1 server:1, relay:1
[14:44:51-953]read each start
[14:44:51-953]Rw:  len=8, data=01 03 00 00 00 05 85 c9 
[14:44:51-969]Rr:  len=1, data=now: 2023-01-13 14:44:49
[14:44:52-390]feed
[14:44:52-890]feed
[14:44:52-906]device:9100334 csq:6 net:1 server:1, relay:1
[14:44:52-969]
[14:44:52-969]Sensors read rc -2 s -2
[14:44:53-406]feed
[14:44:53-906]feed
[14:44:53-906]device:9100334 csq:6 net:1 server:1, relay:1
[14:44:53-969]Rw:  len=8, data=02 03 00 00 00 03 05 f8 
[14:44:54-406]Rr:  len=1, data=feed
[14:44:54-906]feed
[14:44:54-906]device:9100334 csq:6 net:1 server:1, relay:1
[14:44:54-984]
[14:44:54-984]Sensors read rc -2 s -2
[14:44:54-984]now: 2023-01-13 14:44:52
[14:44:55-406]feed
[14:44:55-906]feed
[14:44:55-906]device:9100334 csq:6 net:1 server:1, relay:1
[14:44:55-984]read each end
[14:44:55-984]indicators_values[1].sensor = 20000a1c
[14:44:55-984]indicators_values[2].sensor = 20000a8c
[14:44:56-406]feed
[14:44:56-906]feed
[14:44:56-922]device:9100334 csq:6 net:1 server:1, relay:1
[14:44:57-000]air blow: err: 10, rst: 3, status: -2
[14:44:57-000]Rw:  len=8, data=fb 03 00 00 00 0a d1 97 
[14:44:57-422]Rr:  len=1, data=feed
[14:44:57-922]feed
[14:44:57-922]device:9100334 csq:6 net:1 server:1, relay:1
[14:44:58-016]now: 2023-01-13 14:44:55
[14:44:58-422]feed
[14:44:58-922]feed
[14:44:58-922]device:9100334 csq:6 net:1 server:1, relay:1
[14:44:59-016]probe u_value = 0
[14:44:59-016]probe u_value = 0
[14:44:59-016]probe u_value = 0
[14:44:59-016]Rw:  len=8, data=01 06 00 0a 00 00 a9 c8 
[14:44:59-422]Rr:  len=1, data=feed
[14:44:59-922]feed
[14:44:59-922]device:9100334 csq:6 net:1 server:1, relay:1
[14:45:00-031]read each start
[14:45:00-031]Rw:  len=8, data=01 03 00 00 00 05 85 c9 
[14:45:00-422]Rr:  len=1, data=feed
[14:45:00-938]feed
[14:45:00-938]device:9100334 csq:6 net:1 server:1, relay:1
[14:45:01-047]
[14:45:01-047]Sensors read rc -2 s -2
[14:45:01-047]now: 2023-01-13 14:44:58
[14:45:01-438]feed
[14:45:01-937]feed
[14:45:01-937]device:9100334 csq:6 net:1 server:1, relay:1
[14:45:02-047]Rw:  len=8, data=02 03 00 00 00 03 05 f8 
[14:45:02-438]Rr:  len=1, data=feed
[14:45:02-938]feed
[14:45:02-938]device:9100334 csq:6 net:1 server:1, relay:1
[14:45:03-063]
[14:45:03-063]Sensors read rc -2 s -2
[14:45:03-438]feed
[14:45:03-938]feed
[14:45:03-938]device:9100334 csq:6 net:1 server:1, relay:1
[14:45:04-063]read each end
[14:45:04-063]indicators_values[1].sensor = 20000a1c
[14:45:04-063]indicators_values[2].sensor = 20000a8c
[14:45:04-063]now: 2023-01-13 14:45:01
[14:45:04-438]feed
[14:45:04-812]CSQ: 6
[14:45:04-953]feed
[14:45:04-953]device:9100334 csq:6 net:1 server:1, relay:1
[14:45:05-063]air blow: err: 10, rst: 3, status: -2
[14:45:05-078]Rw:  len=8, data=fb 03 00 00 00 0a d1 97 
[14:45:05-453]Rr:  len=1, data=feed
[14:45:05-953]feed
[14:45:05-953]device:9100334 csq:6 net:1 server:1, relay:1
[14:45:06-453]feed
[14:45:06-953]feed
[14:45:06-953]device:9100334 csq:6 net:1 server:1, relay:1
[14:45:07-078]probe u_value = 0
[14:45:07-094]probe u_value = 0
[14:45:07-094]probe u_value = 0
[14:45:07-094]Rw:  len=8, data=01 06 00 0a 00 00 a9 c8 
[14:45:07-109]Rr:  len=1, data=now: 2023-01-13 14:45:04
[14:45:07-453]feed
[14:45:07-953]feed
[14:45:07-953]device:9100334 csq:6 net:1 server:1, relay:1
[14:45:08-110]read each start
[14:45:08-110]Rw:  len=8, data=01 03 00 00 00 05 85 c9 
[14:45:08-453]Rr:  len=1, data=feed
[14:45:08-969]feed
[14:45:08-969]device:9100334 csq:6 net:1 server:1, relay:1
[14:45:09-125]
[14:45:09-125]Sensors read rc -2 s -2
[14:45:09-469]feed
[14:45:09-969]feed
[14:45:09-969]device:9100334 csq:6 net:1 server:1, relay:1
[14:45:10-125]Rw:  len=8, data=02 03 00 00 00 03 05 f8 
[14:45:10-141]Rr:  len=1, data=now: 2023-01-13 14:45:07
[14:45:10-469]feed
[14:45:10-969]feed
[14:45:10-969]device:9100334 csq:6 net:1 server:1, relay:1
[14:45:11-125]
[14:45:11-125]Sensors read rc -2 s -2
[14:45:11-469]feed
[14:45:11-969]feed
[14:45:11-985]device:9100334 csq:6 net:1 server:1, relay:1
[14:45:12-141]read each end
[14:45:12-141]indicators_values[1].sensor = 20000a1c
[14:45:12-141]indicators_values[2].sensor = 20000a8c
[14:45:12-485]feed
[14:45:12-985]feed
[14:45:12-985]device:9100334 csq:6 net:1 server:1, relay:1
[14:45:13-141]air blow: err: 10, rst: 3, status: -2
[14:45:13-141]Rw:  len=8, data=fb 03 00 00 00 0a d1 97 
[14:45:13-157]Rr:  len=1, data=now: 2023-01-13 14:45:10
[14:45:13-485]feed
[14:45:13-985]feed
[14:45:13-985]device:9100334 csq:6 net:1 server:1, relay:1
[14:45:14-157]Pw:  len=15, data=00 8a dc 2e 03 40 00 00 22 d0 00 01 00 3f 16 
[14:45:14-172]
[14:45:14-391]Pr:  len=13, data=00 8a dc 2e 03 40 00 00 22 d1 00 01 00 
[14:45:14-391]Pr:  len=2, data=3e ea 
[14:45:14-485]feed
[14:45:14-985]feed
[14:45:14-985]device:9100334 csq:6 net:1 server:1, relay:1
[14:45:15-157]probe u_value = 0
[14:45:15-157]probe u_value = 0
[14:45:15-157]probe u_value = 0
[14:45:15-173]Rw:  len=8, data=01 06 00 0a 00 00 a9 c8 
[14:45:15-423]Rr:  len=1, data=<Recv>:
[14:45:15-423]id = 18f61111, dlc = 7
[14:45:15-423]04 48 08 52 08 5c 08 
[14:45:15-438]power in:cfg=4, VA=212(V), VB=213(V), VC=214(V)
[14:45:15-485]feed
[14:45:15-985]feed
[14:45:16-001]device:9100334 csq:6 net:1 server:1, relay:1
[14:45:16-173]read each start
[14:45:16-188]Rw:  len=8, data=01 03 00 00 00 05 85 c9 
[14:45:16-188]Rr:  len=1, data=now: 2023-01-13 14:45:13
[14:45:16-501]feed
[14:45:17-001]feed
[14:45:17-001]device:9100334 csq:6 net:1 server:1, relay:1
[14:45:17-188]
[14:45:17-188]Sensors read rc -2 s -2
[14:45:17-501]feed
[14:45:17-688]CSQ: 6
[14:45:18-001]feed
[14:45:18-001]device:9100334 csq:6 net:1 server:1, relay:1
[14:45:18-204]Rw:  len=8, data=02 03 00 00 00 03 05 f8 
[14:45:18-501]Rr:  len=1, data=feed
[14:45:19-001]feed
[14:45:19-001]device:9100334 csq:6 net:1 server:1, relay:1
[14:45:19-204]
[14:45:19-204]Sensors read rc -2 s -2
[14:45:19-204]now: 2023-01-13 14:45:16
[14:45:19-501]feed
[14:45:20-016]feed
[14:45:20-016]device:9100334 csq:6 net:1 server:1, relay:1
[14:45:20-204]read each end
[14:45:20-220]indicators_values[1].sensor = 20000a1c
[14:45:20-220]indicators_values[2].sensor = 20000a8c
[14:45:20-516]feed
[14:45:21-016]feed
[14:45:21-016]device:9100334 csq:6 net:1 server:1, relay:1
[14:45:21-220]air blow: err: 10, rst: 3, status: -2
[14:45:21-220]Rw:  len=8, data=fb 03 00 00 00 0a d1 97 
[14:45:21-517]Rr:  len=1, data=feed
[14:45:22-016]feed
[14:45:22-016]device:9100334 csq:6 net:1 server:1, relay:1
[14:45:22-235]now: 2023-01-13 14:45:19
[14:45:22-517]feed
[14:45:23-016]feed
[14:45:23-016]device:9100334 csq:6 net:1 server:1, relay:1
[14:45:23-235]probe u_value = 0
[14:45:23-235]probe u_value = 0
[14:45:23-235]probe u_value = 0
[14:45:23-235]Rw:  len=8, data=01 06 00 0a 00 00 a9 c8 
[14:45:23-517]Rr:  len=1, data=feed
[14:45:24-032]feed
[14:45:24-032]device:9100334 csq:6 net:1 server:1, relay:1
[14:45:24-251]read each start
[14:45:24-251]Rw:  len=8, data=01 03 00 00 00 05 85 c9 
[14:45:24-532]Rr:  len=1, data=feed
[14:45:25-032]feed
[14:45:25-032]device:9100334 csq:6 net:1 server:1, relay:1
[14:45:25-267]
[14:45:25-267]Sensors read rc -2 s -2
[14:45:25-267]now: 2023-01-13 14:45:22
[14:45:25-532]feed
[14:45:26-032]feed
[14:45:26-032]device:9100334 csq:6 net:1 server:1, relay:1
[14:45:26-267]Rw:  len=8, data=02 03 00 00 00 03 05 f8 
[14:45:26-532]Rr:  len=1, data=feed
[14:45:27-032]feed
[14:45:27-048]device:9100334 csq:6 net:1 server:1, relay:1
[14:45:27-282]
[14:45:27-282]Sensors read rc -2 s -2
[14:45:27-548]feed
[14:45:28-048]feed
[14:45:28-048]device:9100334 csq:6 net:1 server:1, relay:1
[14:45:28-282]read each end
[14:45:28-282]indicators_values[1].sensor = 20000a1c
[14:45:28-298]indicators_values[2].sensor = 20000a8c
[14:45:28-298]now: 2023-01-13 14:45:25
[14:45:28-548]feed
[14:45:29-048]feed
[14:45:29-048]device:9100334 csq:6 net:1 server:1, relay:1
[14:45:29-298]air blow: err: 10, rst: 3, status: -2
[14:45:29-298]Rw:  len=8, data=fb 03 00 00 00 0a d1 97 
[14:45:29-548]Rr:  len=1, data=feed
[14:45:30-048]feed
[14:45:30-048]device:9100334 csq:6 net:1 server:1, relay:1
[14:45:30-548]feed
[14:45:30-813]CSQ: 6
[14:45:31-048]feed
[14:45:31-063]device:9100334 csq:6 net:1 server:1, relay:1
[14:45:31-313]probe u_value = 0
[14:45:31-313]probe u_value = 0
[14:45:31-313]probe u_value = 0
[14:45:31-313]Rw:  len=8, data=01 06 00 0a 00 00 a9 c8 
[14:45:31-329]Rr:  len=1, data=now: 2023-01-13 14:45:28
[14:45:31-563]feed
[14:45:32-063]feed
[14:45:32-063]device:9100334 csq:6 net:1 server:1, relay:1
[14:45:32-329]read each start
[14:45:32-329]Rw:  len=8, data=01 03 00 00 00 05 85 c9 
[14:45:32-563]Rr:  len=1, data=feed
[14:45:33-063]feed
[14:45:33-063]device:9100334 csq:6 net:1 server:1, relay:1
[14:45:33-345]
[14:45:33-345]Sensors read rc -2 s -2
[14:45:33-563]feed
[14:45:34-063]feed
[14:45:34-063]device:9100334 csq:6 net:1 server:1, relay:1
[14:45:34-345]Rw:  len=8, data=02 03 00 00 00 03 05 f8 
[14:45:34-360]Rr:  len=1, data=now: 2023-01-13 14:45:31
[14:45:34-563]feed
[14:45:35-063]feed
[14:45:35-079]device:9100334 csq:6 net:1 server:1, relay:1
[14:45:35-360]
[14:45:35-360]Sensors read rc -2 s -2
[14:45:35-579]feed
[14:45:36-079]feed
[14:45:36-079]device:9100334 csq:6 net:1 server:1, relay:1
[14:45:36-360]read each end
[14:45:36-360]indicators_values[1].sensor = 20000a1c
[14:45:36-360]indicators_values[2].sensor = 20000a8c
[14:45:36-579]feed
[14:45:37-079]feed
[14:45:37-079]device:9100334 csq:6 net:1 server:1, relay:1
[14:45:37-376]air blow: err: 10, rst: 3, status: -2
[14:45:37-376]Rw:  len=8, data=fb 03 00 00 00 0a d1 97 
[14:45:37-392]Rr:  len=1, data=now: 2023-01-13 14:45:34
[14:45:37-579]feed
[14:45:38-079]feed
[14:45:38-079]device:9100334 csq:6 net:1 server:1, relay:1
[14:45:38-579]feed
[14:45:39-079]feed
[14:45:39-095]device:9100334 csq:6 net:1 server:1, relay:1
[14:45:39-392]probe u_value = 0
[14:45:39-392]probe u_value = 0
[14:45:39-392]probe u_value = 0
[14:45:39-392]Rw:  len=8, data=01 06 00 0a 00 00 a9 c8 
[14:45:39-595]Rr:  len=1, data=feed
[14:45:40-095]feed
[14:45:40-095]device:9100334 csq:6 net:1 server:1, relay:1
[14:45:40-407]read each start
[14:45:40-407]Rw:  len=8, data=01 03 00 00 00 05 85 c9 
[14:45:40-423]Rr:  len=1, data=now: 2023-01-13 14:45:37
[14:45:40-595]feed
[14:45:41-095]feed
[14:45:41-095]device:9100334 csq:6 net:1 server:1, relay:1
[14:45:41-423]
[14:45:41-423]Sensors read rc -2 s -2
[14:45:41-595]feed
[14:45:42-095]feed
[14:45:42-095]device:9100334 csq:6 net:1 server:1, relay:1
[14:45:42-423]Rw:  len=8, data=02 03 00 00 00 03 05 f8 
[14:45:42-595]Rr:  len=1, data=feed
[14:45:43-095]feed
[14:45:43-111]device:9100334 csq:6 net:1 server:1, relay:1
[14:45:43-439]
[14:45:43-439]Sensors read rc -2 s -2
[14:45:43-439]now: 2023-01-13 14:45:40
[14:45:43-611]feed
[14:45:43-689]CSQ: 6
[14:45:44-111]feed
[14:45:44-111]device:9100334 csq:6 net:1 server:1, relay:1
[14:45:44-439]read each end
[14:45:44-439]indicators_values[1].sensor = 20000a1c
[14:45:44-439]indicators_values[2].sensor = 20000a8c
[14:45:44-611]feed
[14:45:45-111]feed
[14:45:45-111]device:9100334 csq:6 net:1 server:1, relay:1
[14:45:45-423]<Recv>:
[14:45:45-423]id = 18f61111, dlc = 7
[14:45:45-423]04 48 08 52 08 5c 08 
[14:45:45-439]power in:cfg=4, VA=212(V), VB=213(V), VC=214(V)
[14:45:45-454]air blow: err: 10, rst: 3, status: -2
[14:45:45-454]Rw:  len=8, data=fb 03 00 00 00 0a d1 97 
[14:45:45-611]Rr:  len=1, data=feed
[14:45:46-111]feed
[14:45:46-111]device:9100334 csq:6 net:1 server:1, relay:1
[14:45:46-470]now: 2023-01-13 14:45:43
[14:45:46-611]feed
[14:45:47-111]feed
[14:45:47-126]device:9100334 csq:6 net:1 server:1, relay:1
[14:45:47-454]probe u_value = 0
[14:45:47-470]probe u_value = 0
[14:45:47-470]probe u_value = 0
[14:45:47-470]Rw:  len=8, data=01 06 00 0a 00 00 a9 c8 
[14:45:47-626]Rr:  len=1, data=feed
[14:45:48-115]feed
[14:45:48-131]device:9100334 csq:6 net:1 server:1, relay:1
[14:45:48-475]read each start
[14:45:48-490]Rw:  len=8, data=01 03 00 00 00 05 85 c9 
[14:45:48-631]Rr:  len=1, data=feed
[14:45:49-131]feed
[14:45:49-131]device:9100334 csq:6 net:1 server:1, relay:1
[14:45:49-491]
[14:45:49-491]Sensors read rc -2 s -2
[14:45:49-491]now: 2023-01-13 14:45:46
[14:45:49-631]feed
[14:45:50-131]feed
[14:45:50-131]device:9100334 csq:6 net:1 server:1, relay:1
[14:45:50-506]Rw:  len=8, data=02 03 00 00 00 03 05 f8 
[14:45:50-631]Rr:  len=1, data=feed
[14:45:51-131]feed
[14:45:51-131]device:9100334 csq:6 net:1 server:1, relay:1
[14:45:51-506]
[14:45:51-506]Sensors read rc -2 s -2
[14:45:51-631]feed
[14:45:52-131]feed
[14:45:52-147]device:9100334 csq:6 net:1 server:1, relay:1
[14:45:52-506]read each end
[14:45:52-522]indicators_values[1].sensor = 20000a1c
[14:45:52-522]indicators_values[2].sensor = 20000a8c
[14:45:52-522]now: 2023-01-13 14:45:49
[14:45:52-647]feed
[14:45:53-147]feed
[14:45:53-147]device:9100334 csq:6 net:1 server:1, relay:1
[14:45:53-522]air blow: err: 10, rst: 3, status: -2
[14:45:53-522]Rw:  len=8, data=fb 03 00 00 00 0a d1 97 
[14:45:53-647]Rr:  len=1, data=feed
[14:45:54-147]feed
[14:45:54-147]device:9100334 csq:6 net:1 server:1, relay:1
[14:45:54-647]feed
[14:45:55-147]feed
[14:45:55-147]device:9100334 csq:6 net:1 server:1, relay:1
[14:45:55-538]probe u_value = 0
[14:45:55-538]probe u_value = 0
[14:45:55-538]probe u_value = 0
[14:45:55-538]Rw:  len=8, data=01 06 00 0a 00 00 a9 c8 
[14:45:55-553]Rr:  len=1, data=now: 2023-01-13 14:45:52
[14:45:55-647]feed
[14:45:56-163]feed
[14:45:56-163]device:9100334 csq:6 net:1 server:1, relay:1
[14:45:56-553]read each start
[14:45:56-553]Rw:  len=8, data=01 03 00 00 00 05 85 c9 
[14:45:56-663]Rr:  len=1, data=feed
[14:45:56-819]CSQ: 6
[14:45:57-163]feed
[14:45:57-163]device:9100334 csq:6 net:1 server:1, relay:1
[14:45:57-569]
[14:45:57-569]Sensors read rc -2 s -2
[14:45:57-663]feed
[14:45:58-163]feed
[14:45:58-163]device:9100334 csq:6 net:1 server:1, relay:1
[14:45:58-569]Rw:  len=8, data=02 03 00 00 00 03 05 f8 
[14:45:58-585]Rr:  len=1, data=now: 2023-01-13 14:45:55
[14:45:58-663]feed
[14:45:59-163]feed
[14:45:59-163]device:9100334 csq:6 net:1 server:1, relay:1
[14:45:59-585]
[14:45:59-585]Sensors read rc -2 s -2
[14:45:59-663]feed
[14:46:00-178]feed
[14:46:00-178]device:9100334 csq:6 net:1 server:1, relay:1
[14:46:00-585]read each end
[14:46:00-585]indicators_values[1].sensor = 20000a1c
[14:46:00-600]indicators_values[2].sensor = 20000a8c
[14:46:00-678]feed
[14:46:01-178]feed
[14:46:01-178]device:9100334 csq:6 net:1 server:1, relay:1
[14:46:01-600]air blow: err: 10, rst: 3, status: -2
[14:46:01-600]Rw:  len=8, data=fb 03 00 00 00 0a d1 97 
[14:46:01-616]Rr:  len=1, data=now: 2023-01-13 14:45:58
[14:46:01-678]feed
[14:46:02-178]feed
[14:46:02-178]device:9100334 csq:6 net:1 server:1, relay:1
[14:46:02-678]feed
[14:46:03-178]feed
[14:46:03-194]device:9100334 csq:6 net:1 server:1, relay:1
[14:46:03-616]probe u_value = 0
[14:46:03-616]probe u_value = 0
[14:46:03-616]probe u_value = 0
[14:46:03-616]Rw:  len=8, data=01 06 00 0a 00 00 a9 c8 
[14:46:03-694]Rr:  len=1, data=feed
[14:46:04-194]feed
[14:46:04-194]device:9100334 csq:6 net:1 server:1, relay:1
[14:46:04-631]read each start
[14:46:04-631]Rw:  len=8, data=01 03 00 00 00 05 85 c9 
[14:46:04-647]Rr:  len=1, data=now: 2023-01-13 14:46:01
[14:46:04-694]feed
[14:46:05-194]feed
[14:46:05-194]device:9100334 csq:6 net:1 server:1, relay:1
[14:46:05-647]
[14:46:05-647]Sensors read rc -2 s -2
[14:46:05-694]feed
[14:46:06-194]feed
[14:46:06-194]device:9100334 csq:6 net:1 server:1, relay:1
[14:46:06-647]Rw:  len=8, data=02 03 00 00 00 03 05 f8 
[14:46:06-694]Rr:  len=1, data=feed
[14:46:07-194]feed
[14:46:07-210]device:9100334 csq:6 net:1 server:1, relay:1
[14:46:07-663]
[14:46:07-663]Sensors read rc -2 s -2
[14:46:07-663]now: 2023-01-13 14:46:04
[14:46:07-710]feed
[14:46:08-210]feed
[14:46:08-210]device:9100334 csq:6 net:1 server:1, relay:1
[14:46:08-663]read each end
[14:46:08-663]indicators_values[1].sensor = 20000a1c
[14:46:08-663]indicators_values[2].sensor = 20000a8c
[14:46:08-710]feed
[14:46:09-210]feed
[14:46:09-210]device:9100334 csq:6 net:1 server:1, relay:1
[14:46:09-678]air blow: err: 10, rst: 3, status: -2
[14:46:09-678]Rw:  len=8, data=fb 03 00 00 00 0a d1 97 
[14:46:09-694]Rr:  len=1, data=CSQ: 6
[14:46:09-710]feed
[14:46:10-210]feed
[14:46:10-210]device:9100334 csq:6 net:1 server:1, relay:1
[14:46:10-694]now: 2023-01-13 14:46:07
[14:46:10-710]feed
[14:46:11-210]feed
[14:46:11-225]device:9100334 csq:6 net:1 server:1, relay:1
[14:46:11-694]probe u_value = 0
[14:46:11-694]probe u_value = 0
[14:46:11-694]probe u_value = 0
[14:46:11-694]Rw:  len=8, data=01 06 00 0a 00 00 a9 c8 
[14:46:11-725]Rr:  len=1, data=feed
[14:46:12-225]feed
[14:46:12-225]device:9100334 csq:6 net:1 server:1, relay:1
[14:46:12-710]read each start
[14:46:12-710]Rw:  len=8, data=01 03 00 00 00 05 85 c9 
[14:46:12-725]Rr:  len=1, data=feed
[14:46:13-225]feed
[14:46:13-225]device:9100334 csq:6 net:1 server:1, relay:1
[14:46:13-725]
[14:46:13-725]Sensors read rc -2 s -2
[14:46:13-725]now: 2023-01-13 14:46:10
[14:46:13-725]feed
[14:46:13-975]Pw:  len=16, data=00 8a dc 2e 03 40 00 00 21 d0 00 01 01 06 d7 b1 
[14:46:13-975]
[14:46:14-085]AHT20 read
[14:46:14-085]AHT20: status: -1, temperature: 0.000000 humidity:0.000000
[14:46:14-194]Pw:  len=33, data=00 8a dc 2e 03 40 00 00 27 d0 00 01 12 1f e0 08 48 08 52 08 5c 00 00 00 00 01 da 00 02 00 01 88 ea 
[14:46:14-194]
[14:46:14-225]feed
[14:46:14-225]device:9100334 csq:6 net:1 server:1, relay:1
[14:46:14-303]Pw:  len=18, data=00 8a dc 2e 03 40 00 00 26 d0 00 01 03 01 00 00 6e 1b 
[14:46:14-303]
[14:46:14-725]Rw:  len=8, data=02 03 00 00 00 03 05 f8 
[14:46:14-725]feed
[14:46:15-225]Rr:  len=1, data=feed
[14:46:15-241]device:9100334 csq:6 net:1 server:1, relay:1
[14:46:15-428]<Recv>:
[14:46:15-444]id = 18f61111, dlc = 7
[14:46:15-444]04 48 08 52 08 5c 08 
[14:46:15-444]power in:cfg=4, VA=212(V), VB=213(V), VC=214(V)
[14:46:15-741]
[14:46:15-741]Sensors read rc -2 s -2
[14:46:16-241]feed
[14:46:16-241]device:9100334 csq:6 net:1 server:1, relay:1
[14:46:16-741]read each end
[14:46:16-741]indicators_values[1].sensor = 20000a1c
[14:46:16-741]indicators_values[2].sensor = 20000a8c
[14:46:16-741]now: 2023-01-13 14:46:13
[14:46:17-241]feed
[14:46:17-241]device:9100334 csq:6 net:1 server:1, relay:1
[14:46:17-741]feed
[14:46:17-741]air blow: err: 10, rst: 3, status: -2
[14:46:17-757]Rw:  len=8, data=fb 03 00 00 00 0a d1 97 
[14:46:18-241]Rr:  len=1, data=feed
[14:46:18-241]device:9100334 csq:6 net:1 server:1, relay:1
[14:46:18-741]feed
[14:46:19-257]feed
[14:46:19-257]device:9100334 csq:6 net:1 server:1, relay:1
[14:46:19-757]feed
[14:46:19-757]probe u_value = 0
[14:46:19-757]probe u_value = 0
[14:46:19-757]probe u_value = 0
[14:46:19-788]Pw:  len=48, data=00 8a dc 2e 03 40 00 00 13 d0 00 01 21 01 17 01 0d 0e 2e 10 00 00 00 00 00 00 e0 00 00 00 00 00 e0 00 00 00 00 00 e0 00 00 00 00 00 e0 00 46 e1 
[14:46:19-788]
[14:46:19-788]Rw:  len=8, data=01 06 00 0a 00 00 a9 c8 
[14:46:19-804]Rr:  len=1, data=now: 2023-01-13 14:46:16
[14:46:20-257]feed
[14:46:20-257]device:9100334 csq:6 net:1 server:1, relay:1
[14:46:20-757]feed
[14:46:20-804]read each start
[14:46:20-804]Rw:  len=8, data=01 03 00 00 00 05 85 c9 
[14:46:21-257]Rr:  len=1, data=feed
[14:46:21-257]device:9100334 csq:6 net:1 server:1, relay:1
[14:46:21-632]<Recv>:
[14:46:21-632]id = 18f51111, dlc = 6
[14:46:21-632]01 00 02 00 00 00 
[14:46:21-632]dev_relay:ch=1, os=0, ks=2, err=0, cur=0(mA)
[14:46:21-632]<Recv>:
[14:46:21-647]id = 18f51111, dlc = 6
[14:46:21-647]02 00 02 00 00 00 
[14:46:21-647]dev_relay:ch=2, os=0, ks=2, err=0, cur=0(mA)
[14:46:21-647]<Recv>:
[14:46:21-647]id = 18f51111, dlc = 6
[14:46:21-647]03 00 02 00 1d 01 
[14:46:21-663]dev_relay:ch=3, os=0, ks=2, err=0, cur=2850(mA)
[14:46:21-663]<Recv>:
[14:46:21-663]id = 18f51111, dlc = 6
[14:46:21-663]04 00 02 00 03 00 
[14:46:21-663]dev_relay:ch=4, os=0, ks=2, err=0, cur=30(mA)
[14:46:21-663]<Recv>:
[14:46:21-663]id = 18f51111, dlc = 6
[14:46:21-663]05 00 02 00 01 00 
[14:46:21-679]dev_relay:ch=5, os=0, ks=2, err=0, cur=10(mA)
[14:46:21-757]feed
[14:46:21-819]
[14:46:21-819]Sensors read rc -2 s -2
[14:46:21-819]key<3> release
[14:46:21-819]get_ch <3> = OFF
[14:46:22-257]feed
[14:46:22-272]device:9100334 csq:6 net:1 server:1, relay:1
[14:46:22-569]CSQ: 6
[14:46:22-757]feed
[14:46:22-819]Rw:  len=8, data=02 03 00 00 00 03 05 f8 
[14:46:22-819]Rr:  len=1, data=now: 2023-01-13 14:46:19
[14:46:22-850]Pw:  len=52, data=00 8a dc 2e 03 40 00 00 12 d0 00 01 25 01 17 01 0d 0e 2e 13 ff fc 00 00 00 00 00 00 20 00 00 00 00 00 00 00 20 00 00 00 00 00 00 00 00 00 00 00 00 00 9a d6 
[14:46:22-850]
[14:46:23-163]<Recv>:
[14:46:23-179]id = 18f51111, dlc = 6
[14:46:23-179]01 00 02 00 00 00 
[14:46:23-179]dev_relay:ch=1, os=0, ks=2, err=0, cur=0(mA)
[14:46:23-179]<Recv>:
[14:46:23-179]id = 18f51111, dlc = 6
[14:46:23-179]02 00 02 00 00 00 
[14:46:23-194]dev_relay:ch=2, os=0, ks=2, err=0, cur=0(mA)
[14:46:23-194]<Recv>:
[14:46:23-194]id = 18f51111, dlc = 6
[14:46:23-194]03 00 02 00 00 00 
[14:46:23-194]dev_relay:ch=3, os=0, ks=2, err=0, cur=0(mA)
[14:46:23-194]<Recv>:
[14:46:23-194]id = 18f51111, dlc = 6
[14:46:23-225]04 00 02 00 01 00 
[14:46:23-225]dev_relay:ch=4, os=0, ks=2, err=0, cur=10(mA)
[14:46:23-225]<Recv>:
[14:46:23-225]id = 18f51111, dlc = 6
[14:46:23-225]05 00 02 00 01 00 
[14:46:23-225]dev_relay:ch=5, os=0, ks=2, err=0, cur=10(mA)
[14:46:23-272]feed
[14:46:23-272]device:9100334 csq:6 net:1 server:1, relay:1
[14:46:23-772]feed
[14:46:23-835]
[14:46:23-835]Sensors read rc -2 s -2
[14:46:23-850]relay_output_status OFF
[14:46:23-866]Pw:  len=52, data=00 8a dc 2e 03 40 00 00 12 d0 00 01 25 01 17 01 0d 0e 2e 14 ff fc 00 00 00 00 00 00 20 00 00 00 00 00 00 00 00 00 00 00 00 00 00 00 00 00 00 00 00 00 4a f5 
[14:46:23-882]
[14:46:24-272]feed
[14:46:24-272]device:9100334 csq:6 net:1 server:1, relay:1
[14:46:24-772]feed
[14:46:24-835]read each end
[14:46:24-835]indicators_values[1].sensor = 20000a1c
[14:46:24-835]indicators_values[2].sensor = 20000a8c
[14:46:25-272]feed
[14:46:25-272]device:9100334 csq:6 net:1 server:1, relay:1
[14:46:25-772]feed
[14:46:25-850]air blow: err: 10, rst: 3, status: -2
[14:46:25-850]Rw:  len=8, data=fb 03 00 00 00 0a d1 97 
[14:46:25-882]Rr:  len=1, data=now: 2023-01-13 14:46:22
[14:46:26-272]feed
[14:46:26-288]device:9100334 csq:6 net:1 server:1, relay:1
[14:46:26-788]feed
[14:46:27-288]feed
[14:46:27-288]device:9100334 csq:6 net:1 server:1, relay:1
[14:46:27-788]feed
[14:46:27-866]probe u_value = 0
[14:46:27-866]probe u_value = 0
[14:46:27-866]probe u_value = 0
[14:46:27-866]Rw:  len=8, data=01 06 00 0a 00 00 a9 c8 
[14:46:28-288]Rr:  len=1, data=feed
[14:46:28-288]device:9100334 csq:6 net:1 server:1, relay:1
[14:46:28-788]feed
[14:46:28-882]read each start
[14:46:28-882]Rw:  len=8, data=01 03 00 00 00 05 85 c9 
[14:46:28-897]Rr:  len=1, data=now: 2023-01-13 14:46:26
[14:46:29-288]feed
[14:46:29-288]device:9100334 csq:6 net:1 server:1, relay:1
[14:46:29-788]feed
[14:46:29-898]
[14:46:29-898]Sensors read rc -2 s -2
[14:46:30-288]feed
[14:46:30-304]device:9100334 csq:6 net:1 server:1, relay:1
[14:46:30-804]feed
[14:46:30-898]Rw:  len=8, data=02 03 00 00 00 03 05 f8 
[14:46:31-304]Rr:  len=1, data=feed
[14:46:31-304]device:9100334 csq:6 net:1 server:1, relay:1
[14:46:31-804]feed
[14:46:31-913]
[14:46:31-913]Sensors read rc -2 s -2
[14:46:31-913]now: 2023-01-13 14:46:29
[14:46:32-304]feed
[14:46:32-304]device:9100334 csq:6 net:1 server:1, relay:1
[14:46:32-804]feed
[14:46:32-913]read each end
[14:46:32-913]indicators_values[1].sensor = 20000a1c
[14:46:32-913]indicators_values[2].sensor = 20000a8c
[14:46:33-304]feed
[14:46:33-304]device:9100334 csq:6 net:1 server:1, relay:1
[14:46:33-804]feed
[14:46:33-913]Pw:  len=67, data=00 8a dc 2e 03 40 00 00 16 d0 00 01 34 21 01 e0 00 00 00 00 00 00 00 44 4f 2d 59 31 30 32 00 00 00 0c 1f 01 00 00 00 00 00 00 00 00 00 00 00 50 48 2d 32 30 31 00 00 00 00 0c 81 02 00 00 00 00 00 4a a5 
[14:46:33-944]
[14:46:33-944]air blow: err: 10, rst: 3, status: -2
[14:46:33-944]Rw:  len=8, data=fb 03 00 00 00 0a d1 97 
[14:46:34-304]Rr:  len=1, data=feed
[14:46:34-319]device:9100334 csq:6 net:1 server:1, relay:1
[14:46:34-819]feed
[14:46:34-960]now: 2023-01-13 14:46:32
[14:46:35-319]feed
[14:46:35-319]device:9100334 csq:6 net:1 server:1, relay:1
[14:46:35-710]CSQ: 6
[14:46:35-819]feed
[14:46:35-960]probe u_value = 0
[14:46:35-960]probe u_value = 0
[14:46:35-960]probe u_value = 0
[14:46:35-960]Rw:  len=8, data=01 06 00 0a 00 00 a9 c8 
[14:46:36-319]Rr:  len=1, data=feed
[14:46:36-319]device:9100334 csq:6 net:1 server:1, relay:1
[14:46:36-819]feed
[14:46:36-976]read each start
[14:46:36-976]Rw:  len=8, data=01 03 00 00 00 05 85 c9 
[14:46:37-320]Rr:  len=1, data=feed
[14:46:37-320]device:9100334 csq:6 net:1 server:1, relay:1
[14:46:37-819]feed
[14:46:37-991]
[14:46:37-991]Sensors read rc -2 s -2
[14:46:37-991]now: 2023-01-13 14:46:35
[14:46:38-319]feed
[14:46:38-335]device:9100334 csq:6 net:1 server:1, relay:1
[14:46:38-835]feed
[14:46:38-991]Rw:  len=8, data=02 03 00 00 00 03 05 f8 
[14:46:39-335]Rr:  len=1, data=feed
[14:46:39-335]device:9100334 csq:6 net:1 server:1, relay:1
[14:46:39-835]feed
[14:46:40-007]
[14:46:40-007]Sensors read rc -2 s -2
[14:46:40-335]feed
[14:46:40-335]device:9100334 csq:6 net:1 server:1, relay:1
[14:46:40-835]feed
[14:46:41-007]read each end
[14:46:41-007]indicators_values[1].sensor = 20000a1c
[14:46:41-023]indicators_values[2].sensor = 20000a8c
[14:46:41-023]now: 2023-01-13 14:46:38
[14:46:41-335]feed
[14:46:41-335]device:9100334 csq:6 net:1 server:1, relay:1
[14:46:41-835]feed
[14:46:42-023]air blow: err: 10, rst: 3, status: -2
[14:46:42-023]Rw:  len=8, data=fb 03 00 00 00 0a d1 97 
[14:46:42-335]Rr:  len=1, data=feed
[14:46:42-351]device:9100334 csq:6 net:1 server:1, relay:1
[14:46:42-851]feed
[14:46:43-351]feed
[14:46:43-351]device:9100334 csq:6 net:1 server:1, relay:1
[14:46:43-851]feed
[14:46:44-038]probe u_value = 0
[14:46:44-038]probe u_value = 0
[14:46:44-038]probe u_value = 0
[14:46:44-038]Rw:  len=8, data=01 06 00 0a 00 00 a9 c8 
[14:46:44-054]Rr:  len=1, data=now: 2023-01-13 14:46:41
[14:46:44-351]feed
[14:46:44-351]device:9100334 csq:6 net:1 server:1, relay:1
[14:46:44-851]feed
[14:46:45-054]read each start
[14:46:45-054]Rw:  len=8, data=01 03 00 00 00 05 85 c9 
[14:46:45-351]Rr:  len=1, data=feed
[14:46:45-351]device:9100334 csq:6 net:1 server:1, relay:1
[14:46:45-695]<Recv>:
[14:46:45-710]id = 18f61111, dlc = 7
[14:46:45-710]04 48 08 52 08 5c 08 
[14:46:45-710]power in:cfg=4, VA=212(V), VB=213(V), VC=214(V)
[14:46:45-851]feed
[14:46:46-070]
[14:46:46-070]Sensors read rc -2 s -2
[14:46:46-366]feed
[14:46:46-366]device:9100334 csq:6 net:1 server:1, relay:1
[14:46:46-866]feed
[14:46:47-070]Rw:  len=8, data=02 03 00 00 00 03 05 f8 
[14:46:47-085]Rr:  len=1, data=now: 2023-01-13 14:46:44
[14:46:47-367]feed
[14:46:47-367]device:9100334 csq:6 net:1 server:1, relay:1
[14:46:47-866]feed
[14:46:48-085]
[14:46:48-085]Sensors read rc -2 s -2
[14:46:48-366]feed
[14:46:48-366]device:9100334 csq:6 net:1 server:1, relay:1
[14:46:48-835]CSQ: 20
[14:46:48-866]feed
[14:46:49-101]read each end
[14:46:49-101]indicators_values[1].sensor = 20000a1c
[14:46:49-101]indicators_values[2].sensor = 20000a8c
[14:46:49-366]feed
[14:46:49-366]device:9100334 csq:20 net:1 server:1, relay:1
[14:46:49-695]Pr:  len=13, data=00 8a dc 2e 16 40 00 04 06 00 00 01 15 
[14:46:49-695]Pr:  len=21, data=51 01 80 00 02 20 00 00 00 00 00 00 00 00 00 80 0e 2e 10 17 01 
[14:46:49-710]Pr:  len=2, data=d3 d5 
[14:46:49-710]eeprom write: 1512 page
[14:46:49-726]02 00 20 00 00 00 00 00 00 00 81 0e 2e 10 17 00 00 00 00 00 00 00 00 00 00 00 00 00 00 00 c0 53 
[14:46:49-726]eeprom read: 1512 page
[14:46:49-726]02 00 20 00 00 00 00 00 00 00 81 0e 2e 10 17 00 00 00 00 00 00 00 00 00 00 00 00 00 00 00 c0 53 
[14:46:49-726]eeprom write: 1504 page
[14:46:49-757]01 01 00 00 00 00 00 00 00 00 00 00 00 00 00 00 00 00 00 00 00 00 00 00 00 00 00 00 00 00 3f 1e 
[14:46:49-757]Pw:  len=15, data=00 8a dc 2e 16 40 00 04 06 d0 00 01 00 bc 05 
[14:46:49-773]
[14:46:49-867]feed
[14:46:50-101]air blow: err: 10, rst: 3, status: -2
[14:46:50-101]Rw:  len=8, data=fb 03 00 00 00 0a d1 97 
[14:46:50-116]Rr:  len=1, data=now: 2023-01-13 14:46:47
[14:46:50-382]feed
[14:46:50-382]device:9100334 csq:20 net:1 server:1, relay:1
[14:46:50-882]feed
[14:46:51-382]feed
[14:46:51-382]device:9100334 csq:20 net:1 server:1, relay:1
[14:46:51-882]feed
[14:46:52-117]probe u_value = 0
[14:46:52-117]probe u_value = 0
[14:46:52-117]probe u_value = 0
[14:46:52-117]Rw:  len=8, data=01 06 00 0a 00 00 a9 c8 
[14:46:52-382]Rr:  len=1, data=feed
[14:46:52-382]device:9100334 csq:20 net:1 server:1, relay:1
[14:46:52-882]feed
[14:46:53-132]read each start
[14:46:53-179]Rw:  len=8, data=01 03 00 00 00 05 85 c9 
[14:46:53-179]Rr:  len=1, data=now: 2023-01-13 14:46:50
[14:46:53-382]feed
[14:46:53-398]device:9100334 csq:20 net:1 server:1, relay:1
[14:46:53-898]feed
[14:46:54-148]
[14:46:54-148]Sensors read rc -2 s -2
[14:46:54-398]feed
[14:46:54-398]device:9100334 csq:20 net:1 server:1, relay:1
[14:46:54-898]feed
[14:46:55-148]Rw:  len=8, data=02 03 00 00 00 03 05 f8 
[14:46:55-398]Rr:  len=1, data=feed
[14:46:55-398]device:9100334 csq:20 net:1 server:1, relay:1
[14:46:55-898]feed
[14:46:56-163]
[14:46:56-163]Sensors read rc -2 s -2
[14:46:56-163]now: 2023-01-13 14:46:53
[14:46:56-398]feed
[14:46:56-398]device:9100334 csq:20 net:1 server:1, relay:1
[14:46:56-898]feed
[14:46:57-163]read each end
[14:46:57-163]indicators_values[1].sensor = 20000a1c
[14:46:57-163]indicators_values[2].sensor = 20000a8c
[14:46:57-398]feed
[14:46:57-413]device:9100334 csq:20 net:1 server:1, relay:1
[14:46:57-914]feed
[14:46:58-179]air blow: err: 10, rst: 3, status: -2
[14:46:58-179]Rw:  len=8, data=fb 03 00 00 00 0a d1 97 
[14:46:58-414]Rr:  len=1, data=feed
[14:46:58-414]device:9100334 csq:20 net:1 server:1, relay:1
[14:46:58-914]feed
[14:46:59-195]now: 2023-01-13 14:46:56
[14:46:59-414]feed
[14:46:59-414]device:9100334 csq:20 net:1 server:1, relay:1
[14:46:59-914]feed
[14:47:00-179]probe u_value = 0
[14:47:00-195]probe u_value = 0
[14:47:00-195]probe u_value = 0
[14:47:00-195]Rw:  len=8, data=01 06 00 0a 00 00 a9 c8 
[14:47:00-414]Rr:  len=1, data=feed
[14:47:00-414]device:9100334 csq:20 net:1 server:1, relay:1
[14:47:00-914]feed
[14:47:01-210]read each start
[14:47:01-210]Rw:  len=8, data=01 03 00 00 00 05 85 c9 
[14:47:01-414]Rr:  len=1, data=feed
[14:47:01-429]device:9100334 csq:20 net:1 server:1, relay:1
[14:47:01-726]CSQ: 20
[14:47:01-929]feed
[14:47:02-226]
[14:47:02-226]Sensors read rc -2 s -2
[14:47:02-226]now: 2023-01-13 14:46:59
[14:47:02-429]feed
[14:47:02-429]device:9100334 csq:20 net:1 server:1, relay:1
[14:47:02-929]feed
[14:47:03-226]Rw:  len=8, data=02 03 00 00 00 03 05 f8 
[14:47:03-429]Rr:  len=1, data=feed
[14:47:03-429]device:9100334 csq:20 net:1 server:1, relay:1
[14:47:03-929]feed
[14:47:04-242]
[14:47:04-242]Sensors read rc -2 s -2
[14:47:04-429]feed
[14:47:04-429]device:9100334 csq:20 net:1 server:1, relay:1
[14:47:04-929]feed
[14:47:05-242]read each end
[14:47:05-242]indicators_values[1].sensor = 20000a1c
[14:47:05-242]indicators_values[2].sensor = 20000a8c
[14:47:05-242]now: 2023-01-13 14:47:02
[14:47:05-429]feed
[14:47:05-445]device:9100334 csq:20 net:1 server:1, relay:1
[14:47:05-945]feed
[14:47:06-242]air blow: err: 10, rst: 3, status: -2
[14:47:06-257]Rw:  len=8, data=fb 03 00 00 00 0a d1 97 
[14:47:06-445]Rr:  len=1, data=feed
[14:47:06-445]device:9100334 csq:20 net:1 server:1, relay:1
[14:47:06-945]feed
[14:47:07-445]feed
[14:47:07-445]device:9100334 csq:20 net:1 server:1, relay:1
[14:47:07-945]feed
[14:47:08-257]probe u_value = 0
[14:47:08-257]probe u_value = 0
[14:47:08-257]probe u_value = 0
[14:47:08-273]Rw:  len=8, data=01 06 00 0a 00 00 a9 c8 
[14:47:08-289]Rr:  len=1, data=now: 2023-01-13 14:47:05
[14:47:08-445]feed
[14:47:08-445]device:9100334 csq:20 net:1 server:1, relay:1
[14:47:08-945]feed
[14:47:09-273]read each start
[14:47:09-289]Rw:  len=8, data=01 03 00 00 00 05 85 c9 
[14:47:09-445]Rr:  len=1, data=feed
[14:47:09-461]device:9100334 csq:20 net:1 server:1, relay:1
[14:47:09-961]feed
[14:47:10-289]
[14:47:10-289]Sensors read rc -2 s -2
[14:47:10-461]feed
[14:47:10-461]device:9100334 csq:20 net:1 server:1, relay:1
[14:47:10-961]feed
[14:47:11-304]Rw:  len=8, data=02 03 00 00 00 03 05 f8 
[14:47:11-304]Rr:  len=1, data=now: 2023-01-13 14:47:08
[14:47:11-461]feed
[14:47:11-461]device:9100334 csq:20 net:1 server:1, relay:1
[14:47:11-961]feed
[14:47:12-304]
[14:47:12-304]Sensors read rc -2 s -2
[14:47:12-461]feed
[14:47:12-461]device:9100334 csq:20 net:1 server:1, relay:1
[14:47:12-961]feed
[14:47:13-320]read each end
[14:47:13-320]indicators_values[1].sensor = 20000a1c
[14:47:13-320]indicators_values[2].sensor = 20000a8c
[14:47:14-195]feed
[14:47:14-195]device:9100334 csq:20 net:1 server:1, relay:1
[14:47:14-195]feed
