[15:32:23-024]feed
[15:32:23-524]feed
[15:32:23-524]device:9100334 csq:6 net:1 server:1, relay:1
[15:32:23-899]read each start
[15:32:23-899]Rw:  len=8, data=01 03 00 00 00 05 85 c9 
[15:32:23-915]Rr:  len=1, data=now: 2023-01-13 15:32:20
[15:32:24-024]feed
[15:32:24-165]CSQ: 6
[15:32:24-524]feed
[15:32:24-524]device:9100334 csq:6 net:1 server:1, relay:1
[15:32:24-915]
[15:32:24-915]Sensors read rc -2 s -2
[15:32:25-024]feed
[15:32:25-524]feed
[15:32:25-524]device:9100334 csq:6 net:1 server:1, relay:1
[15:32:25-915]Rw:  len=8, data=02 03 00 00 00 03 05 f8 
[15:32:26-024]Rr:  len=1, data=feed
[15:32:26-524]feed
[15:32:26-540]device:9100334 csq:6 net:1 server:1, relay:1
[15:32:26-931]
[15:32:26-931]Sensors read rc -2 s -2
[15:32:26-931]now: 2023-01-13 15:32:23
[15:32:27-040]feed
[15:32:27-540]feed
[15:32:27-540]device:9100334 csq:6 net:1 server:1, relay:1
[15:32:27-930]read each end
[15:32:27-930]indicators_values[1].sensor = 20000a1c
[15:32:27-930]indicators_values[2].sensor = 20000a8c
[15:32:28-040]feed
[15:32:28-540]feed
[15:32:28-540]device:9100334 csq:6 net:1 server:1, relay:1
[15:32:28-946]air blow: err: 10, rst: 3, status: -2
[15:32:28-946]Rw:  len=8, data=fb 03 00 00 00 0a d1 97 
[15:32:29-040]Rr:  len=1, data=feed
[15:32:29-212]Pr:  len=13, data=00 8a dc 2e 16 40 00 05 0b 00 00 01 06 
[15:32:29-212]Pr:  len=6, data=01 80 00 01 00 14 
[15:32:29-212]Pr:  len=2, data=23 fa 
[15:32:29-243]eeprom write: 1576 page
[15:32:29-243]01 01 01 17 01 0d 0f 20 1a 17 01 0d 0f 34 1a 00 00 00 00 00 00 00 00 00 00 00 00 00 00 00 27 57 
[15:32:29-259]Pw:  len=15, data=00 8a dc 2e 16 40 00 05 0b d0 00 01 00 90 15 
[15:32:29-259]
[15:32:29-540]feed
[15:32:29-540]device:9100334 csq:6 net:1 server:1, relay:1
[15:32:29-962]now: 2023-01-13 15:32:26
[15:32:29-962]set_ch <1> = ON
[15:32:29-962]<USend>:
[15:32:29-962]id = 0c501101, dlc = 7
[15:32:29-962]01 01 03 00 00 00 00 
[15:32:29-977]<Recv>:
[15:32:29-977]id = 18e80111, dlc = 4
[15:32:29-977]50 00 00 00 
[15:32:29-977]dev_respon:PGN=5000,status=0
[15:32:30-040]feed
[15:32:30-321]<Recv>:
[15:32:30-321]id = 18f51111, dlc = 6
[15:32:30-321]01 00 02 00 00 00 
[15:32:30-337]dev_relay:ch=1, os=0, ks=2, err=0, cur=0(mA)
[15:32:30-337]<Recv>:
[15:32:30-337]id = 18f51111, dlc = 6
[15:32:30-337]02 00 02 00 00 00 
[15:32:30-337]dev_relay:ch=2, os=0, ks=2, err=0, cur=0(mA)
[15:32:30-337]<Recv>:
[15:32:30-352]id = 18f51111, dlc = 6
[15:32:30-352]03 00 02 00 00 00 
[15:32:30-352]dev_relay:ch=3, os=0, ks=2, err=0, cur=0(mA)
[15:32:30-352]<Recv>:
[15:32:30-352]id = 18f51111, dlc = 6
[15:32:30-352]04 00 02 00 01 00 
[15:32:30-352]dev_relay:ch=4, os=0, ks=2, err=0, cur=10(mA)
[15:32:30-368]<Recv>:
[15:32:30-368]id = 18f51111, dlc = 6
[15:32:30-368]05 00 02 00 01 00 
[15:32:30-368]dev_relay:ch=5, os=0, ks=2, err=0, cur=10(mA)
[15:32:30-540]feed
[15:32:30-556]device:9100334 csq:6 net:1 server:1, relay:1
[15:32:30-556]<Recv>:
[15:32:30-556]id = 18f51111, dlc = 6
[15:32:30-556]01 01 02 00 00 00 
[15:32:30-556]dev_relay:ch=1, os=1, ks=2, err=0, cur=0(mA)
[15:32:30-556]<Recv>:
[15:32:30-571]id = 18f51111, dlc = 6
[15:32:30-571]02 00 02 00 00 00 
[15:32:30-571]dev_relay:ch=2, os=0, ks=2, err=0, cur=0(mA)
[15:32:30-571]<Recv>:
[15:32:30-571]id = 18f51111, dlc = 6
[15:32:30-571]03 00 02 00 00 00 
[15:32:30-571]dev_relay:ch=3, os=0, ks=2, err=0, cur=0(mA)
[15:32:30-587]<Recv>:
[15:32:30-587]id = 18f51111, dlc = 6
[15:32:30-587]04 00 02 00 01 00 
[15:32:30-587]dev_relay:ch=4, os=0, ks=2, err=0, cur=10(mA)
[15:32:30-587]<Recv>:
[15:32:30-587]id = 18f51111, dlc = 6
[15:32:30-587]05 00 02 00 01 00 
[15:32:30-602]dev_relay:ch=5, os=0, ks=2, err=0, cur=10(mA)
[15:32:30-962]probe u_value = 0
[15:32:30-962]probe u_value = 0
[15:32:30-962]probe u_value = 0
[15:32:30-962]Rw:  len=8, data=01 06 00 0a 00 00 a9 c8 
[15:32:31-056]Rr:  len=1, data=feed
[15:32:31-087]<Recv>:
[15:32:31-087]id = 18f51111, dlc = 6
[15:32:31-087]01 01 02 01 00 00 
[15:32:31-087]dev_relay:ch=1, os=1, ks=2, err=1, cur=0(mA)
[15:32:31-087]<Recv>:
[15:32:31-087]id = 18f51111, dlc = 6
[15:32:31-102]02 00 02 00 00 00 
[15:32:31-102]dev_relay:ch=2, os=0, ks=2, err=0, cur=0(mA)
[15:32:31-102]<Recv>:
[15:32:31-102]id = 18f51111, dlc = 6
[15:32:31-102]03 00 02 00 00 00 
[15:32:31-102]dev_relay:ch=3, os=0, ks=2, err=0, cur=0(mA)
[15:32:31-102]<Recv>:
[15:32:31-118]id = 18f51111, dlc = 6
[15:32:31-118]04 00 02 00 02 00 
[15:32:31-118]dev_relay:ch=4, os=0, ks=2, err=0, cur=20(mA)
[15:32:31-118]<Recv>:
[15:32:31-118]id = 18f51111, dlc = 6
[15:32:31-118]05 00 02 00 01 00 
[15:32:31-118]dev_relay:ch=5, os=0, ks=2, err=0, cur=10(mA)
[15:32:31-556]feed
[15:32:31-556]device:9100334 csq:6 net:1 server:1, relay:1
[15:32:31-977]read each start
[15:32:31-977]Rw:  len=8, data=01 03 00 00 00 05 85 c9 
[15:32:32-056]Rr:  len=1, data=feed
[15:32:32-556]feed
[15:32:32-556]device:9100334 csq:6 net:1 server:1, relay:1
[15:32:32-993]
[15:32:32-993]Sensors read rc -2 s -2
[15:32:33-056]feed
[15:32:33-071]now: 2023-01-13 15:32:30
[15:32:33-071][0]broken_index<0> = broken_type<1>
[15:32:33-087]Pw:  len=52, data=00 8a dc 2e 03 40 00 00 12 d0 00 01 25 01 17 01 0d 0f 20 1e ff fc 00 00 00 00 80 00 a0 00 00 00 00 00 80 00 00 00 80 00 00 00 00 00 00 00 00 00 00 00 0c 20 
[15:32:33-087]
[15:32:33-556]feed
[15:32:33-556]device:9100334 csq:6 net:1 server:1, relay:1
[15:32:33-993]Rw:  len=8, data=02 03 00 00 00 03 05 f8 
[15:32:34-056]Rr:  len=1, data=feed
[15:32:34-556]feed
[15:32:34-571]device:9100334 csq:6 net:1 server:1, relay:1
[15:32:35-009]
[15:32:35-009]Sensors read rc -2 s -2
[15:32:35-071]feed
[15:32:35-571]feed
[15:32:35-571]device:9100334 csq:6 net:1 server:1, relay:1
[15:32:36-009]read each end
[15:32:36-009]indicators_values[1].sensor = 20000a1c
[15:32:36-009]indicators_values[2].sensor = 20000a8c
[15:32:36-071]feed
[15:32:36-087]now: 2023-01-13 15:32:33
[15:32:36-571]feed
[15:32:36-571]device:9100334 csq:6 net:1 server:1, relay:1
[15:32:37-009]air blow: err: 10, rst: 3, status: -2
[15:32:37-025]Rw:  len=8, data=fb 03 00 00 00 0a d1 97 
[15:32:37-071]Rr:  len=1, data=feed
[15:32:37-275]CSQ: 6
[15:32:37-571]feed
[15:32:37-571]device:9100334 csq:6 net:1 server:1, relay:1
[15:32:38-071]feed
[15:32:38-571]feed
[15:32:38-587]device:9100334 csq:6 net:1 server:1, relay:1
[15:32:39-025]probe u_value = 0
[15:32:39-040]probe u_value = 0
[15:32:39-040]probe u_value = 0
[15:32:39-040]Rw:  len=8, data=01 06 00 0a 00 00 a9 c8 
[15:32:39-087]Rr:  len=1, data=feed
[15:32:39-087]now: 2023-01-13 15:32:36
[15:32:39-587]feed
[15:32:39-587]device:9100334 csq:6 net:1 server:1, relay:1
[15:32:40-056]read each start
[15:32:40-056]Rw:  len=8, data=01 03 00 00 00 05 85 c9 
[15:32:40-087]Rr:  len=1, data=feed
[15:32:40-587]feed
[15:32:40-587]device:9100334 csq:6 net:1 server:1, relay:1
[15:32:41-071]
[15:32:41-071]Sensors read rc -2 s -2
[15:32:41-087]feed
[15:32:41-321]Pw:  len=16, data=00 8a dc 2e 03 40 00 00 21 d0 00 01 01 06 d7 b1 
[15:32:41-321]
[15:32:41-415]AHT20 read
[15:32:41-431]AHT20: status: -1, temperature: 0.000000 humidity:0.000000
[15:32:41-540]Pw:  len=33, data=00 8a dc 2e 03 40 00 00 27 d0 00 01 12 1f e0 08 48 08 52 08 52 00 00 00 00 00 00 00 02 00 01 e4 00 
[15:32:41-540]
[15:32:41-587]feed
[15:32:41-587]device:9100334 csq:6 net:1 server:1, relay:1
[15:32:41-650]Pw:  len=18, data=00 8a dc 2e 03 40 00 00 26 d0 00 01 03 01 00 00 6e 1b 
[15:32:41-650]
[15:32:42-071]Rw:  len=8, data=02 03 00 00 00 03 05 f8 
[15:32:42-103]Rr:  len=1, data=feed
[15:32:42-103]now: 2023-01-13 15:32:39
[15:32:42-587]feed
[15:32:42-603]device:9100334 csq:6 net:1 server:1, relay:1
[15:32:43-087]
[15:32:43-087]Sensors read rc -2 s -2
[15:32:43-103]feed
[15:32:43-603]feed
[15:32:43-603]device:9100334 csq:6 net:1 server:1, relay:1
[15:32:43-618]<Recv>:
[15:32:43-618]id = 18f61111, dlc = 7
[15:32:43-618]04 48 08 52 08 52 08 
[15:32:43-618]power in:cfg=4, VA=212(V), VB=213(V), VC=213(V)
[15:32:44-087]read each end
[15:32:44-087]indicators_values[1].sensor = 20000a1c
[15:32:44-087]indicators_values[2].sensor = 20000a8c
[15:32:44-103]feed
[15:32:44-603]feed
[15:32:44-603]device:9100334 csq:6 net:1 server:1, relay:1
[15:32:45-087]air blow: err: 10, rst: 3, status: -2
[15:32:45-087]Rw:  len=8, data=fb 03 00 00 00 0a d1 97 
[15:32:45-103]Rr:  len=1, data=now: 2023-01-13 15:32:42
[15:32:45-603]feed
[15:32:45-603]device:9100334 csq:6 net:1 server:1, relay:1
[15:32:46-103]feed
[15:32:46-618]feed
[15:32:46-618]device:9100334 csq:6 net:1 server:1, relay:1
[15:32:47-103]probe u_value = 0
[15:32:47-103]probe u_value = 0
[15:32:47-103]probe u_value = 0
[15:32:47-118]Pw:  len=48, data=00 8a dc 2e 03 40 00 00 13 d0 00 01 21 01 17 01 0d 0f 20 2c 00 00 00 00 00 00 e0 00 00 00 00 00 e0 00 00 00 00 00 e0 00 00 00 00 00 e0 00 9e 0c 
[15:32:47-134]
[15:32:47-134]Rw:  len=8, data=01 06 00 0a 00 00 a9 c8 
[15:32:47-618]Rr:  len=1, data=feed
[15:32:47-618]device:9100334 csq:6 net:1 server:1, relay:1
[15:32:48-118]feed
[15:32:48-150]read each start
[15:32:48-150]Rw:  len=8, data=01 03 00 00 00 05 85 c9 
[15:32:48-165]Rr:  len=1, data=now: 2023-01-13 15:32:45
[15:32:48-618]feed
[15:32:48-618]device:9100334 csq:6 net:1 server:1, relay:1
[15:32:49-118]feed
[15:32:49-165]
[15:32:49-165]Sensors read rc -2 s -2
[15:32:49-618]feed
[15:32:49-618]device:9100334 csq:6 net:1 server:1, relay:1
[15:32:50-118]feed
[15:32:50-165]Rw:  len=8, data=02 03 00 00 00 03 05 f8 
[15:32:50-181]Rr:  len=1, data=CSQ: 6
[15:32:50-634]feed
[15:32:50-634]device:9100334 csq:6 net:1 server:1, relay:1
[15:32:51-134]feed
[15:32:51-181]
[15:32:51-181]Sensors read rc -2 s -2
[15:32:51-181]now: 2023-01-13 15:32:48
[15:32:51-634]feed
[15:32:51-634]device:9100334 csq:6 net:1 server:1, relay:1
[15:32:52-134]feed
[15:32:52-181]read each end
[15:32:52-181]indicators_values[1].sensor = 20000a1c
[15:32:52-181]indicators_values[2].sensor = 20000a8c
[15:32:52-634]feed
[15:32:52-634]device:9100334 csq:6 net:1 server:1, relay:1
[15:32:53-134]feed
[15:32:53-181]air blow: err: 10, rst: 3, status: -2
[15:32:53-197]Rw:  len=8, data=fb 03 00 00 00 0a d1 97 
[15:32:53-634]Rr:  len=1, data=feed
[15:32:53-650]device:9100334 csq:6 net:1 server:1, relay:1
[15:32:54-150]feed
[15:32:54-197]now: 2023-01-13 15:32:51
[15:32:54-650]feed
[15:32:54-650]device:9100334 csq:6 net:1 server:1, relay:1
[15:32:55-150]feed
[15:32:55-197]probe u_value = 0
[15:32:55-197]probe u_value = 0
[15:32:55-197]probe u_value = 0
[15:32:55-212]Rw:  len=8, data=01 06 00 0a 00 00 a9 c8 
[15:32:55-654]Rr:  len=1, data=feed
[15:32:55-654]device:9100334 csq:6 net:1 server:1, relay:1
[15:32:56-147]feed
[15:32:56-225]read each start
[15:32:56-225]Rw:  len=8, data=01 03 00 00 00 05 85 c9 
[15:32:56-647]Rr:  len=1, data=feed
[15:32:56-662]device:9100334 csq:6 net:1 server:1, relay:1
[15:32:57-147]feed
[15:32:57-240]
[15:32:57-240]Sensors read rc -2 s -2
[15:32:57-240]now: 2023-01-13 15:32:54
[15:32:57-662]feed
[15:32:57-662]device:9100334 csq:6 net:1 server:1, relay:1
[15:32:58-162]feed
[15:32:58-240]Rw:  len=8, data=02 03 00 00 00 03 05 f8 
[15:32:58-662]Rr:  len=1, data=feed
[15:32:58-662]device:9100334 csq:6 net:1 server:1, relay:1
[15:32:59-162]feed
[15:32:59-256]
[15:32:59-256]Sensors read rc -2 s -2
[15:32:59-662]feed
[15:32:59-662]device:9100334 csq:6 net:1 server:1, relay:1
[15:33:00-162]feed
[15:33:00-256]read each end
[15:33:00-256]indicators_values[1].sensor = 20000a1c
[15:33:00-256]indicators_values[2].sensor = 20000a8c
[15:33:00-256]now: 2023-01-13 15:32:57
[15:33:00-662]feed
[15:33:00-678]device:9100334 csq:6 net:1 server:1, relay:1
[15:33:01-178]feed
[15:33:01-256]Pw:  len=67, data=00 8a dc 2e 03 40 00 00 16 d0 00 01 34 21 01 e0 00 00 00 00 00 00 00 44 4f 2d 59 31 30 32 00 00 00 0c 1f 01 00 00 00 00 00 00 00 00 00 00 00 50 48 2d 32 30 31 00 00 00 00 0c 81 02 00 00 00 00 00 4a a5 
[15:33:01-287]
[15:33:01-287]air blow: err: 10, rst: 3, status: -2
[15:33:01-287]Rw:  len=8, data=fb 03 00 00 00 0a d1 97 
[15:33:01-678]Rr:  len=1, data=feed
[15:33:01-678]device:9100334 csq:6 net:1 server:1, relay:1
[15:33:02-178]feed
[15:33:02-678]feed
[15:33:02-678]device:9100334 csq:6 net:1 server:1, relay:1
[15:33:03-178]feed
[15:33:03-303]probe u_value = 0
[15:33:03-303]probe u_value = 0
[15:33:03-303]probe u_value = 0
[15:33:03-303]Rw:  len=8, data=01 06 00 0a 00 00 a9 c8 
[15:33:03-319]Rr:  len=1, data=CSQ: 6
[15:33:03-319]now: 2023-01-13 15:33:00
[15:33:03-678]feed
[15:33:03-678]device:9100334 csq:6 net:1 server:1, relay:1
[15:33:04-178]feed
[15:33:04-319]read each start
[15:33:04-319]Rw:  len=8, data=01 03 00 00 00 05 85 c9 
[15:33:04-678]Rr:  len=1, data=feed
[15:33:04-694]device:9100334 csq:6 net:1 server:1, relay:1
[15:33:05-194]feed
[15:33:05-334]
[15:33:05-334]Sensors read rc -2 s -2
[15:33:05-694]feed
[15:33:05-694]device:9100334 csq:6 net:1 server:1, relay:1
[15:33:06-194]feed
[15:33:06-334]Rw:  len=8, data=02 03 00 00 00 03 05 f8 
[15:33:06-350]Rr:  len=1, data=now: 2023-01-13 15:33:03
[15:33:06-694]feed
[15:33:06-694]device:9100334 csq:6 net:1 server:1, relay:1
[15:33:07-194]feed
[15:33:07-350]
[15:33:07-350]Sensors read rc -2 s -2
[15:33:07-694]feed
[15:33:07-694]device:9100334 csq:6 net:1 server:1, relay:1
[15:33:08-194]feed
[15:33:08-350]read each end
[15:33:08-350]indicators_values[1].sensor = 20000a1c
[15:33:08-366]indicators_values[2].sensor = 20000a8c
[15:33:08-694]feed
[15:33:08-709]device:9100334 csq:6 net:1 server:1, relay:1
[15:33:09-209]feed
[15:33:09-366]air blow: err: 10, rst: 3, status: -2
[15:33:09-366]Rw:  len=8, data=fb 03 00 00 00 0a d1 97 
[15:33:09-381]Rr:  len=1, data=now: 2023-01-13 15:33:06
[15:33:09-709]feed
[15:33:09-709]device:9100334 csq:6 net:1 server:1, relay:1
[15:33:10-209]feed
[15:33:10-709]feed
[15:33:10-709]device:9100334 csq:6 net:1 server:1, relay:1
[15:33:11-209]feed
[15:33:11-381]probe u_value = 0
[15:33:11-381]probe u_value = 0
[15:33:11-381]probe u_value = 0
[15:33:11-381]Rw:  len=8, data=01 06 00 0a 00 00 a9 c8 
[15:33:11-709]Rr:  len=1, data=feed
[15:33:11-709]device:9100334 csq:6 net:1 server:1, relay:1
[15:33:12-209]feed
[15:33:12-397]read each start
[15:33:12-397]Rw:  len=8, data=01 03 00 00 00 05 85 c9 
[15:33:12-413]Rr:  len=1, data=now: 2023-01-13 15:33:09
[15:33:12-709]feed
[15:33:12-725]device:9100334 csq:6 net:1 server:1, relay:1
[15:33:13-225]feed
[15:33:13-413]
[15:33:13-413]Sensors read rc -2 s -2
[15:33:13-459]Pr:  len=13, data=00 8a dc 2e 16 40 00 06 0b 00 00 01 06 
[15:33:13-475]Pr:  len=6, data=01 80 00 00 00 14 
[15:33:13-475]Pr:  len=2, data=76 3e 
[15:33:13-475]eeprom write: 1576 page
[15:33:13-491]01 01 00 17 01 0d 0f 21 0a 17 01 0d 0f 35 0a 00 00 00 00 00 00 00 00 00 00 00 00 00 00 00 a4 1a 
[15:33:13-491]Pw:  len=15, data=00 8a dc 2e 16 40 00 06 0b d0 00 01 00 90 26 
[15:33:13-491]
[15:33:13-616]<Recv>:
[15:33:13-631]id = 18f61111, dlc = 7
[15:33:13-631]04 48 08 52 08 5c 08 
[15:33:13-631]power in:cfg=4, VA=212(V), VB=213(V), VC=214(V)
[15:33:13-725]feed
[15:33:13-725]device:9100334 csq:6 net:1 server:1, relay:1
[15:33:14-225]feed
[15:33:14-413]Rw:  len=8, data=02 03 00 00 00 03 05 f8 
[15:33:14-428]Rr:  len=1, data=set_ch <1> = OFF
[15:33:14-428]<USend>:
[15:33:14-428]id = 0c501101, dlc = 7
[15:33:14-428]01 00 03 00 00 00 00 
[15:33:14-444]<Recv>:
[15:33:14-444]id = 18e80111, dlc = 4
[15:33:14-444]50 00 00 00 
[15:33:14-459]dev_respon:PGN=5000,status=0
[15:33:14-725]feed
[15:33:14-725]device:9100334 csq:6 net:1 server:1, relay:1
[15:33:14-819]<Recv>:
[15:33:14-819]id = 18f51111, dlc = 6
[15:33:14-819]01 00 02 00 00 00 
[15:33:14-819]dev_relay:ch=1, os=0, ks=2, err=0, cur=0(mA)
[15:33:14-834]<Recv>:
[15:33:14-834]id = 18f51111, dlc = 6
[15:33:14-834]02 00 02 00 00 00 
[15:33:14-850]dev_relay:ch=2, os=0, ks=2, err=0, cur=0(mA)
[15:33:14-850]<Recv>:
[15:33:14-850]id = 18f51111, dlc = 6
[15:33:14-850]03 00 02 00 00 00 
[15:33:14-850]dev_relay:ch=3, os=0, ks=2, err=0, cur=0(mA)
[15:33:14-850]<Recv>:
[15:33:14-850]id = 18f51111, dlc = 6
[15:33:14-850]04 00 02 00 03 00 
[15:33:14-866]dev_relay:ch=4, os=0, ks=2, err=0, cur=30(mA)
[15:33:14-866]<Recv>:
[15:33:14-866]id = 18f51111, dlc = 6
[15:33:14-866]05 00 02 00 01 00 
[15:33:14-866]dev_relay:ch=5, os=0, ks=2, err=0, cur=10(mA)
[15:33:15-225]feed
[15:33:15-428]
[15:33:15-428]Sensors read rc -2 s -2
[15:33:15-725]feed
[15:33:15-725]device:9100334 csq:6 net:1 server:1, relay:1
[15:33:16-178]CSQ: 19
[15:33:16-225]feed
[15:33:16-428]read each end
[15:33:16-428]indicators_values[1].sensor = 20000a1c
[15:33:16-428]indicators_values[2].sensor = 20000a8c
[15:33:16-725]feed
[15:33:16-741]device:9100334 csq:19 net:1 server:1, relay:1
[15:33:17-241]feed
[15:33:17-444]air blow: err: 10, rst: 3, status: -2
[15:33:17-444]Rw:  len=8, data=fb 03 00 00 00 0a d1 97 
[15:33:17-538]Rr:  len=1, data=now: 2023-01-13 15:33:14
[15:33:17-538][0]broken_index<0> = broken_type<0>
[15:33:17-553]Pw:  len=52, data=00 8a dc 2e 03 40 00 00 12 d0 00 01 25 01 17 01 0d 0f 21 0e ff fc 00 00 00 00 00 00 a0 00 00 00 00 00 00 00 00 00 00 00 00 00 00 00 00 00 00 00 00 00 08 75 
[15:33:17-553]
[15:33:17-741]feed
[15:33:17-741]device:9100334 csq:19 net:1 server:1, relay:1
[15:33:18-241]feed
[15:33:18-741]feed
[15:33:18-741]device:9100334 csq:19 net:1 server:1, relay:1
[15:33:19-241]feed
[15:33:19-459]probe u_value = 0
[15:33:19-459]probe u_value = 0
[15:33:19-459]probe u_value = 0
[15:33:19-459]Rw:  len=8, data=01 06 00 0a 00 00 a9 c8 
[15:33:19-741]Rr:  len=1, data=feed
[15:33:19-756]device:9100334 csq:19 net:1 server:1, relay:1
[15:33:20-256]feed
[15:33:20-475]read each start
[15:33:20-475]Rw:  len=8, data=01 03 00 00 00 05 85 c9 
[15:33:20-569]Rr:  len=1, data=now: 2023-01-13 15:33:17
[15:33:20-756]feed
[15:33:20-756]device:9100334 csq:19 net:1 server:1, relay:1
[15:33:21-256]feed
[15:33:21-491]
[15:33:21-491]Sensors read rc -2 s -2
[15:33:21-756]feed
[15:33:21-756]device:9100334 csq:19 net:1 server:1, relay:1
[15:33:22-256]feed
[15:33:22-491]Rw:  len=8, data=02 03 00 00 00 03 05 f8 
[15:33:22-756]Rr:  len=1, data=feed
[15:33:22-756]device:9100334 csq:19 net:1 server:1, relay:1
[15:33:23-256]feed
[15:33:23-506]
[15:33:23-506]Sensors read rc -2 s -2
[15:33:23-569]now: 2023-01-13 15:33:20
[15:33:23-756]feed
[15:33:23-772]device:9100334 csq:19 net:1 server:1, relay:1
[15:33:24-272]feed
[15:33:24-506]read each end
[15:33:24-506]indicators_values[1].sensor = 20000a1c
[15:33:24-506]indicators_values[2].sensor = 20000a8c
[15:33:24-772]feed
[15:33:24-772]device:9100334 csq:19 net:1 server:1, relay:1
[15:33:25-272]feed
[15:33:25-522]air blow: err: 10, rst: 3, status: -2
[15:33:25-522]Rw:  len=8, data=fb 03 00 00 00 0a d1 97 
[15:33:25-772]Rr:  len=1, data=feed
[15:33:25-772]device:9100334 csq:19 net:1 server:1, relay:1
[15:33:26-272]feed
[15:33:26-569]now: 2023-01-13 15:33:23
[15:33:26-772]feed
[15:33:26-772]device:9100334 csq:19 net:1 server:1, relay:1
[15:33:27-272]feed
[15:33:27-522]probe u_value = 0
[15:33:27-538]probe u_value = 0
[15:33:27-538]probe u_value = 0
[15:33:27-538]Rw:  len=8, data=01 06 00 0a 00 00 a9 c8 
[15:33:27-772]Rr:  len=1, data=feed
[15:33:27-788]device:9100334 csq:19 net:1 server:1, relay:1
[15:33:28-288]feed
[15:33:28-553]read each start
[15:33:28-553]Rw:  len=8, data=01 03 00 00 00 05 85 c9 
[15:33:28-788]Rr:  len=1, data=feed
[15:33:28-788]device:9100334 csq:19 net:1 server:1, relay:1
[15:33:29-288]feed
[15:33:29-319]CSQ: 19
[15:33:29-569]
[15:33:29-569]Sensors read rc -2 s -2
[15:33:29-569]now: 2023-01-13 15:33:26
[15:33:29-788]feed
[15:33:29-788]device:9100334 csq:19 net:1 server:1, relay:1
[15:33:30-288]feed
[15:33:30-569]Rw:  len=8, data=02 03 00 00 00 03 05 f8 
[15:33:30-788]Rr:  len=1, data=feed
[15:33:30-788]device:9100334 csq:19 net:1 server:1, relay:1
[15:33:31-288]feed
[15:33:31-585]
[15:33:31-585]Sensors read rc -2 s -2
[15:33:31-788]feed
[15:33:31-803]device:9100334 csq:19 net:1 server:1, relay:1
[15:33:32-303]feed
[15:33:32-585]read each end
[15:33:32-585]indicators_values[1].sensor = 20000a1c
[15:33:32-585]indicators_values[2].sensor = 20000a8c
[15:33:32-585]now: 2023-01-13 15:33:29
[15:33:32-803]feed
[15:33:32-803]device:9100334 csq:19 net:1 server:1, relay:1
[15:33:33-303]feed
[15:33:33-585]air blow: err: 10, rst: 3, status: -2
[15:33:33-600]Rw:  len=8, data=fb 03 00 00 00 0a d1 97 
[15:33:33-803]Rr:  len=1, data=feed
[15:33:33-803]device:9100334 csq:19 net:1 server:1, relay:1
[15:33:34-303]feed
[15:33:34-803]feed
[15:33:34-803]device:9100334 csq:19 net:1 server:1, relay:1
[15:33:35-303]feed
[15:33:35-600]probe u_value = 0
[15:33:35-600]probe u_value = 0
[15:33:35-600]probe u_value = 0
[15:33:35-616]Rw:  len=8, data=01 06 00 0a 00 00 a9 c8 
[15:33:35-632]Rr:  len=1, data=now: 2023-01-13 15:33:32
[15:33:35-803]feed
[15:33:35-819]device:9100334 csq:19 net:1 server:1, relay:1
[15:33:36-319]feed
[15:33:36-616]read each start
[15:33:36-632]Rw:  len=8, data=01 03 00 00 00 05 85 c9 
[15:33:36-819]Rr:  len=1, data=feed
[15:33:36-819]device:9100334 csq:19 net:1 server:1, relay:1
[15:33:37-319]feed
[15:33:37-553]<Recv>:
[15:33:37-553]id = 18f51111, dlc = 6
[15:33:37-553]01 01 01 01 00 00 
[15:33:37-569]dev_relay:ch=1, os=1, ks=1, err=1, cur=0(mA)
[15:33:37-569]<Recv>:
[15:33:37-569]id = 18f51111, dlc = 6
[15:33:37-569]02 00 02 00 00 00 
[15:33:37-585]dev_relay:ch=2, os=0, ks=2, err=0, cur=0(mA)
[15:33:37-585]<Recv>:
[15:33:37-585]id = 18f51111, dlc = 6
[15:33:37-585]03 00 02 00 00 00 
[15:33:37-585]dev_relay:ch=3, os=0, ks=2, err=0, cur=0(mA)
[15:33:37-585]<Recv>:
[15:33:37-585]id = 18f51111, dlc = 6
[15:33:37-585]04 00 02 00 02 00 
[15:33:37-600]dev_relay:ch=4, os=0, ks=2, err=0, cur=20(mA)
[15:33:37-600]<Recv>:
[15:33:37-600]id = 18f51111, dlc = 6
[15:33:37-600]05 00 02 00 01 00 
[15:33:37-600]dev_relay:ch=5, os=0, ks=2, err=0, cur=10(mA)
[15:33:37-632]
[15:33:37-632]Sensors read rc -2 s -2
[15:33:37-647]key<1> press
[15:33:37-647]get_ch <1> = ON
[15:33:37-819]feed
[15:33:37-819]device:9100334 csq:19 net:1 server:1, relay:1
[15:33:38-319]feed
[15:33:38-647]Rw:  len=8, data=02 03 00 00 00 03 05 f8 
[15:33:38-647]Rr:  len=1, data=now: 2023-01-13 15:33:35
[15:33:38-663][0]broken_index<0> = broken_type<1>
[15:33:38-678]Pw:  len=52, data=00 8a dc 2e 03 40 00 00 12 d0 00 01 25 01 17 01 0d 0f 21 23 ff fc 00 00 00 00 80 00 a0 00 80 00 00 00 80 00 00 00 80 00 00 00 00 00 00 00 00 00 00 00 43 8f 
[15:33:38-678]
[15:33:38-819]feed
[15:33:38-819]device:9100334 csq:19 net:1 server:1, relay:1
[15:33:39-319]feed
[15:33:39-647]
[15:33:39-647]Sensors read rc -2 s -2
[15:33:39-835]feed
[15:33:39-835]device:9100334 csq:19 net:1 server:1, relay:1
[15:33:40-335]feed
[15:33:40-663]read each end
[15:33:40-663]indicators_values[1].sensor = 20000a1c
[15:33:40-663]indicators_values[2].sensor = 20000a8c
[15:33:40-835]feed
[15:33:40-835]device:9100334 csq:19 net:1 server:1, relay:1
[15:33:41-335]feed
[15:33:41-663]air blow: err: 10, rst: 3, status: -2
[15:33:41-663]Rw:  len=8, data=fb 03 00 00 00 0a d1 97 
[15:33:41-678]Rr:  len=1, data=Pw:  len=15, data=00 8a dc 2e 03 40 00 00 22 d0 00 01 00 3f 16 
[15:33:41-694]
[15:33:41-694]now: 2023-01-13 15:33:38
[15:33:41-835]feed
[15:33:41-835]device:9100334 csq:19 net:1 server:1, relay:1
[15:33:41-897]Pr:  len=13, data=00 8a dc 2e 03 40 00 00 22 d1 00 01 00 
[15:33:41-897]Pr:  len=2, data=3e ea 
[15:33:42-194]CSQ: 19
[15:33:42-335]feed
[15:33:42-835]feed
[15:33:42-850]device:9100334 csq:19 net:1 server:1, relay:1
[15:33:43-335]feed
[15:33:43-678]probe u_value = 0
[15:33:43-678]probe u_value = 0
[15:33:43-678]probe u_value = 0
[15:33:43-694]Rw:  len=8, data=01 06 00 0a 00 00 a9 c8 
[15:33:43-850]Rr:  len=1, data=feed
[15:33:43-850]device:9100334 csq:19 net:1 server:1, relay:1
[15:33:44-085]<Recv>:
[15:33:44-085]id = 18f61111, dlc = 7
[15:33:44-085]04 3e 08 52 08 5c 08 
[15:33:44-100]power in:cfg=4, VA=211(V), VB=213(V), VC=214(V)
[15:33:44-350]feed
[15:33:44-694]read each start
[15:33:44-710]Rw:  len=8, data=01 03 00 00 00 05 85 c9 
[15:33:44-710]Rr:  len=1, data=now: 2023-01-13 15:33:41
[15:33:44-850]feed
[15:33:44-850]device:9100334 csq:19 net:1 server:1, relay:1
[15:33:45-350]feed
[15:33:45-710]
[15:33:45-710]Sensors read rc -2 s -2
[15:33:45-850]feed
[15:33:45-850]device:9100334 csq:19 net:1 server:1, relay:1
[15:33:46-350]feed
[15:33:46-725]Rw:  len=8, data=02 03 00 00 00 03 05 f8 
[15:33:46-850]Rr:  len=1, data=feed
[15:33:46-866]device:9100334 csq:19 net:1 server:1, relay:1
[15:33:47-366]feed
[15:33:47-725]
[15:33:47-725]Sensors read rc -2 s -2
[15:33:47-725]now: 2023-01-13 15:33:44
[15:33:47-866]feed
[15:33:47-866]device:9100334 csq:19 net:1 server:1, relay:1
[15:33:48-366]feed
[15:33:48-725]read each end
[15:33:48-741]indicators_values[1].sensor = 20000a1c
[15:33:48-741]indicators_values[2].sensor = 20000a8c
[15:33:48-866]feed
[15:33:48-866]device:9100334 csq:19 net:1 server:1, relay:1
[15:33:49-366]feed
[15:33:49-741]air blow: err: 10, rst: 3, status: -2
[15:33:49-741]Rw:  len=8, data=fb 03 00 00 00 0a d1 97 
[15:33:49-866]Rr:  len=1, data=feed
[15:33:49-866]device:9100334 csq:19 net:1 server:1, relay:1
[15:33:50-366]feed
[15:33:50-757]now: 2023-01-13 15:33:47
[15:33:50-866]feed
[15:33:50-882]device:9100334 csq:19 net:1 server:1, relay:1
[15:33:51-382]feed
[15:33:51-757]probe u_value = 0
[15:33:51-757]probe u_value = 0
[15:33:51-757]probe u_value = 0
[15:33:51-757]Rw:  len=8, data=01 06 00 0a 00 00 a9 c8 
[15:33:51-882]Rr:  len=1, data=feed
[15:33:51-882]device:9100334 csq:19 net:1 server:1, relay:1
[15:33:52-382]feed
[15:33:52-772]read each start
[15:33:52-772]Rw:  len=8, data=01 03 00 00 00 05 85 c9 
[15:33:52-882]Rr:  len=1, data=feed
[15:33:52-882]device:9100334 csq:19 net:1 server:1, relay:1
[15:33:53-382]feed
[15:33:53-788]
[15:33:53-788]Sensors read rc -2 s -2
[15:33:53-788]now: 2023-01-13 15:33:50
[15:33:53-882]feed
[15:33:53-882]device:9100334 csq:19 net:1 server:1, relay:1
[15:33:54-382]feed
[15:33:54-788]Rw:  len=8, data=02 03 00 00 00 03 05 f8 
[15:33:54-882]Rr:  len=1, data=feed
[15:33:54-897]device:9100334 csq:19 net:1 server:1, relay:1
[15:33:55-304]CSQ: 19
[15:33:55-397]feed
[15:33:55-804]
[15:33:55-804]Sensors read rc -2 s -2
[15:33:55-897]feed
[15:33:55-897]device:9100334 csq:19 net:1 server:1, relay:1
[15:33:56-397]feed
[15:33:56-804]read each end
[15:33:56-804]indicators_values[1].sensor = 20000a1c
[15:33:56-819]indicators_values[2].sensor = 20000a8c
[15:33:56-819]now: 2023-01-13 15:33:53
[15:33:56-897]feed
[15:33:56-897]device:9100334 csq:19 net:1 server:1, relay:1
[15:33:57-397]feed
[15:33:57-819]air blow: err: 10, rst: 3, status: -2
[15:33:57-819]Rw:  len=8, data=fb 03 00 00 00 0a d1 97 
[15:33:57-897]Rr:  len=1, data=feed
[15:33:57-897]device:9100334 csq:19 net:1 server:1, relay:1
[15:33:58-397]feed
[15:33:58-897]feed
[15:33:58-913]device:9100334 csq:19 net:1 server:1, relay:1
[15:33:59-413]feed
[15:33:59-835]probe u_value = 0
[15:33:59-835]probe u_value = 0
[15:33:59-835]probe u_value = 0
[15:33:59-835]Rw:  len=8, data=01 06 00 0a 00 00 a9 c8 
[15:33:59-850]Rr:  len=1, data=now: 2023-01-13 15:33:56
[15:33:59-913]feed
[15:33:59-913]device:9100334 csq:19 net:1 server:1, relay:1
[15:34:00-413]feed
[15:34:00-850]read each start
[15:34:00-850]Rw:  len=8, data=01 03 00 00 00 05 85 c9 
[15:34:00-913]Rr:  len=1, data=feed
[15:34:00-913]device:9100334 csq:19 net:1 server:1, relay:1
[15:34:01-413]feed
[15:34:01-866]
[15:34:01-866]Sensors read rc -2 s -2
[15:34:01-913]feed
[15:34:01-913]device:9100334 csq:19 net:1 server:1, relay:1
[15:34:02-413]feed
[15:34:02-866]Rw:  len=8, data=02 03 00 00 00 03 05 f8 
[15:34:02-882]Rr:  len=1, data=now: 2023-01-13 15:33:59
[15:34:02-913]feed
[15:34:02-929]device:9100334 csq:19 net:1 server:1, relay:1
[15:34:03-429]feed
[15:34:03-882]
[15:34:03-882]Sensors read rc -2 s -2
[15:34:03-929]feed
[15:34:03-929]device:9100334 csq:19 net:1 server:1, relay:1
[15:34:04-429]feed
[15:34:04-882]read each end
[15:34:04-882]indicators_values[1].sensor = 20000a1c
[15:34:04-882]indicators_values[2].sensor = 20000a8c
[15:34:04-929]feed
[15:34:04-929]device:9100334 csq:19 net:1 server:1, relay:1
[15:34:05-288]<Recv>:
[15:34:05-304]id = 18f51111, dlc = 6
[15:34:05-304]01 00 02 00 00 00 
[15:34:05-304]dev_relay:ch=1, os=0, ks=2, err=0, cur=0(mA)
[15:34:05-304]<Recv>:
[15:34:05-304]id = 18f51111, dlc = 6
[15:34:05-304]02 00 02 00 00 00 
[15:34:05-319]dev_relay:ch=2, os=0, ks=2, err=0, cur=0(mA)
[15:34:05-319]<Recv>:
[15:34:05-319]id = 18f51111, dlc = 6
[15:34:05-319]03 00 02 00 00 00 
[15:34:05-319]dev_relay:ch=3, os=0, ks=2, err=0, cur=0(mA)
[15:34:05-319]<Recv>:
[15:34:05-319]id = 18f51111, dlc = 6
[15:34:05-319]04 00 02 00 03 00 
[15:34:05-319]dev_relay:ch=4, os=0, ks=2, err=0, cur=30(mA)
[15:34:05-319]<Recv>:
[15:34:05-335]id = 18f51111, dlc = 6
[15:34:05-335]05 00 02 00 01 00 
[15:34:05-335]dev_relay:ch=5, os=0, ks=2, err=0, cur=10(mA)
[15:34:05-429]feed
[15:34:05-897]air blow: err: 10, rst: 3, status: -2
[15:34:05-897]Rw:  len=8, data=fb 03 00 00 00 0a d1 97 
[15:34:05-913]Rr:  len=1, data=now: 2023-01-13 15:34:02
[15:34:05-913]key<1> release
[15:34:05-913]get_ch <1> = OFF
[15:34:05-929]feed
[15:34:05-929]device:9100334 csq:19 net:1 server:1, relay:1
[15:34:06-429]feed
[15:34:06-913][0]broken_index<0> = broken_type<0>
[15:34:06-929]Pw:  len=52, data=00 8a dc 2e 03 40 00 00 12 d0 00 01 25 01 17 01 0d 0f 22 03 ff fc 00 00 00 00 00 00 a0 00 00 00 00 00 00 00 00 00 00 00 00 00 00 00 00 00 00 00 00 00 59 07 
[15:34:06-944]
[15:34:06-944]feed
[15:34:06-944]device:9100334 csq:19 net:1 server:1, relay:1
[15:34:07-444]feed
[15:34:07-913]probe u_value = 0
[15:34:07-913]probe u_value = 0
[15:34:07-913]probe u_value = 0
[15:34:07-913]Rw:  len=8, data=01 06 00 0a 00 00 a9 c8 
[15:34:07-944]Rr:  len=1, data=feed
[15:34:07-944]device:9100334 csq:19 net:1 server:1, relay:1
[15:34:08-179]CSQ: 19
[15:34:08-444]feed
[15:34:08-929]read each start
[15:34:08-929]Rw:  len=8, data=01 03 00 00 00 05 85 c9 
[15:34:08-944]Rr:  len=1, data=now: 2023-01-13 15:34:05
[15:34:08-944]feed
[15:34:08-944]device:9100334 csq:19 net:1 server:1, relay:1
[15:34:09-444]feed
[15:34:09-944]
[15:34:09-944]Sensors read rc -2 s -2
[15:34:09-944]feed
[15:34:09-960]device:9100334 csq:19 net:1 server:1, relay:1
[15:34:10-444]feed
[15:34:10-944]Rw:  len=8, data=02 03 00 00 00 03 05 f8 
[15:34:10-960]feed
[15:34:10-960]device:9100334 csq:19 net:1 server:1, relay:1
[15:34:11-460]feed
[15:34:11-960]
[15:34:11-960]Sensors read rc -2 s -2
[15:34:11-960]feed
[15:34:11-960]device:9100334 csq:19 net:1 server:1, relay:1
[15:34:11-960]now: 2023-01-13 15:34:08
[15:34:12-460]feed
[15:34:12-960]read each end
[15:34:12-960]indicators_values[1].sensor = 20000a1c
[15:34:12-960]indicators_values[2].sensor = 20000a8c
[15:34:13-460]feed
[15:34:13-960]feed
[15:34:13-976]device:9100334 csq:19 net:1 server:1, relay:1
[15:34:14-319]Rr:  len=1, data=<Recv>:
[15:34:14-335]id = 18f61111, dlc = 7
[15:34:14-335]04 3e 08 52 08 5c 08 
[15:34:14-335]power in:cfg=4, VA=211(V), VB=213(V), VC=214(V)
[15:34:14-476]feed
[15:34:14-976]feed
[15:34:14-976]device:9100334 csq:19 net:1 server:1, relay:1
[15:34:14-976]now: 2023-01-13 15:34:12
[15:34:15-476]feed
[15:34:15-976]feed
[15:34:15-976]device:9100334 csq:19 net:1 server:1, relay:1
[15:34:16-476]Rr:  len=1, data=feed
[15:34:16-976]feed
[15:34:16-991]device:9100334 csq:19 net:1 server:1, relay:1
[15:34:17-491]Rr:  len=1, data=feed
[15:34:17-991]feed
[15:34:17-991]device:9100334 csq:19 net:1 server:1, relay:1
[15:34:17-991]
[15:34:17-991]Sensors read rc -2 s -2
[15:34:17-991]now: 2023-01-13 15:34:15
[15:34:18-491]feed
[15:34:18-991]feed
[15:34:18-991]device:9100334 csq:19 net:1 server:1, relay:1
[15:34:18-991]Rw:  len=8, data=02 03 00 00 00 03 05 f8 
