[13:41:37-429]feed
[13:41:37-429]Log level: TRACE
[13:41:37-429]<Jan  5 2023-17:59:57> boot file <BOOT_V1.0.0> at 08000400
[13:41:37-429]APP file exist
[13:41:37-429]Factory file exist
[13:41:37-460]BOOT_V1.0.0
[13:41:37-460]eeprom read: 4094 page
[13:41:37-460]00 00 00 00 00 00 00 00 01 01 00 00 00 00 02 00 ff ff ff ff 00 00 00 00 00 00 00 00 00 00 70 30 
[13:41:37-460]eeprom read: 4095 page
[13:41:37-460]00 00 00 00 00 00 00 00 01 02 00 01 00 00 02 00 ff ff ff ff 00 00 00 00 00 00 00 00 00 00 7e ff 
[13:41:37-476]waiting for check app info ... ...
[13:41:37-492]PN_CODE:Y-515
[13:41:37-492][ERROR:24]:download data not finish
[13:41:37-507]Ready Jump to App,AppAddress:8010000
[13:41:37-523]Log level: NONE
[13:41:37-523]
[13:41:37-523] _______   _____    _____ 
[13:41:37-523]|__  /\ \ / /_ _|__|_   _|
[13:41:37-523]  / /  \ V / | |/ _ \| |
[13:41:37-523] / /_   | |  | | (_) | |
[13:41:37-523]/____|  |_| |___\___/|_|
[13:41:37-523]
[13:41:37-523]http://www.zytdwl.cn
[13:41:37-523]
[13:41:37-538]3G online device <Y-515_APP_V1.0.0> at 08010400
[13:41:37-538]compiler at <Jan 10 2023-17:18:15>
[13:41:37-554]eeprom read: 8 page
[13:41:37-570]2e dc 8a 00 00 00 00 00 00 01 00 00 00 00 00 00 00 00 00 00 00 00 00 00 00 00 00 00 00 00 b0 fa 
[13:41:37-570]system load rc: 0
[13:41:37-570]eeprom read: 9 page
[13:41:37-570]01 00 00 00 00 00 00 00 00 00 00 00 00 00 00 00 00 00 00 00 00 00 00 00 00 00 00 00 00 00 ff 1f 
[13:41:37-570]device_enable load rc: 0
[13:41:37-585]eeprom read: 10 page
[13:41:37-585]01 00 00 00 00 00 00 00 00 00 00 00 00 00 00 00 00 00 00 00 00 00 00 00 00 00 00 00 00 00 ff 1f 
[13:41:37-585]device_connect load rc: 0
[13:41:37-585]eeprom read: 32 page
[13:41:37-601]00 00 00 00 00 00 00 00 00 00 00 00 00 00 00 00 00 00 00 00 00 00 00 00 00 00 00 00 00 00 fe 4f 
[13:41:37-601]probe_enable load rc: 0
[13:41:37-601]eeprom read: 40 page
[13:41:37-632]00 00 00 00 00 00 00 00 00 00 00 00 00 00 00 00 00 00 00 00 00 00 00 00 00 00 00 00 00 00 fe 4f 
[13:41:37-632]pump_status load rc: 0
[13:41:37-632]eeprom read: 56 page
[13:41:37-648]01 01 00 00 02 00 00 00 00 00 00 00 00 00 00 00 00 00 00 00 00 00 00 00 00 00 00 00 00 00 cc a1 
[13:41:37-648]eeprom read: 57 page
[13:41:37-663]01 01 00 00 02 00 00 00 00 00 00 00 00 00 00 00 00 00 00 00 00 00 00 00 00 00 00 00 00 00 cc a1 
[13:41:37-663]eeprom read: 58 page
[13:41:37-663]01 01 00 00 01 00 00 00 00 00 00 00 00 00 00 00 00 00 00 00 00 00 00 00 00 00 00 00 00 00 c7 e1 
[13:41:37-663]sensor load rc: 0
[13:41:37-679]eeprom read: 312 page
[13:41:37-679]00 00 00 00 00 00 00 00 00 00 00 00 00 00 00 00 00 00 00 00 00 00 00 00 00 00 00 00 00 00 fe 4f 
[13:41:37-679]eeprom read: 313 page
[13:41:37-695]00 00 00 00 00 00 00 00 00 00 00 00 00 00 00 00 00 00 00 00 00 00 00 00 00 00 00 00 00 00 fe 4f 
[13:41:37-695]eeprom read: 314 page
[13:41:37-710]00 00 00 00 00 00 00 00 00 00 00 00 00 00 00 00 00 00 00 00 00 00 00 00 00 00 00 00 00 00 fe 4f 
[13:41:37-710]eeprom read: 315 page
[13:41:37-726]00 00 00 00 00 00 00 00 00 00 00 00 00 00 00 00 00 00 00 00 00 00 00 00 00 00 00 00 00 00 fe 4f 
[13:41:37-726]eeprom read: 316 page
[13:41:37-742]00 00 00 00 00 00 00 00 00 00 00 00 00 00 00 00 00 00 00 00 00 00 00 00 00 00 00 00 00 00 fe 4f 
[13:41:37-742]eeprom read: 317 page
[13:41:37-757]00 00 00 00 00 00 00 00 00 00 00 00 00 00 00 00 00 00 00 00 00 00 00 00 00 00 00 00 00 00 fe 4f 
[13:41:37-757]eeprom read: 318 page
[13:41:37-757]00 00 00 00 00 00 00 00 00 00 00 00 00 00 00 00 00 00 00 00 00 00 00 00 00 00 00 00 00 00 fe 4f 
[13:41:37-757]eeprom read: 319 page
[13:41:37-773]00 00 00 00 00 00 00 00 00 00 00 00 00 00 00 00 00 00 00 00 00 00 00 00 00 00 00 00 00 00 fe 4f 
[13:41:37-773]compensation load rc: 0
[13:41:37-773]eeprom read: 448 page
[13:41:37-788]00 00 00 00 00 00 00 00 00 00 00 00 00 00 00 00 00 00 00 00 00 00 00 00 00 00 00 00 00 00 fe 4f 
[13:41:37-788]eeprom read: 449 page
[13:41:37-804]00 00 00 00 00 00 00 00 00 00 00 00 00 00 00 00 00 00 00 00 00 00 00 00 00 00 00 00 00 00 fe 4f 
[13:41:37-804]eeprom read: 450 page
[13:41:37-820]00 00 00 00 00 00 00 00 00 00 00 00 00 00 00 00 00 00 00 00 00 00 00 00 00 00 00 00 00 00 fe 4f 
[13:41:37-820]eeprom read: 451 page
[13:41:37-835]00 00 00 00 00 00 00 00 00 00 00 00 00 00 00 00 00 00 00 00 00 00 00 00 00 00 00 00 00 00 fe 4f 
[13:41:37-835]eeprom read: 452 page
[13:41:37-851]00 00 00 00 00 00 00 00 00 00 00 00 00 00 00 00 00 00 00 00 00 00 00 00 00 00 00 00 00 00 fe 4f 
[13:41:37-851]eeprom read: 453 page
[13:41:37-851]00 00 00 00 00 00 00 00 00 00 00 00 00 00 00 00 00 00 00 00 00 00 00 00 00 00 00 00 00 00 fe 4f 
[13:41:37-851]eeprom read: 454 page
[13:41:37-867]00 00 00 00 00 00 00 00 00 00 00 00 00 00 00 00 00 00 00 00 00 00 00 00 00 00 00 00 00 00 fe 4f 
[13:41:37-867]eeprom read: 455 page
[13:41:37-882]00 00 00 00 00 00 00 00 00 00 00 00 00 00 00 00 00 00 00 00 00 00 00 00 00 00 00 00 00 00 fe 4f 
[13:41:37-882]indicator_alert load rc: 0
[13:41:37-882]eeprom read: 704 page
[13:41:37-898]00 00 00 00 00 00 00 00 00 00 00 00 00 00 00 00 00 00 00 00 00 00 00 00 00 00 00 00 00 00 fe 4f 
[13:41:37-898]eeprom read: 705 page
[13:41:37-913]00 00 00 00 00 00 00 00 00 00 00 00 00 00 00 00 00 00 00 00 00 00 00 00 00 00 00 00 00 00 fe 4f 
[13:41:37-913]eeprom read: 706 page
[13:41:37-929]00 00 00 00 00 00 00 00 00 00 00 00 00 00 00 00 00 00 00 00 00 00 00 00 00 00 00 00 00 00 fe 4f 
[13:41:37-929]eeprom read: 707 page
[13:41:37-945]00 00 00 00 00 00 00 00 00 00 00 00 00 00 00 00 00 00 00 00 00 00 00 00 00 00 00 00 00 00 fe 4f 
[13:41:37-945]eeprom read: 708 page
[13:41:37-945]00 00 00 00 00 00 00 00 00 00 00 00 00 00 00 00 00 00 00 00 00 00 00 00 00 00 00 00 00 00 fe 4f 
[13:41:37-945]eeprom read: 709 page
[13:41:37-960]00 00 00 00 00 00 00 00 00 00 00 00 00 00 00 00 00 00 00 00 00 00 00 00 00 00 00 00 00 00 fe 4f 
[13:41:37-960]eeprom read: 710 page
[13:41:37-976]00 00 00 00 00 00 00 00 00 00 00 00 00 00 00 00 00 00 00 00 00 00 00 00 00 00 00 00 00 00 fe 4f 
[13:41:37-976]eeprom read: 711 page
[13:41:37-992]00 00 00 00 00 00 00 00 00 00 00 00 00 00 00 00 00 00 00 00 00 00 00 00 00 00 00 00 00 00 fe 4f 
[13:41:37-992]eeprom read: 712 page
[13:41:38-007]00 00 00 00 00 00 00 00 00 00 00 00 00 00 00 00 00 00 00 00 00 00 00 00 00 00 00 00 00 00 fe 4f 
[13:41:38-007]eeprom read: 713 page
[13:41:38-023]00 00 00 00 00 00 00 00 00 00 00 00 00 00 00 00 00 00 00 00 00 00 00 00 00 00 00 00 00 00 fe 4f 
[13:41:38-023]eeprom read: 714 page
[13:41:38-023]00 00 00 00 00 00 00 00 00 00 00 00 00 00 00 00 00 00 00 00 00 00 00 00 00 00 00 00 00 00 fe 4f 
[13:41:38-023]eeprom read: 715 page
[13:41:38-038]00 00 00 00 00 00 00 00 00 00 00 00 00 00 00 00 00 00 00 00 00 00 00 00 00 00 00 00 00 00 fe 4f 
[13:41:38-038]eeprom read: 716 page
[13:41:38-054]00 00 00 00 00 00 00 00 00 00 00 00 00 00 00 00 00 00 00 00 00 00 00 00 00 00 00 00 00 00 fe 4f 
[13:41:38-054]eeprom read: 717 page
[13:41:38-070]00 00 00 00 00 00 00 00 00 00 00 00 00 00 00 00 00 00 00 00 00 00 00 00 00 00 00 00 00 00 fe 4f 
[13:41:38-070]eeprom read: 718 page
[13:41:38-085]00 00 00 00 00 00 00 00 00 00 00 00 00 00 00 00 00 00 00 00 00 00 00 00 00 00 00 00 00 00 fe 4f 
[13:41:38-085]eeprom read: 719 page
[13:41:38-101]00 00 00 00 00 00 00 00 00 00 00 00 00 00 00 00 00 00 00 00 00 00 00 00 00 00 00 00 00 00 fe 4f 
[13:41:38-101]eeprom read: 720 page
[13:41:38-101]00 00 00 00 00 00 00 00 00 00 00 00 00 00 00 00 00 00 00 00 00 00 00 00 00 00 00 00 00 00 fe 4f 
[13:41:38-101]eeprom read: 721 page
[13:41:38-117]00 00 00 00 00 00 00 00 00 00 00 00 00 00 00 00 00 00 00 00 00 00 00 00 00 00 00 00 00 00 fe 4f 
[13:41:38-117]eeprom read: 722 page
[13:41:38-132]00 00 00 00 00 00 00 00 00 00 00 00 00 00 00 00 00 00 00 00 00 00 00 00 00 00 00 00 00 00 fe 4f 
[13:41:38-132]eeprom read: 723 page
[13:41:38-148]00 00 00 00 00 00 00 00 00 00 00 00 00 00 00 00 00 00 00 00 00 00 00 00 00 00 00 00 00 00 fe 4f 
[13:41:38-148]eeprom read: 724 page
[13:41:38-163]00 00 00 00 00 00 00 00 00 00 00 00 00 00 00 00 00 00 00 00 00 00 00 00 00 00 00 00 00 00 fe 4f 
[13:41:38-163]eeprom read: 725 page
[13:41:38-179]00 00 00 00 00 00 00 00 00 00 00 00 00 00 00 00 00 00 00 00 00 00 00 00 00 00 00 00 00 00 fe 4f 
[13:41:38-179]eeprom read: 726 page
[13:41:38-179]00 00 00 00 00 00 00 00 00 00 00 00 00 00 00 00 00 00 00 00 00 00 00 00 00 00 00 00 00 00 fe 4f 
[13:41:38-179]eeprom read: 727 page
[13:41:38-195]00 00 00 00 00 00 00 00 00 00 00 00 00 00 00 00 00 00 00 00 00 00 00 00 00 00 00 00 00 00 fe 4f 
[13:41:38-195]eeprom read: 728 page
[13:41:38-210]00 00 00 00 00 00 00 00 00 00 00 00 00 00 00 00 00 00 00 00 00 00 00 00 00 00 00 00 00 00 fe 4f 
[13:41:38-210]eeprom read: 729 page
[13:41:38-226]00 00 00 00 00 00 00 00 00 00 00 00 00 00 00 00 00 00 00 00 00 00 00 00 00 00 00 00 00 00 fe 4f 
[13:41:38-226]eeprom read: 730 page
[13:41:38-242]00 00 00 00 00 00 00 00 00 00 00 00 00 00 00 00 00 00 00 00 00 00 00 00 00 00 00 00 00 00 fe 4f 
[13:41:38-242]eeprom read: 731 page
[13:41:38-257]00 00 00 00 00 00 00 00 00 00 00 00 00 00 00 00 00 00 00 00 00 00 00 00 00 00 00 00 00 00 fe 4f 
[13:41:38-257]eeprom read: 732 page
[13:41:38-257]00 00 00 00 00 00 00 00 00 00 00 00 00 00 00 00 00 00 00 00 00 00 00 00 00 00 00 00 00 00 fe 4f 
[13:41:38-257]eeprom read: 733 page
[13:41:38-273]00 00 00 00 00 00 00 00 00 00 00 00 00 00 00 00 00 00 00 00 00 00 00 00 00 00 00 00 00 00 fe 4f 
[13:41:38-273]eeprom read: 734 page
[13:41:38-288]00 00 00 00 00 00 00 00 00 00 00 00 00 00 00 00 00 00 00 00 00 00 00 00 00 00 00 00 00 00 fe 4f 
[13:41:38-288]eeprom read: 735 page
[13:41:38-304]00 00 00 00 00 00 00 00 00 00 00 00 00 00 00 00 00 00 00 00 00 00 00 00 00 00 00 00 00 00 fe 4f 
[13:41:38-304]limit load rc: 0
[13:41:38-304]eeprom read: 1496 page
[13:41:38-320]00 00 00 00 00 00 00 00 00 00 00 00 00 00 00 00 00 00 00 00 00 00 00 00 00 00 00 00 00 00 fe 4f 
[13:41:38-320]relay load rc: 0
[13:41:38-320]eeprom read: 1504 page
[13:41:38-335]01 01 00 00 00 00 00 00 00 00 00 00 00 00 00 00 00 00 00 00 00 00 00 00 00 00 00 00 00 00 3f 1e 
[13:41:38-335]times_enable load rc: 0
[13:41:38-335]eeprom read: 1512 page
[13:41:38-351]02 00 f8 00 00 00 00 00 00 00 81 0f 36 10 17 00 00 00 00 00 00 00 00 00 00 00 00 00 00 00 83 09 
[13:41:38-351]eeprom read: 1513 page
[13:41:38-367]00 00 00 00 00 00 00 00 00 00 00 00 00 00 00 00 00 00 00 00 00 00 00 00 00 00 00 00 00 00 fe 4f 
[13:41:38-367]eeprom read: 1514 page
[13:41:38-367]00 00 00 00 00 00 00 00 00 00 00 00 00 00 00 00 00 00 00 00 00 00 00 00 00 00 00 00 00 00 fe 4f 
[13:41:38-367]eeprom read: 1515 page
[13:41:38-382]00 00 00 00 00 00 00 00 00 00 00 00 00 00 00 00 00 00 00 00 00 00 00 00 00 00 00 00 00 00 fe 4f 
[13:41:38-382]eeprom read: 1516 page
[13:41:38-398]00 00 00 00 00 00 00 00 00 00 00 00 00 00 00 00 00 00 00 00 00 00 00 00 00 00 00 00 00 00 fe 4f 
[13:41:38-398]eeprom read: 1517 page
[13:41:38-413]00 00 00 00 00 00 00 00 00 00 00 00 00 00 00 00 00 00 00 00 00 00 00 00 00 00 00 00 00 00 fe 4f 
[13:41:38-413]eeprom read: 1518 page
[13:41:38-429]00 00 00 00 00 00 00 00 00 00 00 00 00 00 00 00 00 00 00 00 00 00 00 00 00 00 00 00 00 00 fe 4f 
[13:41:38-429]eeprom read: 1519 page
[13:41:38-445]00 00 00 00 00 00 00 00 00 00 00 00 00 00 00 00 00 00 00 00 00 00 00 00 00 00 00 00 00 00 fe 4f 
[13:41:38-445]times load rc: 0
[13:41:38-445]eeprom read: 1576 page
[13:41:38-460]01 01 00 17 01 0d 0b 28 13 17 01 0d 0c 00 13 00 00 00 00 00 00 00 00 00 00 00 00 00 00 00 08 12 
[13:41:38-460]eeprom read: 1577 page
[13:41:38-460]01 01 00 17 01 0d 0b 28 1c 17 01 0d 0c 00 1c 00 00 00 00 00 00 00 00 00 00 00 00 00 00 00 f2 a6 
[13:41:38-476]eeprom read: 1578 page
[13:41:38-476]01 01 00 17 01 0d 0b 2b 1b 17 01 0d 0c 03 1b 00 00 00 00 00 00 00 00 00 00 00 00 00 00 00 22 67 
[13:41:38-476]eeprom read: 1579 page
[13:41:38-492]01 01 00 17 01 0d 0a 04 1e 17 01 0d 0a 18 1e 00 00 00 00 00 00 00 00 00 00 00 00 00 00 00 28 49 
[13:41:38-492]eeprom read: 1580 page
[13:41:38-507]01 01 00 17 01 0d 0a 05 39 17 01 0d 0a 19 39 00 00 00 00 00 00 00 00 00 00 00 00 00 00 00 fb 53 
[13:41:38-507]manual_relay load rc: 0
[13:41:38-507]eeprom read: 1712 page
[13:41:38-523]00 00 00 00 00 00 00 00 00 00 00 00 00 00 00 00 00 00 00 00 00 00 00 00 00 00 00 00 00 00 fe 4f 
[13:41:38-523]eeprom read: 1713 page
[13:41:38-538]00 00 00 00 00 00 00 00 00 00 00 00 00 00 00 00 00 00 00 00 00 00 00 00 00 00 00 00 00 00 fe 4f 
[13:41:38-538]eeprom read: 1714 page
[13:41:38-554]00 00 00 00 00 00 00 00 00 00 00 00 00 00 00 00 00 00 00 00 00 00 00 00 00 00 00 00 00 00 fe 4f 
[13:41:38-554]eeprom read: 1715 page
[13:41:38-570]00 00 00 00 00 00 00 00 00 00 00 00 00 00 00 00 00 00 00 00 00 00 00 00 00 00 00 00 00 00 fe 4f 
[13:41:38-570]eeprom read: 1716 page
[13:41:38-570]00 00 00 00 00 00 00 00 00 00 00 00 00 00 00 00 00 00 00 00 00 00 00 00 00 00 00 00 00 00 fe 4f 
[13:41:38-585]relay power config load rc: 0
[13:41:38-585]eeprom read: 2046 page
[13:41:38-585]00 00 00 00 00 00 00 00 01 01 00 00 00 00 02 00 ff ff ff ff 00 00 00 00 00 00 00 00 00 00 70 30 
[13:41:38-585]eeprom read: 2047 page
[13:41:38-601]00 00 00 00 00 00 00 00 01 02 00 01 00 00 02 00 ff ff ff ff 00 00 00 00 00 00 00 00 00 00 7e ff 
[13:41:38-601]firmware info load rc: 0
[13:41:38-601]config init rc: 0
[13:41:38-617]PROTOCOL handle 10002ae8
[13:41:38-617]SENSORS handle 10004758
[13:41:38-632]NETWORK handle 100063c8
[13:41:38-648]WDG handle 10006838
[13:41:38-663]RELAY handle 100084a8
[13:41:38-679]CAN_tx handle 10009518
[13:41:38-679]CAN_rx handle 1000a588
[13:41:38-695]GPRS handle 1000adf8
[13:41:38-710]Rw:  len=8, data=fb 06 00 0d 00 01 cd 93 
[13:41:38-929]Rr:  len=2, data=RTC init LSE
[13:41:38-929]RTC use LSE
[13:41:38-976]RTC use LSE OK
[13:41:39-117]feed
[13:41:39-617]feed
[13:41:39-617]device:9100334 csq:0 net:0 server:0, relay:0
[13:41:40-117]feed
[13:41:40-476]load: 2023-01-13 13:41:36
[13:41:40-617]feed
[13:41:40-617]device:9100334 csq:0 net:0 server:0, relay:0
[13:41:40-679]AHT20 read
[13:41:40-679]AHT20: status: -1, temperature: 0.000000 humidity:0.000000
[13:41:40-726]refresh status start
[13:41:40-726]sensor config model_id = 1
[13:41:40-726]sensor config model_id = 2
[13:41:40-726]refresh status end
[13:41:40-742]air blow: err: 0, rst: 0, status: -1
[13:41:40-742]Rw:  len=8, data=fb 03 00 00 00 0a d1 97 
[13:41:40-757]Rr:  len=1, data=Gr:  len=9, data=a5 5a 00 00 04 00 00 ff ff 
[13:41:40-757]Gr:  len=2, data=b8 94 
[13:41:40-757]Gw:  len=15, data=a5 5a 00 00 04 04 00 fb ff 00 8a dc 2e 9c 0d 
[13:41:40-757]
[13:41:41-117]feed
[13:41:41-617]feed
[13:41:41-617]device:9100334 csq:0 net:0 server:0, relay:0
[13:41:42-039]<Recv>:
[13:41:42-039]id = 18f51111, dlc = 6
[13:41:42-039]01 00 02 00 00 00 
[13:41:42-039]dev_relay:ch=1, os=0, ks=2, err=0, cur=0(mA)
[13:41:42-039]<Recv>:
[13:41:42-039]id = 18f51111, dlc = 6
[13:41:42-054]02 00 02 00 00 00 
[13:41:42-054]dev_relay:ch=2, os=0, ks=2, err=0, cur=0(mA)
[13:41:42-054]<Recv>:
[13:41:42-070]id = 18f51111, dlc = 6
[13:41:42-070]03 00 02 00 00 00 
[13:41:42-070]dev_relay:ch=3, os=0, ks=2, err=0, cur=0(mA)
[13:41:42-070]<Recv>:
[13:41:42-070]id = 18f51111, dlc = 6
[13:41:42-070]04 00 02 00 01 00 
[13:41:42-085]dev_relay:ch=4, os=0, ks=2, err=0, cur=10(mA)
[13:41:42-085]<Recv>:
[13:41:42-085]id = 18f51111, dlc = 6
[13:41:42-085]05 00 02 00 01 00 
[13:41:42-085]dev_relay:ch=5, os=0, ks=2, err=0, cur=10(mA)
[13:41:42-117]feed
[13:41:42-445]<Recv>:
[13:41:42-445]id = 18f00111, dlc = 8
[13:41:42-445]01 00 00 00 01 00 00 00 
[13:41:42-445]relay_H: 1.0.0.0        relay_F: 1.0.0.0
[13:41:42-554]<Recv>:
[13:41:42-554]id = 18f00211, dlc = 8
[13:41:42-554]52 45 4c 41 59 00 00 00 
[13:41:42-554]relay_PN: RELAY
[13:41:42-617]feed
[13:41:42-632]device:9100334 csq:0 net:0 server:0, relay:1
[13:41:42-664]<Recv>:
[13:41:42-664]id = 18f00311, dlc = 7
[13:41:42-664]59 04 00 00 00 00 00 
[13:41:42-664]relay_SN: 1113000000000
[13:41:42-757]air blow: err: 1, rst: 0, status: -2
[13:41:42-757]Rw:  len=8, data=fb 03 00 00 00 0a d1 97 
[13:41:43-132]Rr:  len=1, data=feed
[13:41:43-632]feed
[13:41:43-632]device:9100334 csq:0 net:0 server:0, relay:1
[13:41:44-132]feed
[13:41:44-632]feed
[13:41:44-632]device:9100334 csq:0 net:0 server:0, relay:1
[13:41:44-773]air blow: err: 2, rst: 0, status: -2
[13:41:44-773]Rw:  len=8, data=fb 03 00 00 00 0a d1 97 
[13:41:45-132]Rr:  len=1, data=feed
[13:41:45-632]feed
[13:41:45-632]device:9100334 csq:0 net:0 server:0, relay:1
[13:41:46-132]feed
[13:41:46-648]feed
[13:41:46-648]device:9100334 csq:0 net:0 server:0, relay:1
[13:41:46-789]air blow: err: 3, rst: 0, status: -2
[13:41:46-789]Rw:  len=8, data=fb 03 00 00 00 0a d1 97 
[13:41:47-148]Rr:  len=1, data=feed
[13:41:47-648]feed
[13:41:47-648]device:9100334 csq:0 net:0 server:0, relay:1
[13:41:48-148]feed
[13:41:48-648]feed
[13:41:48-648]device:9100334 csq:0 net:0 server:0, relay:1
[13:41:48-804]air blow: err: 4, rst: 0, status: -2
[13:41:48-804]Rw:  len=8, data=fb 03 00 00 00 0a d1 97 
[13:41:49-148]Rr:  len=1, data=feed
[13:41:49-648]feed
[13:41:49-664]device:9100334 csq:0 net:0 server:0, relay:1
[13:41:50-164]feed
[13:41:50-664]feed
[13:41:50-664]device:9100334 csq:0 net:0 server:0, relay:1
[13:41:50-726]now: 2023-01-13 13:41:46
[13:41:50-726]key<1> release
[13:41:50-726]key<2> release
[13:41:50-726]key<3> release
[13:41:50-726]key<4> release
[13:41:50-726]key<5> release
[13:41:50-820]air blow: err: 5, rst: 0, status: -2
[13:41:50-820]Rw:  len=8, data=fb 03 00 00 00 0a d1 97 
[13:41:51-164]Rr:  len=1, data=feed
[13:41:51-664]feed
[13:41:51-664]device:9100334 csq:0 net:0 server:0, relay:1
[13:41:52-164]feed
[13:41:52-664]feed
[13:41:52-664]device:9100334 csq:0 net:0 server:0, relay:1
[13:41:52-835]air blow: err: 6, rst: 0, status: -2
[13:41:52-835]Rw:  len=8, data=fb 03 00 00 00 0a d1 97 
[13:41:53-164]Rr:  len=1, data=feed
[13:41:53-664]feed
[13:41:53-679]device:9100334 csq:0 net:0 server:0, relay:1
[13:41:53-742]now: 2023-01-13 13:41:49
[13:41:54-179]feed
[13:41:54-679]feed
[13:41:54-679]device:9100334 csq:0 net:0 server:0, relay:1
[13:41:54-851]air blow: err: 7, rst: 0, status: -2
[13:41:54-851]Rw:  len=8, data=fb 03 00 00 00 0a d1 97 
[13:41:55-179]Rr:  len=1, data=feed
[13:41:55-679]feed
[13:41:55-679]device:9100334 csq:0 net:0 server:0, relay:1
[13:41:56-179]feed
[13:41:56-679]feed
[13:41:56-679]device:9100334 csq:0 net:0 server:0, relay:1
[13:41:56-742]now: 2023-01-13 13:41:52
[13:41:56-867]air blow: err: 8, rst: 0, status: -2
[13:41:56-882]Rw:  len=8, data=fb 03 00 00 00 0a d1 97 
[13:41:57-179]Rr:  len=1, data=feed
[13:41:57-195]Pw:  len=16, data=00 8a dc 2e 03 40 00 00 0e d0 00 01 01 01 91 ec 
[13:41:57-195]
[13:41:57-679]feed
[13:41:57-695]device:9100334 csq:0 net:1 server:0, relay:1
[13:41:58-117]Pr:  len=13, data=00 8a dc 2e 03 40 00 00 0e 00 00 01 01 
[13:41:58-117]Pr:  len=1, data=01 
[13:41:58-117]Pr:  len=2, data=50 3e 
[13:41:58-195]feed
[13:41:58-398]Gw:  len=11, data=a5 5a 00 00 02 00 00 ff ff 30 94 
[13:41:58-398]
[13:41:58-695]feed
[13:41:58-695]device:9100334 csq:0 net:1 server:1, relay:1
[13:41:58-882]air blow: err: 9, rst: 0, status: -2
[13:41:58-898]Rw:  len=8, data=fb 03 00 00 00 0a d1 97 
[13:41:58-898]Rr:  len=1, data=Gr:  len=9, data=a5 5a 00 00 02 14 00 eb ff 
[13:41:58-914]Gr:  len=20, data=38 39 38 36 30 34 41 32 31 39 32 31 37 31 31 35 34 37 35 39 
[13:41:58-914]Gr:  len=2, data=cd 63 
[13:41:58-929]Gw:  len=11, data=a5 5a 00 00 03 00 00 ff ff 0d 54 
[13:41:58-929]
[13:41:59-195]feed
[13:41:59-429]Gr:  len=9, data=a5 5a 00 00 03 01 00 fe ff 
[13:41:59-429]Gr:  len=1, data=01 
[13:41:59-429]Gr:  len=2, data=38 05 
[13:41:59-461]Pw:  len=36, data=00 8a dc 2e 03 40 00 00 2c d0 00 01 15 01 38 39 38 36 30 34 41 32 31 39 32 31 37 31 31 35 34 37 35 39 b7 e1 
[13:41:59-461]
[13:41:59-695]feed
[13:41:59-695]device:9100334 csq:0 net:1 server:1, relay:1
[13:41:59-742]now: 2023-01-13 13:41:55
[13:42:00-195]feed
[13:42:00-211]CSQ: 0
[13:42:00-695]feed
[13:42:00-695]device:9100334 csq:0 net:1 server:1, relay:1
[13:42:01-195]feed
[13:42:01-695]feed
[13:42:01-711]device:9100334 csq:0 net:1 server:1, relay:1
[13:42:02-211]feed
[13:42:02-429]Pr:  len=13, data=00 8a dc 2e 03 40 00 00 12 00 00 01 01 
[13:42:02-429]Pr:  len=1, data=01 
[13:42:02-429]Pr:  len=2, data=52 62 
[13:42:02-445]Pw:  len=52, data=00 8a dc 2e 03 40 00 00 12 d0 00 01 25 01 17 01 0d 0d 29 3a ff fc 00 00 00 00 00 00 00 00 00 00 00 00 00 00 00 00 00 00 00 00 00 00 00 00 00 00 00 00 3e 7e 
[13:42:02-445]
[13:42:02-711]feed
[13:42:02-711]device:9100334 csq:0 net:1 server:1, relay:1
[13:42:02-742]now: 2023-01-13 13:41:58
[13:42:03-211]feed
[13:42:03-711]feed
[13:42:03-711]device:9100334 csq:0 net:1 server:1, relay:1
[13:42:04-211]feed
[13:42:04-711]feed
[13:42:04-711]device:9100334 csq:0 net:1 server:1, relay:1
[13:42:05-211]feed
[13:42:05-711]feed
[13:42:05-726]device:9100334 csq:0 net:1 server:1, relay:1
[13:42:05-742]now: 2023-01-13 13:42:01
[13:42:05-914]air blow: err: 0, rst: 1, status: -1
[13:42:05-914]Rw:  len=8, data=fb 03 00 00 00 0a d1 97 
[13:42:06-226]Rr:  len=1, data=feed
[13:42:06-726]feed
[13:42:06-726]device:9100334 csq:0 net:1 server:1, relay:1
[13:42:07-226]feed
[13:42:07-351]Pr:  len=13, data=00 8a dc 2e 16 40 00 00 0a 00 00 01 07 
[13:42:07-367]Pr:  len=7, data=17 01 0d 05 0d 2a 04 
[13:42:07-367]Pr:  len=2, data=4e 92 
[13:42:07-367]Pw:  len=15, data=00 8a dc 2e 16 40 00 00 0a d0 00 01 00 ad 80 
[13:42:07-367]
[13:42:07-570]<Recv>:
[13:42:07-586]id = 18f61111, dlc = 7
[13:42:07-586]04 48 08 52 08 5c 08 
[13:42:07-586]power in:cfg=4, VA=212(V), VB=213(V), VC=214(V)
[13:42:07-726]feed
[13:42:07-726]device:9100334 csq:0 net:1 server:1, relay:1
[13:42:07-929]scan sensors driver
[13:42:07-929]Rw:  len=8, data=01 03 00 14 00 04 04 0d 
[13:42:08-226]Rr:  len=1, data=feed
[13:42:08-726]feed
[13:42:08-726]device:9100334 csq:0 net:1 server:1, relay:1
[13:42:08-742]now: 2023-01-13 13:42:05
[13:42:08-929]Update model <DO-Y102>
[13:42:08-945]Rw:  len=8, data=01 06 00 0a 00 00 a9 c8 
[13:42:09-226]Rr:  len=1, data=feed
[13:42:09-726]feed
[13:42:09-742]device:9100334 csq:0 net:1 server:1, relay:1
[13:42:10-242]feed
[13:42:10-742]feed
[13:42:10-742]device:9100334 csq:0 net:1 server:1, relay:1
[13:42:10-961]Rw:  len=8, data=02 03 00 14 00 04 04 3e 
[13:42:11-242]Rr:  len=1, data=feed
[13:42:11-742]feed
[13:42:11-742]device:9100334 csq:0 net:1 server:1, relay:1
[13:42:11-742]now: 2023-01-13 13:42:08
[13:42:11-961]Update model <PH-201>
[13:42:12-242]feed
[13:42:12-383]Pr:  len=13, data=00 8a dc 2e 03 40 00 00 02 00 00 01 00 
[13:42:12-383]Pr:  len=2, data=86 11 
[13:42:12-398]Pw:  len=42, data=00 8a dc 2e 03 40 00 00 02 d0 00 01 1b 01 00 00 01 00 00 59 2d 35 31 35 00 00 00 00 00 04 5a 00 8a dc 2e 00 00 00 00 00 1c 1c 
[13:42:12-398]
[13:42:12-742]feed
[13:42:12-742]device:9100334 csq:0 net:1 server:1, relay:1
[13:42:12-976]indicators_values[1].sensor = NULL
[13:42:12-976]indicators_values[2].sensor = NULL
[13:42:12-976]air blow: err: 1, rst: 1, status: -2
[13:42:12-976]Rw:  len=8, data=fb 03 00 00 00 0a d1 97 
[13:42:13-242]Rr:  len=1, data=feed
[13:42:13-242]CSQ: 6
[13:42:13-758]feed
[13:42:13-758]device:9100334 csq:6 net:1 server:1, relay:1
[13:42:14-258]feed
[13:42:14-758]feed
[13:42:14-758]device:9100334 csq:6 net:1 server:1, relay:1
[13:42:14-758]now: 2023-01-13 13:42:11
[13:42:14-992]air blow: err: 2, rst: 1, status: -2
[13:42:14-992]Rw:  len=8, data=fb 03 00 00 00 0a d1 97 
[13:42:15-258]Rr:  len=1, data=feed
[13:42:15-758]feed
[13:42:15-758]device:9100334 csq:6 net:1 server:1, relay:1
[13:42:16-258]feed
[13:42:16-758]feed
[13:42:16-758]device:9100334 csq:6 net:1 server:1, relay:1
[13:42:17-008]air blow: err: 3, rst: 1, status: -2
[13:42:17-008]Rw:  len=8, data=fb 03 00 00 00 0a d1 97 
[13:42:17-258]Rr:  len=1, data=feed
[13:42:17-398]Pr:  len=13, data=00 8a dc 2e 03 40 00 00 07 00 00 01 01 
[13:42:17-414]Pr:  len=1, data=01 
[13:42:17-414]Pr:  len=2, data=50 a7 
[13:42:17-414]Pw:  len=18, data=00 8a dc 2e 03 40 00 00 07 d0 00 01 03 01 00 00 ad cf 
[13:42:17-414]
[13:42:17-773]feed
[13:42:17-773]device:9100334 csq:6 net:1 server:1, relay:1
[13:42:17-773]now: 2023-01-13 13:42:14
[13:42:18-273]feed
[13:42:18-773]feed
[13:42:18-773]device:9100334 csq:6 net:1 server:1, relay:1
[13:42:19-023]air blow: err: 4, rst: 1, status: -2
[13:42:19-023]Rw:  len=8, data=fb 03 00 00 00 0a d1 97 
[13:42:19-273]Rr:  len=1, data=feed
[13:42:19-773]feed
[13:42:19-773]device:9100334 csq:6 net:1 server:1, relay:1
[13:42:20-273]feed
[13:42:20-773]feed
[13:42:20-789]device:9100334 csq:6 net:1 server:1, relay:1
[13:42:20-789]now: 2023-01-13 13:42:17
[13:42:21-039]air blow: err: 5, rst: 1, status: -2
[13:42:21-055]Rw:  len=8, data=fb 03 00 00 00 0a d1 97 
[13:42:21-289]Rr:  len=1, data=feed
[13:42:21-789]feed
[13:42:21-789]device:9100334 csq:6 net:1 server:1, relay:1
[13:42:22-289]feed
[13:42:22-789]feed
[13:42:22-789]device:9100334 csq:6 net:1 server:1, relay:1
[13:42:23-055]air blow: err: 6, rst: 1, status: -2
[13:42:23-070]Rw:  len=8, data=fb 03 00 00 00 0a d1 97 
[13:42:23-289]Rr:  len=1, data=feed
[13:42:23-789]feed
[13:42:23-789]device:9100334 csq:6 net:1 server:1, relay:1
[13:42:23-789]now: 2023-01-13 13:42:20
[13:42:24-289]feed
[13:42:24-789]feed
[13:42:24-805]device:9100334 csq:6 net:1 server:1, relay:1
[13:42:25-086]air blow: err: 7, rst: 1, status: -2
[13:42:25-086]Rw:  len=8, data=fb 03 00 00 00 0a d1 97 
[13:42:25-305]Rr:  len=1, data=feed
[13:42:25-805]feed
[13:42:25-805]device:9100334 csq:6 net:1 server:1, relay:1
[13:42:26-305]feed
[13:42:26-336]CSQ: 6
[13:42:26-805]feed
[13:42:26-805]device:9100334 csq:6 net:1 server:1, relay:1
[13:42:26-805]now: 2023-01-13 13:42:23
[13:42:27-102]air blow: err: 8, rst: 1, status: -2
[13:42:27-102]Rw:  len=8, data=fb 03 00 00 00 0a d1 97 
[13:42:27-305]Rr:  len=1, data=feed
[13:42:27-805]feed
[13:42:27-805]device:9100334 csq:6 net:1 server:1, relay:1
[13:42:28-305]feed
[13:42:28-805]feed
[13:42:28-820]device:9100334 csq:6 net:1 server:1, relay:1
[13:42:29-117]air blow: err: 9, rst: 1, status: -2
[13:42:29-117]Rw:  len=8, data=fb 03 00 00 00 0a d1 97 
[13:42:29-320]Rr:  len=1, data=feed
[13:42:29-820]feed
[13:42:29-820]device:9100334 csq:6 net:1 server:1, relay:1
[13:42:29-820]now: 2023-01-13 13:42:26
[13:42:30-320]feed
[13:42:30-820]feed
[13:42:30-820]device:9100334 csq:6 net:1 server:1, relay:1
[13:42:31-320]feed
[13:42:31-820]feed
[13:42:31-820]device:9100334 csq:6 net:1 server:1, relay:1
[13:42:32-320]feed
[13:42:32-820]feed
[13:42:32-836]device:9100334 csq:6 net:1 server:1, relay:1
[13:42:32-836]now: 2023-01-13 13:42:29
[13:42:33-336]feed
[13:42:33-836]feed
[13:42:33-836]device:9100334 csq:6 net:1 server:1, relay:1
[13:42:34-336]feed
[13:42:34-836]feed
[13:42:34-836]device:9100334 csq:6 net:1 server:1, relay:1
[13:42:35-336]feed
[13:42:35-836]feed
[13:42:35-836]device:9100334 csq:6 net:1 server:1, relay:1
[13:42:35-852]now: 2023-01-13 13:42:32
[13:42:36-133]air blow: err: 0, rst: 2, status: -1
[13:42:36-133]Rw:  len=8, data=fb 03 00 00 00 0a d1 97 
[13:42:36-336]Rr:  len=1, data=feed
[13:42:36-836]feed
[13:42:36-852]device:9100334 csq:6 net:1 server:1, relay:1
[13:42:37-352]feed
[13:42:37-586]<Recv>:
[13:42:37-586]id = 18f61111, dlc = 7
[13:42:37-586]04 48 08 52 08 52 08 
[13:42:37-586]power in:cfg=4, VA=212(V), VB=213(V), VC=213(V)
[13:42:37-852]feed
[13:42:37-852]device:9100334 csq:6 net:1 server:1, relay:1
[13:42:38-149]air blow: err: 1, rst: 2, status: -2
[13:42:38-149]Rw:  len=8, data=fb 03 00 00 00 0a d1 97 
[13:42:38-352]Rr:  len=1, data=feed
[13:42:38-852]feed
[13:42:38-852]device:9100334 csq:6 net:1 server:1, relay:1
[13:42:38-852]now: 2023-01-13 13:42:35
[13:42:39-352]feed
[13:42:39-414]CSQ: 6
[13:42:39-852]feed
[13:42:39-852]device:9100334 csq:6 net:1 server:1, relay:1
[13:42:40-164]air blow: err: 2, rst: 2, status: -2
[13:42:40-164]Rw:  len=8, data=fb 03 00 00 00 0a d1 97 
[13:42:40-352]Rr:  len=1, data=feed
[13:42:40-867]feed
[13:42:40-867]device:9100334 csq:6 net:1 server:1, relay:1
[13:42:41-367]feed
[13:42:41-867]feed
[13:42:41-867]device:9100334 csq:6 net:1 server:1, relay:1
[13:42:41-867]now: 2023-01-13 13:42:38
[13:42:42-180]air blow: err: 3, rst: 2, status: -2
[13:42:42-180]Rw:  len=8, data=fb 03 00 00 00 0a d1 97 
[13:42:42-320]Rr:  len=1, data=Pr:  len=13, data=00 8a dc 2e 16 40 00 01 0b 00 00 01 06 
[13:42:42-320]Pr:  len=6, data=01 20 00 01 00 14 
[13:42:42-336]Pr:  len=2, data=52 2c 
[13:42:42-336]eeprom write: 1578 page
[13:42:42-336]01 01 01 17 01 0d 0d 2a 26 17 01 0d 0e 02 26 00 00 00 00 00 00 00 00 00 00 00 00 00 00 00 28 e3 
[13:42:42-352]Pw:  len=15, data=00 8a dc 2e 16 40 00 01 0b d0 00 01 00 91 91 
[13:42:42-352]
[13:42:42-367]feed
[13:42:42-867]feed
[13:42:42-867]device:9100334 csq:6 net:1 server:1, relay:1
[13:42:42-867]set_ch <3> = ON
[13:42:42-867]<USend>:
[13:42:42-883]id = 0c501101, dlc = 7
[13:42:42-883]03 01 03 00 00 00 00 
[13:42:42-899]<Recv>:
[13:42:42-899]id = 18e80111, dlc = 4
[13:42:42-899]50 00 00 00 
[13:42:42-899]dev_respon:PGN=5000,status=0
[13:42:43-086]<Recv>:
[13:42:43-086]id = 18f51111, dlc = 6
[13:42:43-086]01 00 02 00 00 00 
[13:42:43-102]dev_relay:ch=1, os=0, ks=2, err=0, cur=0(mA)
[13:42:43-102]<Recv>:
[13:42:43-102]id = 18f51111, dlc = 6
[13:42:43-102]02 00 02 00 00 00 
[13:42:43-102]dev_relay:ch=2, os=0, ks=2, err=0, cur=0(mA)
[13:42:43-102]<Recv>:
[13:42:43-102]id = 18f51111, dlc = 6
[13:42:43-102]03 00 02 00 00 00 
[13:42:43-117]dev_relay:ch=3, os=0, ks=2, err=0, cur=0(mA)
[13:42:43-117]<Recv>:
[13:42:43-117]id = 18f51111, dlc = 6
[13:42:43-117]04 00 02 00 01 00 
[13:42:43-117]deh=4, os=0, ks=2, err=0, cur=10(mA)
[13:42:43-117]<Recv>:
[13:42:43-133]id = 18f51111, dlc = 6
[13:42:43-133]05 00 02 00 01 00 
[13:42:43-133]dev_relay:ch=5, os=0, ks=2, err=0, cur=10(mA)
[13:42:43-367]feed
[13:42:43-867]feed
[13:42:43-867]device:9100334 csq:6 net:1 server:1, relay:1
[13:42:44-195]air blow: err: 4, rst: 2, status: -2
[13:42:44-195]Rw:  len=8, data=fb 03 00 00 00 0a d1 97 
[13:42:44-367]Rr:  len=1, data=feed
[13:42:44-883]feed
[13:42:44-883]device:9100334 csq:6 net:1 server:1, relay:1
[13:42:45-383]feed
[13:42:45-883]feed
[13:42:45-883]device:9100334 csq:6 net:1 server:1, relay:1
[13:42:45-977]now: 2023-01-13 13:42:42
[13:42:45-977]get_ch <3> = OFF
[13:42:46-211]air blow: err: 5, rst: 2, status: -2
[13:42:46-211]Rw:  len=8, data=fb 03 00 00 00 0a d1 97 
[13:42:46-383]Rr:  len=1, data=feed
[13:42:46-461]Pr:  len=13, data=00 8a dc 2e 16 40 00 02 0b 00 00 01 06 
[13:42:46-461]Pr:  len=6, data=01 20 00 00 00 14 
[13:42:46-461]Pr:  len=2, data=07 e8 
[13:42:46-461]eeprom write: 1578 page
[13:42:46-477]01 01 00 17 01 0d 0d 2a 2b 17 01 0d 0e 02 2b 00 00 00 00 00 00 00 00 00 00 00 00 00 00 00 f3 6f 
[13:42:46-492]Pw:  len=15, data=00 8a dc 2e 16 40 00 02 0b d0 00 01 00 91 a2 
[13:42:46-492]
[13:42:46-883]feed
[13:42:46-883]device:9100334 csq:6 net:1 server:1, relay:1
[13:42:47-383]feed
[13:42:47-742]<Recv>:
[13:42:47-742]id = 18f51111, dlc = 6
[13:42:47-742]01 00 02 00 00 00 
[13:42:47-742]dev_relay:ch=1, os=0, ks=2, err=0, cur=0(mA)
[13:42:47-742]<Recv>:
[13:42:47-742]id = 18f51111, dlc = 6
[13:42:47-742]02 00 02 00 00 00 
[13:42:47-742]dev_relay:ch=2, os=0, ks=2, err=0, cur=0(mA)
[13:42:47-742]<Recv>:
[13:42:47-758]id = 18f51111, dlc = 6
[13:42:47-758]03 00 02 00 00 00 
[13:42:47-758]dev_relay:ch=3, os=0, ks=2, err=0, cur=0(mA)
[13:42:47-758]<Recv>:
[13:42:47-774]id = 18f51111, dlc = 6
[13:42:47-774]04 00 02 00 01 00 
[13:42:47-774]dev_relay:ch=4, os=0, ks=2, err=0, cur=10(mA)
[13:42:47-774]<Recv>:
[13:42:47-774]id = 18f51111, dlc = 6
[13:42:47-774]05 00 02 00 01 00 
[13:42:47-789]dev_relay:ch=5, os=0, ks=2, err=0, cur=10(mA)
[13:42:47-883]feed
[13:42:47-899]device:9100334 csq:6 net:1 server:1, relay:1
[13:42:48-133]<Recv>:
[13:42:48-149]id = 18f00111, dlc = 8
[13:42:48-149]01 00 00 00 01 00 00 00 
[13:42:48-149]relay_H: 1.0.0.0        relay_F: 1.0.0.0
[13:42:48-227]air blow: err: 6, rst: 2, status: -2
[13:42:48-242]Rw:  len=8, data=fb 03 00 00 00 0a d1 97 
[13:42:48-242]Rr:  len=1, data=<Recv>:
[13:42:48-242]id = 18f00211, dlc = 8
[13:42:48-258]52 45 4c 41 59 00 00 00 
[13:42:48-258]relay_PN: RELAY
[13:42:48-352]<Recv>:
[13:42:48-352]id = 18f00311, dlc = 7
[13:42:48-352]59 04 00 00 00 00 00 
[13:42:48-352]relay_SN: 1113000000000
[13:42:48-399]feed
[13:42:48-899]feed
[13:42:48-899]device:9100334 csq:6 net:1 server:1, relay:1
[13:42:48-992]now: 2023-01-13 13:42:45
[13:42:49-399]feed
[13:42:49-899]feed
[13:42:49-899]device:9100334 csq:6 net:1 server:1, relay:1
[13:42:50-258]air blow: err: 7, rst: 2, status: -2
[13:42:50-258]Rw:  len=8, data=fb 03 00 00 00 0a d1 97 
[13:42:50-399]Rr:  len=1, data=feed
[13:42:50-899]feed
[13:42:50-899]device:9100334 csq:6 net:1 server:1, relay:1
[13:42:51-399]feed
[13:42:51-899]feed
[13:42:51-914]device:9100334 csq:6 net:1 server:1, relay:1
[13:42:51-992]now: 2023-01-13 13:42:48
[13:42:52-274]air blow: err: 8, rst: 2, status: -2
[13:42:52-321]Rw:  len=8, data=fb 03 00 00 00 0a d1 97 
[13:42:52-321]Rr:  len=1, data=CSQ: 6
[13:42:52-414]feed
[13:42:52-914]feed
[13:42:52-914]device:9100334 csq:6 net:1 server:1, relay:1
[13:42:53-414]feed
[13:42:53-461]<Recv>:
[13:42:53-461]id = 18f51111, dlc = 6
[13:42:53-461]01 00 02 00 00 00 
[13:42:53-461]dev_relay:ch=1, os=0, ks=2, err=0, cur=0(mA)
[13:42:53-477]<Recv>:
[13:42:53-477]id = 18f51111, dlc = 6
[13:42:53-477]02 00 02 00 00 00 
[13:42:53-492]dev_relay:ch=2, os=0, ks=2, err=0, cur=0(mA)
[13:42:53-492]<Recv>:
[13:42:53-492]id = 18f51111, dlc = 6
[13:42:53-492]03 01 01 00 00 00 
[13:42:53-492]dev_relay:ch=3, os=1, ks=1, err=0, cur=0(mA)
[13:42:53-492]<Recv>:
[13:42:53-492]id = 18f51111, dlc = 6
[13:42:53-492]04 00 02 00 01 00 
[13:42:53-508]dev_relay:ch=4, os=0, ks=2, err=0, cur=10(mA)
[13:42:53-508]<Recv>:
[13:42:53-508]id = 18f51111, dlc = 6
[13:42:53-508]05 00 02 00 01 00 
[13:42:53-508]dev_relay:ch=5, os=0, ks=2, err=0, cur=10(mA)
[13:42:53-914]feed
[13:42:53-914]device:9100334 csq:6 net:1 server:1, relay:1
[13:42:53-992]key<3> press
[13:42:53-992]get_ch <3> = ON
[13:42:53-992]<Recv>:
[13:42:53-992]id = 18f51111, dlc = 6
[13:42:53-992]01 00 02 00 00 00 
[13:42:53-992]dev_relay:ch=1, os=0, ks=2, err=0, cur=0(mA)
[13:42:53-992]<Recv>:
[13:42:54-008]id = 18f51111, dlc = 6
[13:42:54-008]02 00 02 00 00 00 
[13:42:54-008]dev_relay:ch=2, os=0, ks=2, err=0, cur=0(mA)
[13:42:54-008]<Recv>:
[13:42:54-024]id = 18f51111, dlc = 6
[13:42:54-024]03 01 01 00 9d 00 
[13:42:54-024]dev_relay:ch=3, os=1, ks=1, err=0, cur=1570(mA)
[13:42:54-024]<Recv>:
[13:42:54-024]id = 18f51111, dlc = 6
[13:42:54-024]04 00 02 00 01 00 
[13:42:54-039]dev_relay:ch=4, os=0, ks=2, err=0, cur=10(mA)
[13:42:54-039]<Recv>:
[13:42:54-039]id = 18f51111, dlc = 6
[13:42:54-039]05 00 02 00 01 00 
[13:42:54-039]dev_relay:ch=5, os=0, ks=2, err=0, cur=10(mA)
[13:42:54-289]air blow: err: 9, rst: 2, status: -2
[13:42:54-289]Rw:  len=8, data=fb 03 00 00 00 0a d1 97 
[13:42:54-414]Rr:  len=1, data=feed
[13:42:54-914]feed
[13:42:54-914]device:9100334 csq:6 net:1 server:1, relay:1
[13:42:54-992]now: 2023-01-13 13:42:51
[13:42:54-992]relay_output_status ON
[13:42:55-414]feed
[13:42:55-914]feed
[13:42:55-930]device:9100334 csq:6 net:1 server:1, relay:1
[13:42:56-430]feed
[13:42:56-930]feed
[13:42:56-930]device:9100334 csq:6 net:1 server:1, relay:1
[13:42:57-430]feed
[13:42:57-930]feed
[13:42:57-930]device:9100334 csq:6 net:1 server:1, relay:1
[13:42:57-992]now: 2023-01-13 13:42:54
[13:42:58-430]feed
[13:42:58-930]feed
[13:42:58-930]device:9100334 csq:6 net:1 server:1, relay:1
[13:42:59-430]feed
[13:42:59-930]feed
[13:42:59-946]device:9100334 csq:6 net:1 server:1, relay:1
[13:43:00-446]feed
[13:43:00-946]feed
[13:43:00-946]device:9100334 csq:6 net:1 server:1, relay:1
[13:43:00-992]now: 2023-01-13 13:42:57
[13:43:01-305]air blow: err: 0, rst: 3, status: -1
[13:43:01-305]Rw:  len=8, data=fb 03 00 00 00 0a d1 97 
[13:43:01-446]Rr:  len=1, data=feed
[13:43:01-946]feed
[13:43:01-946]device:9100334 csq:6 net:1 server:1, relay:1
[13:43:02-446]feed
[13:43:02-946]feed
[13:43:02-946]device:9100334 csq:6 net:1 server:1, relay:1
[13:43:03-321]air blow: err: 1, rst: 3, status: -2
[13:43:03-321]Rw:  len=8, data=fb 03 00 00 00 0a d1 97 
[13:43:03-446]Rr:  len=1, data=feed
[13:43:03-946]feed
[13:43:03-961]device:9100334 csq:6 net:1 server:1, relay:1
[13:43:03-992]now: 2023-01-13 13:43:00
[13:43:04-461]feed
[13:43:04-961]feed
[13:43:04-961]device:9100334 csq:6 net:1 server:1, relay:1
[13:43:05-336]air blow: err: 2, rst: 3, status: -2
[13:43:05-336]Rw:  len=8, data=fb 03 00 00 00 0a d1 97 
[13:43:05-352]Rr:  len=1, data=CSQ: 6
[13:43:05-461]feed
[13:43:05-727]<Recv>:
[13:43:05-727]id = 18f51111, dlc = 6
[13:43:05-727]01 00 02 00 00 00 
[13:43:05-742]dev_relay:ch=1, os=0, ks=2, err=0, cur=0(mA)
[13:43:05-742]<Recv>:
[13:43:05-742]id = 18f51111, dlc = 6
[13:43:05-742]02 00 02 00 00 00 
[13:43:05-742]dev_relay:ch=2, os=0, ks=2, err=0, cur=0(mA)
[13:43:05-742]<Recv>:
[13:43:05-742]id = 18f51111, dlc = 6
[13:43:05-742]03 00 02 00 16 01 
[13:43:05-758]dev_relay:ch=3, os=0, ks=2, err=0, cur=2780(mA)
[13:43:05-758]<Recv>:
[13:43:05-758]id = 18f51111, dlc = 6
[13:43:05-758]04 00 02 00 03 00 
[13:43:05-758]dev_relay:ch=4, os=0, ks=2, err=0, cur=30(mA)
[13:43:05-758]<Recv>:
[13:43:05-774]id = 18f51111, dlc = 6
[13:43:05-774]05 00 02 00 01 00 
[13:43:05-774]dev_relay:ch=5, os=0, ks=2, err=0, cur=10(mA)
[13:43:05-961]feed
[13:43:05-961]device:9100334 csq:6 net:1 server:1, relay:1
[13:43:06-008]key<3> release
[13:43:06-008]get_ch <3> = OFF
[13:43:06-461]feed
[13:43:06-961]feed
[13:43:06-961]device:9100334 csq:6 net:1 server:1, relay:1
[13:43:07-008]now: 2023-01-13 13:43:03
[13:43:07-258]<Recv>:
[13:43:07-258]id = 18f51111, dlc = 6
[13:43:07-258]01 00 02 00 00 00 
[13:43:07-274]dev_relay:ch=1, os=0, ks=2, err=0, cur=0(mA)
[13:43:07-274]<Recv>:
[13:43:07-274]id = 18f51111, dlc = 6
[13:43:07-274]02 00 02 00 00 00 
[13:43:07-274]dev_relay:ch=2, os=0, ks=2, err=0, cur=0(mA)
[13:43:07-274]<Recv>:
[13:43:07-274]id = 18f51111, dlc = 6
[13:43:07-274]03 00 02 00 00 00 
[13:43:07-289]dev_relay:ch=3, os=0, ks=2, err=0, cur=0(mA)
[13:43:07-289]<Recv>:
[13:43:07-289]id = 18f51111, dlc = 6
[13:43:07-289]04 00 02 00 01 00 
[13:43:07-289]dev_relay:ch=4, os=0, ks=2, err=0, cur=10(mA)
[13:43:07-289]<Recv>:
[13:43:07-289]id = 18f51111, dlc = 6
[13:43:07-305]05 00 02 00 01 00 
[13:43:07-305]dev_relay:ch=5, os=0, ks=2, err=0, cur=10(mA)
[13:43:07-352]air blow: err: 3, rst: 3, status: -2
[13:43:07-352]Rw:  len=8, data=fb 03 00 00 00 0a d1 97 
[13:43:07-461]Rr:  len=1, data=feed
[13:43:07-977]feed
[13:43:07-977]device:9100334 csq:6 net:1 server:1, relay:1
[13:43:08-008]relay_output_status OFF
[13:43:08-477]feed
[13:43:08-977]feed
[13:43:08-977]device:9100334 csq:6 net:1 server:1, relay:1
[13:43:09-368]air blow: err: 4, rst: 3, status: -2
[13:43:09-368]Rw:  len=8, data=fb 03 00 00 00 0a d1 97 
[13:43:09-477]Rr:  len=1, data=feed
[13:43:09-977]feed
[13:43:09-977]device:9100334 csq:6 net:1 server:1, relay:1
[13:43:10-008]now: 2023-01-13 13:43:06
[13:43:10-477]feed
[13:43:10-977]feed
[13:43:10-993]device:9100334 csq:6 net:1 server:1, relay:1
[13:43:11-383]air blow: err: 5, rst: 3, status: -2
[13:43:11-383]Rw:  len=8, data=fb 03 00 00 00 0a d1 97 
[13:43:11-477]Rr:  len=1, data=feed
[13:43:11-993]feed
[13:43:11-993]device:9100334 csq:6 net:1 server:1, relay:1
[13:43:12-493]feed
[13:43:12-993]feed
[13:43:12-993]device:9100334 csq:6 net:1 server:1, relay:1
[13:43:13-008]now: 2023-01-13 13:43:09
[13:43:13-289]<Recv>:
[13:43:13-289]id = 18f61111, dlc = 7
[13:43:13-289]04 48 08 52 08 52 08 
[13:43:13-289]power in:cfg=4, VA=212(V), VB=213(V), VC=213(V)
[13:43:13-399]air blow: err: 6, rst: 3, status: -2
[13:43:13-414]Rw:  len=8, data=fb 03 00 00 00 0a d1 97 
[13:43:13-493]Rr:  len=1, data=feed
[13:43:13-993]feed
[13:43:13-993]device:9100334 csq:6 net:1 server:1, relay:1
[13:43:14-493]feed
[13:43:14-993]feed
[13:43:15-008]device:9100334 csq:6 net:1 server:1, relay:1
[13:43:15-414]air blow: err: 7, rst: 3, status: -2
[13:43:15-430]Rw:  len=8, data=fb 03 00 00 00 0a d1 97 
[13:43:15-508]Rr:  len=1, data=feed
[13:43:15-789]Pr:  len=13, data=00 8a dc 2e 16 40 00 03 20 00 00 01 00 
[13:43:15-805]Pr:  len=2, data=8c b5 
[13:43:15-805]Pw:  len=15, data=00 8a dc 2e 16 40 00 03 20 d0 00 01 00 b4 75 
[13:43:15-805]
[13:43:15-805]eeprom write: 10 page
[13:43:15-821]03 00 00 00 00 00 00 00 00 00 00 00 00 00 00 00 00 00 00 00 00 00 00 00 00 00 00 00 00 00 fd bf 
[13:43:16-008]feed
[13:43:16-008]device:9100334 csq:0 net:0 server:0, relay:1
[13:43:16-008]now: 2023-01-13 13:43:12
[13:43:16-321]<USend>:
[13:43:16-321]id = 0c011101, dlc = 0
[13:43:16-321]
[13:43:16-508]feed
[13:43:17-008]feed
[13:43:17-008]device:9100334 csq:0 net:0 server:0, relay:1
[13:43:17-446]air blow: err: 8, rst: 3, status: -2
[13:43:17-446]Rw:  len=8, data=fb 03 00 00 00 0a d1 97 
[13:43:17-508]Rr:  len=1, data=feed
[13:43:18-008]feed
[13:43:18-024]device:9100334 csq:0 net:0 server:0, relay:1
[13:43:18-524]feed
[13:43:19-024]feed
[13:43:19-024]device:9100334 csq:0 net:0 server:0, relay:1
[13:43:19-461]air blow: err: 9, rst: 3, status: -2
[13:43:19-477]Rw:  len=8, data=fb 03 00 00 00 0a d1 97 
[13:43:19-524]Rr:  len=1, data=feed
[13:43:20-040]feed
[13:43:20-040]device:9100334 csq:0 net:0 server:0, relay:1
[13:43:20-540]feed
[13:43:21-040]feed
[13:43:21-040]device:9100334 csq:0 net:0 server:0, relay:1
[13:43:21-321]feed
[13:43:21-336]Log level: TRACE
[13:43:21-336]<Jan  5 2023-17:59:57> boot file <BOOT_V1.0.0> at 08000400
[13:43:21-336]APP file exist
[13:43:21-336]Factory file exist
[13:43:21-336]BOOT_V1.0.0
[13:43:21-336]eeprom read: 4094 page
[13:43:21-352]00 00 00 00 00 00 00 00 01 01 00 00 00 00 02 00 ff ff ff ff 00 00 00 00 00 00 00 00 00 00 70 30 
[13:43:21-352]eeprom read: 4095 page
[13:43:21-352]00 00 00 00 00 00 00 00 01 02 00 01 00 00 02 00 ff ff ff ff 00 00 00 00 00 00 00 00 00 00 7e ff 
[13:43:21-368]waiting for check app info ... ...
[13:43:21-383]PN_CODE:Y-515
[13:43:21-383][ERROR:24]:download data not finish
[13:43:21-383]Ready Jump to App,AppAddress:8010000
[13:43:21-414]Log level: NONE
[13:43:21-414]
[13:43:21-414] _______   _____    _____ 
[13:43:21-414]|__  /\ \ / /_ _|__|_   _|
[13:43:21-414]  / /  \ V / | |/ _ \| |
[13:43:21-414] / /_   | |  | | (_) | |
[13:43:21-430]/____|  |_| |___\___/|_|
[13:43:21-430]
[13:43:21-430]http://www.zytdwl.cn
[13:43:21-430]
[13:43:21-430]3G online device <Y-515_APP_V1.0.0> at 08010400
[13:43:21-430]compiler at <Jan 10 2023-17:18:15>
[13:43:21-446]eeprom read: 8 page
[13:43:21-461]2e dc 8a 00 00 00 00 00 00 01 00 00 00 00 00 00 00 00 00 00 00 00 00 00 00 00 00 00 00 00 b0 fa 
[13:43:21-461]system load rc: 0
[13:43:21-461]eeprom read: 9 page
[13:43:21-477]01 00 00 00 00 00 00 00 00 00 00 00 00 00 00 00 00 00 00 00 00 00 00 00 00 00 00 00 00 00 ff 1f 
[13:43:21-477]device_enable load rc: 0
[13:43:21-477]eeprom read: 10 page
[13:43:21-493]03 00 00 00 00 00 00 00 00 00 00 00 00 00 00 00 00 00 00 00 00 00 00 00 00 00 00 00 00 00 fd bf 
[13:43:21-493]device_connect load rc: 0
[13:43:21-493]eeprom read: 32 page
[13:43:21-508]00 00 00 00 00 00 00 00 00 00 00 00 00 00 00 00 00 00 00 00 00 00 00 00 00 00 00 00 00 00 fe 4f 
[13:43:21-508]probe_enable load rc: 0
[13:43:21-508]eeprom read: 40 page
[13:43:21-524]00 00 00 00 00 00 00 00 00 00 00 00 00 00 00 00 00 00 00 00 00 00 00 00 00 00 00 00 00 00 fe 4f 
[13:43:21-524]pump_status load rc: 0
[13:43:21-524]eeprom read: 56 page
[13:43:21-540]01 01 00 00 02 00 00 00 00 00 00 00 00 00 00 00 00 00 00 00 00 00 00 00 00 00 00 00 00 00 cc a1 
[13:43:21-540]eeprom read: 57 page
[13:43:21-555]01 01 00 00 02 00 00 00 00 00 00 00 00 00 00 00 00 00 00 00 00 00 00 00 00 00 00 00 00 00 cc a1 
[13:43:21-555]eeprom read: 58 page
[13:43:21-555]01 01 00 00 01 00 00 00 00 00 00 00 00 00 00 00 00 00 00 00 00 00 00 00 00 00 00 00 00 00 c7 e1 
[13:43:21-555]sensor load rc: 0
[13:43:21-555]eeprom read: 312 page
[13:43:21-571]00 00 00 00 00 00 00 00 00 00 00 00 00 00 00 00 00 00 00 00 00 00 00 00 00 00 00 00 00 00 fe 4f 
[13:43:21-571]eeprom read: 313 page
[13:43:21-586]00 00 00 00 00 00 00 00 00 00 00 00 00 00 00 00 00 00 00 00 00 00 00 00 00 00 00 00 00 00 fe 4f 
[13:43:21-586]eeprom read: 314 page
[13:43:21-602]00 00 00 00 00 00 00 00 00 00 00 00 00 00 00 00 00 00 00 00 00 00 00 00 00 00 00 00 00 00 fe 4f 
[13:43:21-602]eeprom read: 315 page
[13:43:21-618]00 00 00 00 00 00 00 00 00 00 00 00 00 00 00 00 00 00 00 00 00 00 00 00 00 00 00 00 00 00 fe 4f 
[13:43:21-618]eeprom read: 316 page
[13:43:21-633]00 00 00 00 00 00 00 00 00 00 00 00 00 00 00 00 00 00 00 00 00 00 00 00 00 00 00 00 00 00 fe 4f 
[13:43:21-633]eeprom read: 317 page
[13:43:21-633]00 00 00 00 00 00 00 00 00 00 00 00 00 00 00 00 00 00 00 00 00 00 00 00 00 00 00 00 00 00 fe 4f 
[13:43:21-633]eeprom read: 318 page
[13:43:21-649]00 00 00 00 00 00 00 00 00 00 00 00 00 00 00 00 00 00 00 00 00 00 00 00 00 00 00 00 00 00 fe 4f 
[13:43:21-649]eeprom read: 319 page
[13:43:21-649]00 00 00 00 00 00 00 00 00 00 00 00 00 00 00 00 00 00 00 00 00 00 00 00 00 00 00 00 00 00 fe 4f 
[13:43:21-664]compensation load rc: 0
[13:43:21-664]eeprom read: 448 page
[13:43:21-680]00 00 00 00 00 00 00 00 00 00 00 00 00 00 00 00 00 00 00 00 00 00 00 00 00 00 00 00 00 00 fe 4f 
[13:43:21-680]eeprom read: 449 page
[13:43:21-696]00 00 00 00 00 00 00 00 00 00 00 00 00 00 00 00 00 00 00 00 00 00 00 00 00 00 00 00 00 00 fe 4f 
[13:43:21-696]eeprom read: 450 page
[13:43:21-711]00 00 00 00 00 00 00 00 00 00 00 00 00 00 00 00 00 00 00 00 00 00 00 00 00 00 00 00 00 00 fe 4f 
[13:43:21-711]eeprom read: 451 page
[13:43:21-727]00 00 00 00 00 00 00 00 00 00 00 00 00 00 00 00 00 00 00 00 00 00 00 00 00 00 00 00 00 00 fe 4f 
[13:43:21-727]eeprom read: 452 page
[13:43:21-727]00 00 00 00 00 00 00 00 00 00 00 00 00 00 00 00 00 00 00 00 00 00 00 00 00 00 00 00 00 00 fe 4f 
[13:43:21-727]eeprom read: 453 page
[13:43:21-743]00 00 00 00 00 00 00 00 00 00 00 00 00 00 00 00 00 00 00 00 00 00 00 00 00 00 00 00 00 00 fe 4f 
[13:43:21-743]eeprom read: 454 page
[13:43:21-758]00 00 00 00 00 00 00 00 00 00 00 00 00 00 00 00 00 00 00 00 00 00 00 00 00 00 00 00 00 00 fe 4f 
[13:43:21-758]eeprom read: 455 page
[13:43:21-774]00 00 00 00 00 00 00 00 00 00 00 00 00 00 00 00 00 00 00 00 00 00 00 00 00 00 00 00 00 00 fe 4f 
[13:43:21-774]indicator_alert load rc: 0
[13:43:21-774]eeprom read: 704 page
[13:43:21-789]00 00 00 00 00 00 00 00 00 00 00 00 00 00 00 00 00 00 00 00 00 00 00 00 00 00 00 00 00 00 fe 4f 
[13:43:21-789]eeprom read: 705 page
[13:43:21-805]00 00 00 00 00 00 00 00 00 00 00 00 00 00 00 00 00 00 00 00 00 00 00 00 00 00 00 00 00 00 fe 4f 
[13:43:21-805]eeprom read: 706 page
[13:43:21-821]00 00 00 00 00 00 00 00 00 00 00 00 00 00 00 00 00 00 00 00 00 00 00 00 00 00 00 00 00 00 fe 4f 
[13:43:21-821]eeprom read: 707 page
[13:43:21-821]00 00 00 00 00 00 00 00 00 00 00 00 00 00 00 00 00 00 00 00 00 00 00 00 00 00 00 00 00 00 fe 4f 
[13:43:21-821]eeprom read: 708 page
[13:43:21-836]00 00 00 00 00 00 00 00 00 00 00 00 00 00 00 00 00 00 00 00 00 00 00 00 00 00 00 00 00 00 fe 4f 
[13:43:21-836]eeprom read: 709 page
[13:43:21-852]00 00 00 00 00 00 00 00 00 00 00 00 00 00 00 00 00 00 00 00 00 00 00 00 00 00 00 00 00 00 fe 4f 
[13:43:21-852]eeprom read: 710 page
[13:43:21-868]00 00 00 00 00 00 00 00 00 00 00 00 00 00 00 00 00 00 00 00 00 00 00 00 00 00 00 00 00 00 fe 4f 
[13:43:21-868]eeprom read: 711 page
[13:43:21-883]00 00 00 00 00 00 00 00 00 00 00 00 00 00 00 00 00 00 00 00 00 00 00 00 00 00 00 00 00 00 fe 4f 
[13:43:21-883]eeprom read: 712 page
[13:43:21-899]00 00 00 00 00 00 00 00 00 00 00 00 00 00 00 00 00 00 00 00 00 00 00 00 00 00 00 00 00 00 fe 4f 
[13:43:21-899]eeprom read: 713 page
[13:43:21-899]00 00 00 00 00 00 00 00 00 00 00 00 00 00 00 00 00 00 00 00 00 00 00 00 00 00 00 00 00 00 fe 4f 
[13:43:21-899]eeprom read: 714 page
[13:43:21-914]00 00 00 00 00 00 00 00 00 00 00 00 00 00 00 00 00 00 00 00 00 00 00 00 00 00 00 00 00 00 fe 4f 
[13:43:21-914]eeprom read: 715 page
[13:43:21-930]00 00 00 00 00 00 00 00 00 00 00 00 00 00 00 00 00 00 00 00 00 00 00 00 00 00 00 00 00 00 fe 4f 
[13:43:21-930]eeprom read: 716 page
[13:43:21-946]00 00 00 00 00 00 00 00 00 00 00 00 00 00 00 00 00 00 00 00 00 00 00 00 00 00 00 00 00 00 fe 4f 
[13:43:21-946]eeprom read: 717 page
[13:43:21-961]00 00 00 00 00 00 00 00 00 00 00 00 00 00 00 00 00 00 00 00 00 00 00 00 00 00 00 00 00 00 fe 4f 
[13:43:21-961]eeprom read: 718 page
[13:43:21-977]00 00 00 00 00 00 00 00 00 00 00 00 00 00 00 00 00 00 00 00 00 00 00 00 00 00 00 00 00 00 fe 4f 
[13:43:21-977]eeprom read: 719 page
[13:43:21-977]00 00 00 00 00 00 00 00 00 00 00 00 00 00 00 00 00 00 00 00 00 00 00 00 00 00 00 00 00 00 fe 4f 
[13:43:21-977]eeprom read: 720 page
[13:43:21-993]00 00 00 00 00 00 00 00 00 00 00 00 00 00 00 00 00 00 00 00 00 00 00 00 00 00 00 00 00 00 fe 4f 
[13:43:21-993]eeprom read: 721 page
[13:43:22-008]00 00 00 00 00 00 00 00 00 00 00 00 00 00 00 00 00 00 00 00 00 00 00 00 00 00 00 00 00 00 fe 4f 
[13:43:22-008]eeprom read: 722 page
[13:43:22-024]00 00 00 00 00 00 00 00 00 00 00 00 00 00 00 00 00 00 00 00 00 00 00 00 00 00 00 00 00 00 fe 4f 
[13:43:22-024]eeprom read: 723 page
[13:43:22-039]00 00 00 00 00 00 00 00 00 00 00 00 00 00 00 00 00 00 00 00 00 00 00 00 00 00 00 00 00 00 fe 4f 
[13:43:22-039]eeprom read: 724 page
[13:43:22-055]00 00 00 00 00 00 00 00 00 00 00 00 00 00 00 00 00 00 00 00 00 00 00 00 00 00 00 00 00 00 fe 4f 
[13:43:22-055]eeprom read: 725 page
[13:43:22-055]00 00 00 00 00 00 00 00 00 00 00 00 00 00 00 00 00 00 00 00 00 00 00 00 00 00 00 00 00 00 fe 4f 
[13:43:22-055]eeprom read: 726 page
[13:43:22-071]00 00 00 00 00 00 00 00 00 00 00 00 00 00 00 00 00 00 00 00 00 00 00 00 00 00 00 00 00 00 fe 4f 
[13:43:22-071]eeprom read: 727 page
[13:43:22-086]00 00 00 00 00 00 00 00 00 00 00 00 00 00 00 00 00 00 00 00 00 00 00 00 00 00 00 00 00 00 fe 4f 
[13:43:22-086]eeprom read: 728 page
[13:43:22-102]00 00 00 00 00 00 00 00 00 00 00 00 00 00 00 00 00 00 00 00 00 00 00 00 00 00 00 00 00 00 fe 4f 
[13:43:22-102]eeprom read: 729 page
[13:43:22-118]00 00 00 00 00 00 00 00 00 00 00 00 00 00 00 00 00 00 00 00 00 00 00 00 00 00 00 00 00 00 fe 4f 
[13:43:22-118]eeprom read: 730 page
[13:43:22-133]00 00 00 00 00 00 00 00 00 00 00 00 00 00 00 00 00 00 00 00 00 00 00 00 00 00 00 00 00 00 fe 4f 
[13:43:22-133]eeprom read: 731 page
[13:43:22-133]00 00 00 00 00 00 00 00 00 00 00 00 00 00 00 00 00 00 00 00 00 00 00 00 00 00 00 00 00 00 fe 4f 
[13:43:22-133]eeprom read: 732 page
[13:43:22-149]00 00 00 00 00 00 00 00 00 00 00 00 00 00 00 00 00 00 00 00 00 00 00 00 00 00 00 00 00 00 fe 4f 
[13:43:22-149]eeprom read: 733 page
[13:43:22-164]00 00 00 00 00 00 00 00 00 00 00 00 00 00 00 00 00 00 00 00 00 00 00 00 00 00 00 00 00 00 fe 4f 
[13:43:22-164]eeprom read: 734 page
[13:43:22-180]00 00 00 00 00 00 00 00 00 00 00 00 00 00 00 00 00 00 00 00 00 00 00 00 00 00 00 00 00 00 fe 4f 
[13:43:22-180]eeprom read: 735 page
[13:43:22-196]00 00 00 00 00 00 00 00 00 00 00 00 00 00 00 00 00 00 00 00 00 00 00 00 00 00 00 00 00 00 fe 4f 
[13:43:22-196]limit load rc: 0
[13:43:22-196]eeprom read: 1496 page
[13:43:22-211]00 00 00 00 00 00 00 00 00 00 00 00 00 00 00 00 00 00 00 00 00 00 00 00 00 00 00 00 00 00 fe 4f 
[13:43:22-211]relay load rc: 0
[13:43:22-211]eeprom read: 1504 page
[13:43:22-227]01 01 00 00 00 00 00 00 00 00 00 00 00 00 00 00 00 00 00 00 00 00 00 00 00 00 00 00 00 00 3f 1e 
[13:43:22-227]times_enable load rc: 0
[13:43:22-227]eeprom read: 1512 page
[13:43:22-243]02 00 f8 00 00 00 00 00 00 00 81 0f 36 10 17 00 00 00 00 00 00 00 00 00 00 00 00 00 00 00 83 09 
[13:43:22-243]eeprom read: 1513 page
[13:43:22-258]00 00 00 00 00 00 00 00 00 00 00 00 00 00 00 00 00 00 00 00 00 00 00 00 00 00 00 00 00 00 fe 4f 
[13:43:22-258]eeprom read: 1514 page
[13:43:22-258]00 00 00 00 00 00 00 00 00 00 00 00 00 00 00 00 00 00 00 00 00 00 00 00 00 00 00 00 00 00 fe 4f 
[13:43:22-258]eeprom read: 1515 page
[13:43:22-274]00 00 00 00 00 00 00 00 00 00 00 00 00 00 00 00 00 00 00 00 00 00 00 00 00 00 00 00 00 00 fe 4f 
[13:43:22-274]eeprom read: 1516 page
[13:43:22-289]00 00 00 00 00 00 00 00 00 00 00 00 00 00 00 00 00 00 00 00 00 00 00 00 00 00 00 00 00 00 fe 4f 
[13:43:22-289]eeprom read: 1517 page
[13:43:22-305]00 00 00 00 00 00 00 00 00 00 00 00 00 00 00 00 00 00 00 00 00 00 00 00 00 00 00 00 00 00 fe 4f 
[13:43:22-305]eeprom read: 1518 page
[13:43:22-321]00 00 00 00 00 00 00 00 00 00 00 00 00 00 00 00 00 00 00 00 00 00 00 00 00 00 00 00 00 00 fe 4f 
[13:43:22-321]eeprom read: 1519 page
[13:43:22-336]00 00 00 00 00 00 00 00 00 00 00 00 00 00 00 00 00 00 00 00 00 00 00 00 00 00 00 00 00 00 fe 4f 
[13:43:22-336]times load rc: 0
[13:43:22-336]eeprom read: 1576 page
[13:43:22-352]01 01 00 17 01 0d 0b 28 13 17 01 0d 0c 00 13 00 00 00 00 00 00 00 00 00 00 00 00 00 00 00 08 12 
[13:43:22-352]eeprom read: 1577 page
[13:43:22-352]01 01 00 17 01 0d 0b 28 1c 17 01 0d 0c 00 1c 00 00 00 00 00 00 00 00 00 00 00 00 00 00 00 f2 a6 
[13:43:22-352]eeprom read: 1578 page
[13:43:22-368]01 01 00 17 01 0d 0d 2a 2b 17 01 0d 0e 02 2b 00 00 00 00 00 00 00 00 00 00 00 00 00 00 00 f3 6f 
[13:43:22-368]eeprom read: 1579 page
[13:43:22-383]01 01 00 17 01 0d 0a 04 1e 17 01 0d 0a 18 1e 00 00 00 00 00 00 00 00 00 00 00 00 00 00 00 28 49 
[13:43:22-383]eeprom read: 1580 page
[13:43:22-399]01 01 00 17 01 0d 0a 05 39 17 01 0d 0a 19 39 00 00 00 00 00 00 00 00 00 00 00 00 00 00 00 fb 53 
[13:43:22-399]manual_relay load rc: 0
[13:43:22-399]eeprom read: 1712 page
[13:43:22-414]00 00 00 00 00 00 00 00 00 00 00 00 00 00 00 00 00 00 00 00 00 00 00 00 00 00 00 00 00 00 fe 4f 
[13:43:22-414]eeprom read: 1713 page
[13:43:22-430]00 00 00 00 00 00 00 00 00 00 00 00 00 00 00 00 00 00 00 00 00 00 00 00 00 00 00 00 00 00 fe 4f 
[13:43:22-430]eeprom read: 1714 page
[13:43:22-446]00 00 00 00 00 00 00 00 00 00 00 00 00 00 00 00 00 00 00 00 00 00 00 00 00 00 00 00 00 00 fe 4f 
[13:43:22-446]eeprom read: 1715 page
[13:43:22-446]00 00 00 00 00 00 00 00 00 00 00 00 00 00 00 00 00 00 00 00 00 00 00 00 00 00 00 00 00 00 fe 4f 
[13:43:22-446]eeprom read: 1716 page
[13:43:22-461]00 00 00 00 00 00 00 00 00 00 00 00 00 00 00 00 00 00 00 00 00 00 00 00 00 00 00 00 00 00 fe 4f 
[13:43:22-461]relay power config load rc: 0
[13:43:22-461]eeprom read: 2046 page
[13:43:22-477]00 00 00 00 00 00 00 00 01 01 00 00 00 00 02 00 ff ff ff ff 00 00 00 00 00 00 00 00 00 00 70 30 
[13:43:22-477]eeprom read: 2047 page
[13:43:22-477]00 00 00 00 00 00 00 00 01 02 00 01 00 00 02 00 ff ff ff ff 00 00 00 00 00 00 00 00 00 00 7e ff 
[13:43:22-493]firmware info load rc: 0
[13:43:22-493]config init rc: 0
[13:43:22-493]PROTOCOL handle 10002ae8
[13:43:22-508]SENSORS handle 10004758
[13:43:22-524]NETWORK handle 100063c8
[13:43:22-539]WDG handle 10006838
[13:43:22-555]RELAY handle 100084a8
[13:43:22-571]CAN_tx handle 10009518
[13:43:22-571]CAN_rx handle 1000a588
[13:43:22-586]GPRS handle 1000adf8
[13:43:22-602]Rw:  len=8, data=fb 06 00 0d 00 01 cd 93 
[13:43:22-821]Rr:  len=2, data=RTC init LSE
[13:43:22-821]RTC use LSE
[13:43:22-868]RTC use LSE OK
[13:43:23-008]feed
[13:43:23-508]feed
[13:43:23-508]device:9100334 csq:0 net:0 server:0, relay:0
[13:43:24-008]feed
[13:43:24-368]load: 2023-01-13 13:43:20
[13:43:24-508]feed
[13:43:24-508]device:9100334 csq:0 net:0 server:0, relay:0
[13:43:24-571]AHT20 read
[13:43:24-571]AHT20: status: -1, temperature: 0.000000 humidity:0.000000
[13:43:24-618]refresh status start
[13:43:24-618]sensor config model_id = 1
[13:43:24-618]sensor config model_id = 2
[13:43:24-618]refresh status end
[13:43:24-633]air blow: err: 0, rst: 0, status: -1
[13:43:24-633]Rw:  len=8, data=fb 03 00 00 00 0a d1 97 
[13:43:24-649]Rr:  len=1, data=Gr:  len=9, data=a5 5a 00 00 04 00 00 ff ff 
[13:43:24-649]Gr:  len=2, data=b8 94 
[13:43:24-649]Gw:  len=15, data=a5 5a 00 00 04 04 00 fb ff 00 8a dc 2e 9c 0d 
[13:43:24-649]
[13:43:25-008]feed
[13:43:25-508]feed
[13:43:25-508]device:9100334 csq:0 net:0 server:0, relay:0
[13:43:25-946]<Recv>:
[13:43:25-946]id = 18f51111, dlc = 6
[13:43:25-946]01 00 02 00 00 00 
[13:43:25-961]dev_relay:ch=1, os=0, ks=2, err=0, cur=0(mA)
[13:43:25-961]<Recv>:
[13:43:25-961]id = 18f51111, dlc = 6
[13:43:25-961]02 00 02 00 00 00 
[13:43:25-961]dev_relay:ch=2, os=0, ks=2, err=0, cur=0(mA)
[13:43:25-961]<Recv>:
[13:43:25-961]id = 18f51111, dlc = 6
[13:43:25-961]03 00 02 00 00 00 
[13:43:25-977]dev_relay:ch=3, os=0, ks=2, err=0, cur=0(mA)
[13:43:25-977]<Recv>:
[13:43:25-977]id = 18f51111, dlc = 6
[13:43:25-977]04 00 02 00 01 00 
[13:43:25-977]dev_relay:ch=4, os=0, ks=2, err=0, cur=10(mA)
[13:43:25-977]<Recv>:
[13:43:25-993]id = 18f51111, dlc = 6
[13:43:25-993]05 00 02 00 01 00 
[13:43:25-993]dev_relay:ch=5, os=0, ks=2, err=0, cur=10(mA)
[13:43:26-008]feed
[13:43:26-352]<Recv>:
[13:43:26-352]id = 18f00111, dlc = 8
[13:43:26-352]01 00 00 00 01 00 00 00 
[13:43:26-352]relay_H: 1.0.0.0        relay_F: 1.0.0.0
[13:43:26-461]<Recv>:
[13:43:26-461]id = 18f00211, dlc = 8
[13:43:26-461]52 45 4c 41 59 00 00 00 
[13:43:26-461]relay_PN: RELAY
[13:43:26-508]feed
[13:43:26-524]device:9100334 csq:0 net:0 server:0, relay:1
[13:43:26-555]<Recv>:
[13:43:26-571]id = 18f00311, dlc = 7
[13:43:26-571]59 04 00 00 00 00 00 
[13:43:26-571]relay_SN: 1113000000000
[13:43:26-649]air blow: err: 1, rst: 0, status: -2
[13:43:26-649]Rw:  len=8, data=fb 03 00 00 00 0a d1 97 
[13:43:27-024]Rr:  len=1, data=feed
[13:43:27-524]feed
[13:43:27-524]device:9100334 csq:0 net:0 server:0, relay:1
[13:43:28-024]feed
[13:43:28-524]feed
[13:43:28-524]device:9100334 csq:0 net:0 server:0, relay:1
[13:43:28-660]air blow: err: 2, rst: 0, status: -2
[13:43:28-660]Rw:  len=8, data=fb 03 00 00 00 0a d1 97 
[13:43:29-019]Rr:  len=1, data=feed
[13:43:29-519]feed
[13:43:29-535]device:9100334 csq:0 net:0 server:0, relay:1
[13:43:30-035]feed
[13:43:30-535]feed
[13:43:30-535]device:9100334 csq:0 net:0 server:0, relay:1
[13:43:30-675]air blow: err: 3, rst: 0, status: -2
[13:43:30-675]Rw:  len=8, data=fb 03 00 00 00 0a d1 97 
[13:43:31-035]Rr:  len=1, data=feed
[13:43:31-535]feed
[13:43:31-535]device:9100334 csq:0 net:0 server:0, relay:1
[13:43:32-035]feed
[13:43:32-535]feed
[13:43:32-535]device:9100334 csq:0 net:0 server:0, relay:1
[13:43:32-691]air blow: err: 4, rst: 0, status: -2
[13:43:32-691]Rw:  len=8, data=fb 03 00 00 00 0a d1 97 
[13:43:33-035]Rr:  len=1, data=feed
[13:43:33-535]feed
[13:43:33-550]device:9100334 csq:0 net:0 server:0, relay:1
[13:43:34-050]feed
[13:43:34-550]feed
[13:43:34-550]device:9100334 csq:0 net:0 server:0, relay:1
[13:43:34-613]now: 2023-01-13 13:43:30
[13:43:34-613]key<1> release
[13:43:34-613]key<2> release
[13:43:34-629]key<3> release
[13:43:34-629]key<4> release
[13:43:34-629]key<5> release
[13:43:34-707]air blow: err: 5, rst: 0, status: -2
[13:43:34-707]Rw:  len=8, data=fb 03 00 00 00 0a d1 97 
[13:43:35-050]Rr:  len=1, data=feed
[13:43:35-550]feed
[13:43:35-550]device:9100334 csq:0 net:0 server:0, relay:1
[13:43:36-050]feed
[13:43:36-550]feed
[13:43:36-550]device:9100334 csq:0 net:0 server:0, relay:1
[13:43:36-722]air blow: err: 6, rst: 0, status: -2
[13:43:36-738]Rw:  len=8, data=fb 03 00 00 00 0a d1 97 
[13:43:37-050]Rr:  len=1, data=feed
[13:43:37-566]feed
[13:43:37-566]device:9100334 csq:0 net:0 server:0, relay:1
[13:43:37-629]now: 2023-01-13 13:43:33
[13:43:38-066]feed
[13:43:38-566]feed
[13:43:38-566]device:9100334 csq:0 net:0 server:0, relay:1
[13:43:38-738]air blow: err: 7, rst: 0, status: -2
[13:43:38-753]Rw:  len=8, data=fb 03 00 00 00 0a d1 97 
[13:43:39-066]Rr:  len=1, data=feed
[13:43:39-566]feed
[13:43:39-566]device:9100334 csq:0 net:0 server:0, relay:1
[13:43:40-066]feed
[13:43:40-082]Pw:  len=16, data=00 8a dc 2e 03 40 00 00 0e d0 00 01 01 03 10 2d 
[13:43:40-082]
[13:43:40-582]feed
[13:43:40-582]device:9100334 csq:0 net:1 server:0, relay:1
[13:43:40-629]now: 2023-01-13 13:43:36
[13:43:40-769]air blow: err: 8, rst: 0, status: -2
[13:43:40-769]Rw:  len=8, data=fb 03 00 00 00 0a d1 97 
[13:43:41-066]Rr:  len=1, data=feed
[13:43:41-207]Pr:  len=13, data=00 8a dc 2e 03 40 00 00 0e 00 00 01 01 
[13:43:41-207]Pr:  len=1, data=01 
[13:43:41-207]Pr:  len=2, data=50 3e 
[13:43:41-222]eeprom write: 10 page
[13:43:41-222]01 00 00 00 00 00 00 00 00 00 00 00 00 00 00 00 00 00 00 00 00 00 00 00 00 00 00 00 00 00 ff 1f 
[13:43:41-285]Gw:  len=11, data=a5 5a 00 00 02 00 00 ff ff 30 94 
[13:43:41-285]
[13:43:41-582]feed
[13:43:41-582]device:9100334 csq:0 net:1 server:1, relay:1
[13:43:41-785]Gr:  len=9, data=a5 5a 00 00 02 14 00 eb ff 
[13:43:41-785]Gr:  len=20, data=38 39 38 36 30 34 41 32 31 39 32 31 37 31 31 35 34 37 35 39 
[13:43:41-800]Gr:  len=2, data=cd 63 
[13:43:41-800]Gw:  len=11, data=a5 5a 00 00 03 00 00 ff ff 0d 54 
[13:43:41-800]
[13:43:42-082]feed
[13:43:42-300]Gr:  len=9, data=a5 5a 00 00 03 01 00 fe ff 
[13:43:42-316]Gr:  len=1, data=01 
[13:43:42-316]Gr:  len=2, data=38 05 
[13:43:42-347]Pw:  len=36, data=00 8a dc 2e 03 40 00 00 2c d0 00 01 15 01 38 39 38 36 30 34 41 32 31 39 32 31 37 31 31 35 34 37 35 39 b7 e1 
[13:43:42-347]
[13:43:42-582]feed
[13:43:42-582]device:9100334 csq:0 net:1 server:1, relay:1
[13:43:42-785]air blow: err: 9, rst: 0, status: -2
[13:43:42-785]Rw:  len=8, data=fb 03 00 00 00 0a d1 97 
[13:43:43-082]Rr:  len=1, data=feed
[13:43:43-582]feed
[13:43:43-582]device:9100334 csq:0 net:1 server:1, relay:1
[13:43:43-629]now: 2023-01-13 13:43:39
[13:43:44-082]feed
[13:43:44-347]CSQ: 0
[13:43:44-582]feed
[13:43:44-597]device:9100334 csq:0 net:1 server:1, relay:1
[13:43:45-097]feed
[13:43:45-332]Pr:  len=13, data=00 8a dc 2e 03 40 00 00 12 00 00 01 01 
[13:43:45-332]Pr:  len=1, data=01 
[13:43:45-332]Pr:  len=2, data=52 62 
[13:43:45-347]Pw:  len=52, data=00 8a dc 2e 03 40 00 00 12 d0 00 01 25 01 17 01 0d 0d 2b 29 ff fc 00 00 00 00 00 00 20 00 00 00 00 00 00 00 00 00 00 00 00 00 00 00 00 00 00 00 00 00 ac b4 
[13:43:45-363]
[13:43:45-597]feed
[13:43:45-597]device:9100334 csq:0 net:1 server:1, relay:1
[13:43:46-097]feed
[13:43:46-597]feed
[13:43:46-597]device:9100334 csq:0 net:1 server:1, relay:1
[13:43:46-629]now: 2023-01-13 13:43:42
[13:43:47-097]feed
[13:43:47-597]feed
[13:43:47-597]device:9100334 csq:0 net:1 server:1, relay:1
[13:43:48-097]feed
[13:43:48-597]feed
[13:43:48-613]device:9100334 csq:0 net:1 server:1, relay:1
[13:43:49-113]feed
[13:43:49-613]feed
[13:43:49-613]device:9100334 csq:0 net:1 server:1, relay:1
[13:43:49-629]now: 2023-01-13 13:43:45
[13:43:49-801]air blow: err: 0, rst: 1, status: -1
[13:43:49-801]Rw:  len=8, data=fb 03 00 00 00 0a d1 97 
[13:43:50-113]Rr:  len=1, data=feed
[13:43:50-269]Pr:  len=13, data=00 8a dc 2e 16 40 00 00 0a 00 00 01 07 
[13:43:50-269]Pr:  len=7, data=17 01 0d 05 0d 2b 2f 
[13:43:50-269]Pr:  len=2, data=0f 1d 
[13:43:50-269]Pw:  len=15, data=00 8a dc 2e 16 40 00 00 0a d0 00 01 00 ad 80 
[13:43:50-269]
[13:43:50-613]feed
[13:43:50-613]device:9100334 csq:0 net:1 server:1, relay:1
[13:43:51-113]feed
[13:43:51-472]<Recv>:
[13:43:51-488]id = 18f61111, dlc = 7
[13:43:51-488]04 3e 08 52 08 52 08 
[13:43:51-488]power in:cfg=4, VA=211(V), VB=213(V), VC=213(V)
[13:43:51-613]feed
[13:43:51-613]device:9100334 csq:0 net:1 server:1, relay:1
[13:43:51-816]scan sensors driver
[13:43:51-816]Rw:  len=8, data=01 03 00 14 00 04 04 0d 
[13:43:52-113]Rr:  len=1, data=feed
[13:43:52-613]feed
[13:43:52-629]device:9100334 csq:0 net:1 server:1, relay:1
[13:43:52-629]now: 2023-01-13 13:43:49
[13:43:52-832]Update model <DO-Y102>
[13:43:52-832]Rw:  len=8, data=01 06 00 0a 00 00 a9 c8 
[13:43:53-129]Rr:  len=1, data=feed
[13:43:53-629]feed
[13:43:53-629]device:9100334 csq:0 net:1 server:1, relay:1
[13:43:54-316]feed
