[17:25:17-728]feed
[17:25:17-728]Log level: TRACE
[17:25:17-728]<Jan  5 2023-17:59:57> boot file <BOOT_V1.0.0> at 08000400
[17:25:17-728]APP file exist
[17:25:17-728]Factory file exist
[17:25:17-743]BOOT_V1.0.0
[17:25:17-743]eeprom read: 4094 page
[17:25:17-759]00 00 00 00 00 00 00 00 01 01 00 00 00 00 02 00 ff ff ff ff 00 00 00 00 00 00 00 00 00 00 70 30 
[17:25:17-759]eeprom read: 4095 page
[17:25:17-775]00 00 00 00 00 00 00 00 01 02 00 01 00 00 02 00 ff ff ff ff 00 00 00 00 00 00 00 00 00 00 7e ff 
[17:25:17-775]waiting for check app info ... ...
[17:25:17-790]PN_CODE:Y-515
[17:25:17-790][ERROR:24]:download data not finish
[17:25:17-790]Ready Jump to App,AppAddress:8010000
[17:25:17-806]Log level: NONE
[17:25:17-806]
[17:25:17-806] _______   _____    _____ 
[17:25:17-806]|__  /\ \ / /_ _|__|_   _|
[17:25:17-806]  / /  \ V / | |/ _ \| |
[17:25:17-806] / /_   | |  | | (_) | |
[17:25:17-821]/____|  |_| |___\___/|_|
[17:25:17-821]
[17:25:17-837]http://www.zytdwl.cn
[17:25:17-837]
[17:25:17-837]3G online device <Y-515_APP_V1.0.0> at 08010400
[17:25:17-837]compiler at <Jan 13 2023-17:23:11>
[17:25:17-853]eeprom read: 8 page
[17:25:17-853]2e dc 8a 00 00 00 00 00 00 01 00 00 00 00 00 00 00 00 00 00 00 00 00 00 00 00 00 00 00 00 b0 fa 
[17:25:17-853]system load rc: 0
[17:25:17-853]eeprom read: 9 page
[17:25:17-884]01 00 00 00 00 00 00 00 00 00 00 00 00 00 00 00 00 00 00 00 00 00 00 00 00 00 00 00 00 00 ff 1f 
[17:25:17-884]device_enable load rc: 0
[17:25:17-884]eeprom read: 10 page
[17:25:17-900]01 00 00 00 00 00 00 00 00 00 00 00 00 00 00 00 00 00 00 00 00 00 00 00 00 00 00 00 00 00 ff 1f 
[17:25:17-900]device_connect load rc: 0
[17:25:17-900]eeprom read: 32 page
[17:25:17-915]00 00 00 00 00 00 00 00 00 00 00 00 00 00 00 00 00 00 00 00 00 00 00 00 00 00 00 00 00 00 fe 4f 
[17:25:17-915]probe_enable load rc: 0
[17:25:17-915]eeprom read: 40 page
[17:25:17-915]00 00 00 00 00 00 00 00 00 00 00 00 00 00 00 00 00 00 00 00 00 00 00 00 00 00 00 00 00 00 fe 4f 
[17:25:17-931]pump_status load rc: 0
[17:25:17-931]eeprom read: 56 page
[17:25:17-946]01 01 00 00 02 00 00 00 00 00 00 00 00 00 00 00 00 00 00 00 00 00 00 00 00 00 00 00 00 00 cc a1 
[17:25:17-946]eeprom read: 57 page
[17:25:17-946]01 01 00 00 02 00 00 00 00 00 00 00 00 00 00 00 00 00 00 00 00 00 00 00 00 00 00 00 00 00 cc a1 
[17:25:17-946]eeprom read: 58 page
[17:25:17-946]01 01 00 00 01 00 00 00 00 00 00 00 00 00 00 00 00 00 00 00 00 00 00 00 00 00 00 00 00 00 c7 e1 
[17:25:17-946]sensor load rc: 0
[17:25:17-962]eeprom read: 312 page
[17:25:17-978]00 00 00 00 00 00 00 00 00 00 00 00 00 00 00 00 00 00 00 00 00 00 00 00 00 00 00 00 00 00 fe 4f 
[17:25:17-978]eeprom read: 313 page
[17:25:17-993]00 00 00 00 00 00 00 00 00 00 00 00 00 00 00 00 00 00 00 00 00 00 00 00 00 00 00 00 00 00 fe 4f 
[17:25:17-993]eeprom read: 314 page
[17:25:18-009]00 00 00 00 00 00 00 00 00 00 00 00 00 00 00 00 00 00 00 00 00 00 00 00 00 00 00 00 00 00 fe 4f 
[17:25:18-009]eeprom read: 315 page
[17:25:18-025]00 00 00 00 00 00 00 00 00 00 00 00 00 00 00 00 00 00 00 00 00 00 00 00 00 00 00 00 00 00 fe 4f 
[17:25:18-025]eeprom read: 316 page
[17:25:18-040]00 00 00 00 00 00 00 00 00 00 00 00 00 00 00 00 00 00 00 00 00 00 00 00 00 00 00 00 00 00 fe 4f 
[17:25:18-040]eeprom read: 317 page
[17:25:18-040]00 00 00 00 00 00 00 00 00 00 00 00 00 00 00 00 00 00 00 00 00 00 00 00 00 00 00 00 00 00 fe 4f 
[17:25:18-040]eeprom read: 318 page
[17:25:18-056]00 00 00 00 00 00 00 00 00 00 00 00 00 00 00 00 00 00 00 00 00 00 00 00 00 00 00 00 00 00 fe 4f 
[17:25:18-056]eeprom read: 319 page
[17:25:18-071]00 00 00 00 00 00 00 00 00 00 00 00 00 00 00 00 00 00 00 00 00 00 00 00 00 00 00 00 00 00 fe 4f 
[17:25:18-071]compensation load rc: 0
[17:25:18-071]eeprom read: 448 page
[17:25:18-087]00 00 00 00 00 00 00 00 00 00 00 00 00 00 00 00 00 00 00 00 00 00 00 00 00 00 00 00 00 00 fe 4f 
[17:25:18-087]eeprom read: 449 page
[17:25:18-103]00 00 00 00 00 00 00 00 00 00 00 00 00 00 00 00 00 00 00 00 00 00 00 00 00 00 00 00 00 00 fe 4f 
[17:25:18-103]eeprom read: 450 page
[17:25:18-118]00 00 00 00 00 00 00 00 00 00 00 00 00 00 00 00 00 00 00 00 00 00 00 00 00 00 00 00 00 00 fe 4f 
[17:25:18-118]eeprom read: 451 page
[17:25:18-134]00 00 00 00 00 00 00 00 00 00 00 00 00 00 00 00 00 00 00 00 00 00 00 00 00 00 00 00 00 00 fe 4f 
[17:25:18-134]eeprom read: 452 page
[17:25:18-134]00 00 00 00 00 00 00 00 00 00 00 00 00 00 00 00 00 00 00 00 00 00 00 00 00 00 00 00 00 00 fe 4f 
[17:25:18-134]eeprom read: 453 page
[17:25:18-150]00 00 00 00 00 00 00 00 00 00 00 00 00 00 00 00 00 00 00 00 00 00 00 00 00 00 00 00 00 00 fe 4f 
[17:25:18-150]eeprom read: 454 page
[17:25:18-165]00 00 00 00 00 00 00 00 00 00 00 00 00 00 00 00 00 00 00 00 00 00 00 00 00 00 00 00 00 00 fe 4f 
[17:25:18-165]eeprom read: 455 page
[17:25:18-181]00 00 00 00 00 00 00 00 00 00 00 00 00 00 00 00 00 00 00 00 00 00 00 00 00 00 00 00 00 00 fe 4f 
[17:25:18-181]indicator_alert load rc: 0
[17:25:18-181]eeprom read: 704 page
[17:25:18-196]00 00 00 00 00 00 00 00 00 00 00 00 00 00 00 00 00 00 00 00 00 00 00 00 00 00 00 00 00 00 fe 4f 
[17:25:18-196]eeprom read: 705 page
[17:25:18-212]00 00 00 00 00 00 00 00 00 00 00 00 00 00 00 00 00 00 00 00 00 00 00 00 00 00 00 00 00 00 fe 4f 
[17:25:18-212]eeprom read: 706 page
[17:25:18-212]00 00 00 00 00 00 00 00 00 00 00 00 00 00 00 00 00 00 00 00 00 00 00 00 00 00 00 00 00 00 fe 4f 
[17:25:18-228]eeprom read: 707 page
[17:25:18-228]00 00 00 00 00 00 00 00 00 00 00 00 00 00 00 00 00 00 00 00 00 00 00 00 00 00 00 00 00 00 fe 4f 
[17:25:18-228]eeprom read: 708 page
[17:25:18-243]00 00 00 00 00 00 00 00 00 00 00 00 00 00 00 00 00 00 00 00 00 00 00 00 00 00 00 00 00 00 fe 4f 
[17:25:18-243]eeprom read: 709 page
[17:25:18-259]00 00 00 00 00 00 00 00 00 00 00 00 00 00 00 00 00 00 00 00 00 00 00 00 00 00 00 00 00 00 fe 4f 
[17:25:18-259]eeprom read: 710 page
[17:25:18-275]00 00 00 00 00 00 00 00 00 00 00 00 00 00 00 00 00 00 00 00 00 00 00 00 00 00 00 00 00 00 fe 4f 
[17:25:18-275]eeprom read: 711 page
[17:25:18-290]00 00 00 00 00 00 00 00 00 00 00 00 00 00 00 00 00 00 00 00 00 00 00 00 00 00 00 00 00 00 fe 4f 
[17:25:18-290]eeprom read: 712 page
[17:25:18-306]00 00 00 00 00 00 00 00 00 00 00 00 00 00 00 00 00 00 00 00 00 00 00 00 00 00 00 00 00 00 fe 4f 
[17:25:18-306]eeprom read: 713 page
[17:25:18-306]00 00 00 00 00 00 00 00 00 00 00 00 00 00 00 00 00 00 00 00 00 00 00 00 00 00 00 00 00 00 fe 4f 
[17:25:18-306]eeprom read: 714 page
[17:25:18-321]00 00 00 00 00 00 00 00 00 00 00 00 00 00 00 00 00 00 00 00 00 00 00 00 00 00 00 00 00 00 fe 4f 
[17:25:18-321]eeprom read: 715 page
[17:25:18-337]00 00 00 00 00 00 00 00 00 00 00 00 00 00 00 00 00 00 00 00 00 00 00 00 00 00 00 00 00 00 fe 4f 
[17:25:18-337]eeprom read: 716 page
[17:25:18-353]00 00 00 00 00 00 00 00 00 00 00 00 00 00 00 00 00 00 00 00 00 00 00 00 00 00 00 00 00 00 fe 4f 
[17:25:18-353]eeprom read: 717 page
[17:25:18-368]00 00 00 00 00 00 00 00 00 00 00 00 00 00 00 00 00 00 00 00 00 00 00 00 00 00 00 00 00 00 fe 4f 
[17:25:18-368]eeprom read: 718 page
[17:25:18-384]00 00 00 00 00 00 00 00 00 00 00 00 00 00 00 00 00 00 00 00 00 00 00 00 00 00 00 00 00 00 fe 4f 
[17:25:18-384]eeprom read: 719 page
[17:25:18-384]00 00 00 00 00 00 00 00 00 00 00 00 00 00 00 00 00 00 00 00 00 00 00 00 00 00 00 00 00 00 fe 4f 
[17:25:18-384]eeprom read: 720 page
[17:25:18-400]00 00 00 00 00 00 00 00 00 00 00 00 00 00 00 00 00 00 00 00 00 00 00 00 00 00 00 00 00 00 fe 4f 
[17:25:18-400]eeprom read: 721 page
[17:25:18-415]00 00 00 00 00 00 00 00 00 00 00 00 00 00 00 00 00 00 00 00 00 00 00 00 00 00 00 00 00 00 fe 4f 
[17:25:18-415]eeprom read: 722 page
[17:25:18-431]00 00 00 00 00 00 00 00 00 00 00 00 00 00 00 00 00 00 00 00 00 00 00 00 00 00 00 00 00 00 fe 4f 
[17:25:18-431]eeprom read: 723 page
[17:25:18-446]00 00 00 00 00 00 00 00 00 00 00 00 00 00 00 00 00 00 00 00 00 00 00 00 00 00 00 00 00 00 fe 4f 
[17:25:18-446]eeprom read: 724 page
[17:25:18-462]00 00 00 00 00 00 00 00 00 00 00 00 00 00 00 00 00 00 00 00 00 00 00 00 00 00 00 00 00 00 fe 4f 
[17:25:18-462]eeprom read: 725 page
[17:25:18-462]00 00 00 00 00 00 00 00 00 00 00 00 00 00 00 00 00 00 00 00 00 00 00 00 00 00 00 00 00 00 fe 4f 
[17:25:18-462]eeprom read: 726 page
[17:25:18-478]00 00 00 00 00 00 00 00 00 00 00 00 00 00 00 00 00 00 00 00 00 00 00 00 00 00 00 00 00 00 fe 4f 
[17:25:18-478]eeprom read: 727 page
[17:25:18-493]00 00 00 00 00 00 00 00 00 00 00 00 00 00 00 00 00 00 00 00 00 00 00 00 00 00 00 00 00 00 fe 4f 
[17:25:18-493]eeprom read: 728 page
[17:25:18-509]00 00 00 00 00 00 00 00 00 00 00 00 00 00 00 00 00 00 00 00 00 00 00 00 00 00 00 00 00 00 fe 4f 
[17:25:18-509]eeprom read: 729 page
[17:25:18-525]00 00 00 00 00 00 00 00 00 00 00 00 00 00 00 00 00 00 00 00 00 00 00 00 00 00 00 00 00 00 fe 4f 
[17:25:18-525]eeprom read: 730 page
[17:25:18-525]00 00 00 00 00 00 00 00 00 00 00 00 00 00 00 00 00 00 00 00 00 00 00 00 00 00 00 00 00 00 fe 4f 
[17:25:18-540]eeprom read: 731 page
[17:25:18-540]00 00 00 00 00 00 00 00 00 00 00 00 00 00 00 00 00 00 00 00 00 00 00 00 00 00 00 00 00 00 fe 4f 
[17:25:18-540]eeprom read: 732 page
[17:25:18-556]00 00 00 00 00 00 00 00 00 00 00 00 00 00 00 00 00 00 00 00 00 00 00 00 00 00 00 00 00 00 fe 4f 
[17:25:18-556]eeprom read: 733 page
[17:25:18-571]00 00 00 00 00 00 00 00 00 00 00 00 00 00 00 00 00 00 00 00 00 00 00 00 00 00 00 00 00 00 fe 4f 
[17:25:18-571]eeprom read: 734 page
[17:25:18-587]00 00 00 00 00 00 00 00 00 00 00 00 00 00 00 00 00 00 00 00 00 00 00 00 00 00 00 00 00 00 fe 4f 
[17:25:18-587]eeprom read: 735 page
[17:25:18-603]00 00 00 00 00 00 00 00 00 00 00 00 00 00 00 00 00 00 00 00 00 00 00 00 00 00 00 00 00 00 fe 4f 
[17:25:18-603]limit load rc: 0
[17:25:18-603]eeprom read: 1496 page
[17:25:18-618]00 00 00 00 00 00 00 00 00 00 00 00 00 00 00 00 00 00 00 00 00 00 00 00 00 00 00 00 00 00 fe 4f 
[17:25:18-618]relay load rc: 0
[17:25:18-618]eeprom read: 1504 page
[17:25:18-634]00 00 00 00 00 00 00 00 00 00 00 00 00 00 00 00 00 00 00 00 00 00 00 00 00 00 00 00 00 00 fe 4f 
[17:25:18-634]times_enable load rc: 0
[17:25:18-634]eeprom read: 1512 page
[17:25:18-650]02 00 20 00 00 00 00 00 00 00 81 0e 2e 10 17 00 00 00 00 00 00 00 00 00 00 00 00 00 00 00 c0 53 
[17:25:18-650]eeprom read: 1513 page
[17:25:18-650]00 00 00 00 00 00 00 00 00 00 00 00 00 00 00 00 00 00 00 00 00 00 00 00 00 00 00 00 00 00 fe 4f 
[17:25:18-650]eeprom read: 1514 page
[17:25:18-665]00 00 00 00 00 00 00 00 00 00 00 00 00 00 00 00 00 00 00 00 00 00 00 00 00 00 00 00 00 00 fe 4f 
[17:25:18-665]eeprom read: 1515 page
[17:25:18-681]00 00 00 00 00 00 00 00 00 00 00 00 00 00 00 00 00 00 00 00 00 00 00 00 00 00 00 00 00 00 fe 4f 
[17:25:18-681]eeprom read: 1516 page
[17:25:18-696]00 00 00 00 00 00 00 00 00 00 00 00 00 00 00 00 00 00 00 00 00 00 00 00 00 00 00 00 00 00 fe 4f 
[17:25:18-696]eeprom read: 1517 page
[17:25:18-712]00 00 00 00 00 00 00 00 00 00 00 00 00 00 00 00 00 00 00 00 00 00 00 00 00 00 00 00 00 00 fe 4f 
[17:25:18-712]eeprom read: 1518 page
[17:25:18-728]00 00 00 00 00 00 00 00 00 00 00 00 00 00 00 00 00 00 00 00 00 00 00 00 00 00 00 00 00 00 fe 4f 
[17:25:18-728]eeprom read: 1519 page
[17:25:18-728]00 00 00 00 00 00 00 00 00 00 00 00 00 00 00 00 00 00 00 00 00 00 00 00 00 00 00 00 00 00 fe 4f 
[17:25:18-728]times load rc: 0
[17:25:18-743]eeprom read: 1576 page
[17:25:18-743]01 01 00 17 01 0d 10 2e 25 17 01 0d 11 06 25 00 00 00 00 00 00 00 00 00 00 00 00 00 00 00 5a 58 
[17:25:18-743]eeprom read: 1577 page
[17:25:18-759]01 01 00 17 01 0d 0b 28 1c 17 01 0d 0c 00 1c 00 00 00 00 00 00 00 00 00 00 00 00 00 00 00 f2 a6 
[17:25:18-759]eeprom read: 1578 page
[17:25:18-775]01 01 00 17 01 0d 10 2d 27 17 01 0d 11 05 27 00 00 00 00 00 00 00 00 00 00 00 00 00 00 00 dc f5 
[17:25:18-775]eeprom read: 1579 page
[17:25:18-790]01 01 00 17 01 0d 0a 04 1e 17 01 0d 0a 18 1e 00 00 00 00 00 00 00 00 00 00 00 00 00 00 00 28 49 
[17:25:18-790]eeprom read: 1580 page
[17:25:18-806]01 01 00 17 01 0d 0a 05 39 17 01 0d 0a 19 39 00 00 00 00 00 00 00 00 00 00 00 00 00 00 00 fb 53 
[17:25:18-806]manual_relay load rc: 0
[17:25:18-806]eeprom read: 1712 page
[17:25:18-821]00 00 00 00 00 00 00 00 00 00 00 00 00 00 00 00 00 00 00 00 00 00 00 00 00 00 00 00 00 00 fe 4f 
[17:25:18-821]eeprom read: 1713 page
[17:25:18-837]00 00 00 00 00 00 00 00 00 00 00 00 00 00 00 00 00 00 00 00 00 00 00 00 00 00 00 00 00 00 fe 4f 
[17:25:18-837]eeprom read: 1714 page
[17:25:18-837]00 00 00 00 00 00 00 00 00 00 00 00 00 00 00 00 00 00 00 00 00 00 00 00 00 00 00 00 00 00 fe 4f 
[17:25:18-837]eeprom read: 1715 page
[17:25:18-853]00 00 00 00 00 00 00 00 00 00 00 00 00 00 00 00 00 00 00 00 00 00 00 00 00 00 00 00 00 00 fe 4f 
[17:25:18-853]eeprom read: 1716 page
[17:25:18-853]00 00 00 00 00 00 00 00 00 00 00 00 00 00 00 00 00 00 00 00 00 00 00 00 00 00 00 00 00 00 fe 4f 
[17:25:18-868]relay power config load rc: 0
[17:25:18-868]eeprom read: 2046 page
[17:25:18-884]00 00 00 00 00 00 00 00 01 01 00 00 00 00 02 00 ff ff ff ff 00 00 00 00 00 00 00 00 00 00 70 30 
[17:25:18-884]eeprom read: 2047 page
[17:25:18-900]00 00 00 00 00 00 00 00 01 02 00 01 00 00 02 00 ff ff ff ff 00 00 00 00 00 00 00 00 00 00 7e ff 
[17:25:18-900]firmware info load rc: 0
[17:25:18-900]config init rc: 0
[17:25:18-900]PROTOCOL handle 10002ae8
[17:25:18-915]SENSORS handle 10004758
[17:25:18-931]NETWORK handle 100063c8
[17:25:18-946]WDG handle 10006838
[17:25:18-962]RELAY handle 100084a8
[17:25:18-962]CAN_tx handle 10009518
[17:25:18-978]CAN_rx handle 1000a588
[17:25:18-993]GPRS handle 1000adf8
[17:25:19-009]Rw:  len=8, data=fb 06 00 0d 00 01 cd 93 
[17:25:19-228]Rr:  len=2, data=RTC init LSE
[17:25:19-228]RTC use LSE
[17:25:19-275]RTC use LSE OK
[17:25:19-400]feed
[17:25:19-900]feed
[17:25:19-915]device:9100334 csq:0 net:0 server:0, relay:0
[17:25:20-415]feed
[17:25:20-775]load: 2023-01-13 17:25:16
[17:25:20-915]feed
[17:25:20-915]device:9100334 csq:0 net:0 server:0, relay:0
[17:25:20-978]AHT20 read
[17:25:20-978]AHT20: status: -1, temperature: 0.000000 humidity:0.000000
[17:25:21-025]refresh status start
[17:25:21-025]sensor config model_id = 1
[17:25:21-025]sensor config model_id = 2
[17:25:21-025]refresh status end
[17:25:21-025]air blow: err: 0, rst: 0, status: -1
[17:25:21-040]Rw:  len=8, data=fb 03 00 00 00 0a d1 97 
[17:25:21-040]Rr:  len=1, data=Gr:  len=9, data=a5 5a 00 00 04 00 00 ff ff 
[17:25:21-056]Gr:  len=2, data=b8 94 
[17:25:21-056]Gw:  len=15, data=a5 5a 00 00 04 04 00 fb ff 00 8a dc 2e 9c 0d 
[17:25:21-056]
[17:25:21-415]feed
[17:25:21-915]feed
[17:25:21-915]device:9100334 csq:0 net:0 server:0, relay:0
[17:25:22-337]<Recv>:
[17:25:22-337]id = 18f51111, dlc = 6
[17:25:22-337]01 00 02 00 00 00 
[17:25:22-353]dev_relay:ch=1, os=0, ks=2, err=0, cur=0(mA)
[17:25:22-353]<Recv>:
[17:25:22-353]id = 18f51111, dlc = 6
[17:25:22-353]02 00 02 00 00 00 
[17:25:22-353]dev_relay:ch=2, os=0, ks=2, err=0, cur=0(mA)
[17:25:22-353]<Recv>:
[17:25:22-353]id = 18f51111, dlc = 6
[17:25:22-353]03 00 02 00 00 00 
[17:25:22-368]dev_relay:ch=3, os=0, ks=2, err=0, cur=0(mA)
[17:25:22-368]<Recv>:
[17:25:22-368]id = 18f51111, dlc = 6
[17:25:22-368]04 00 02 00 01 00 
[17:25:22-368]dev_relay:ch=4, os=0, ks=2, err=0, cur=10(mA)
[17:25:22-368]<Recv>:
[17:25:22-384]id = 18f51111, dlc = 6
[17:25:22-384]05 00 02 00 01 00 
[17:25:22-384]dev_relay:ch=5, os=0, ks=2, err=0, cur=10(mA)
[17:25:22-415]feed
[17:25:22-743]<Recv>:
[17:25:22-743]id = 18f00111, dlc = 8
[17:25:22-743]01 00 00 00 01 00 00 00 
[17:25:22-743]relay_H: 1.0.0.0        relay_F: 1.0.0.0
[17:25:22-853]<Recv>:
[17:25:22-853]id = 18f00211, dlc = 8
[17:25:22-853]52 45 4c 41 59 00 00 00 
[17:25:22-853]relay_PN: RELAY
[17:25:22-915]feed
[17:25:22-915]device:9100334 csq:0 net:0 server:0, relay:1
[17:25:22-946]<Recv>:
[17:25:22-946]id = 18f00311, dlc = 7
[17:25:22-946]59 04 00 00 00 00 00 
[17:25:22-962]relay_SN: 1113000000000
[17:25:23-040]air blow: err: 1, rst: 0, status: -2
[17:25:23-056]Rw:  len=8, data=fb 03 00 00 00 0a d1 97 
[17:25:23-415]Rr:  len=1, data=feed
[17:25:23-915]feed
[17:25:23-931]device:9100334 csq:0 net:0 server:0, relay:1
[17:25:24-431]feed
[17:25:24-931]feed
[17:25:24-931]device:9100334 csq:0 net:0 server:0, relay:1
[17:25:25-072]air blow: err: 2, rst: 0, status: -2
[17:25:25-072]Rw:  len=8, data=fb 03 00 00 00 0a d1 97 
[17:25:25-431]Rr:  len=1, data=feed
[17:25:25-931]feed
[17:25:25-931]device:9100334 csq:0 net:0 server:0, relay:1
[17:25:26-431]feed
[17:25:26-931]feed
[17:25:26-931]device:9100334 csq:0 net:0 server:0, relay:1
[17:25:27-087]air blow: err: 3, rst: 0, status: -2
[17:25:27-087]Rw:  len=8, data=fb 03 00 00 00 0a d1 97 
[17:25:27-431]Rr:  len=1, data=feed
[17:25:27-947]feed
[17:25:27-947]device:9100334 csq:0 net:0 server:0, relay:1
[17:25:28-447]feed
[17:25:28-947]feed
[17:25:28-947]device:9100334 csq:0 net:0 server:0, relay:1
[17:25:29-103]air blow: err: 4, rst: 0, status: -2
[17:25:29-103]Rw:  len=8, data=fb 03 00 00 00 0a d1 97 
[17:25:29-447]Rr:  len=1, data=feed
[17:25:29-947]feed
[17:25:29-947]device:9100334 csq:0 net:0 server:0, relay:1
[17:25:30-447]feed
[17:25:30-947]feed
[17:25:30-962]device:9100334 csq:0 net:0 server:0, relay:1
[17:25:31-025]now: 2023-01-13 17:25:26
[17:25:31-025]key<1> release
[17:25:31-025]key<2> release
[17:25:31-025]key<3> release
[17:25:31-025]key<4> release
[17:25:31-025]key<5> release
[17:25:31-118]air blow: err: 5, rst: 0, status: -2
[17:25:31-118]Rw:  len=8, data=fb 03 00 00 00 0a d1 97 
[17:25:31-462]Rr:  len=1, data=feed
[17:25:31-962]feed
[17:25:31-962]device:9100334 csq:0 net:0 server:0, relay:1
[17:25:32-462]feed
[17:25:32-962]feed
[17:25:32-962]device:9100334 csq:0 net:0 server:0, relay:1
[17:25:33-134]air blow: err: 6, rst: 0, status: -2
[17:25:33-134]Rw:  len=8, data=fb 03 00 00 00 0a d1 97 
[17:25:33-462]Rr:  len=1, data=feed
[17:25:33-962]feed
[17:25:33-962]device:9100334 csq:0 net:0 server:0, relay:1
[17:25:34-025]now: 2023-01-13 17:25:29
[17:25:34-462]feed
[17:25:34-962]feed
[17:25:34-978]device:9100334 csq:0 net:0 server:0, relay:1
[17:25:35-150]air blow: err: 7, rst: 0, status: -2
[17:25:35-150]Rw:  len=8, data=fb 03 00 00 00 0a d1 97 
[17:25:35-478]Rr:  len=1, data=feed
[17:25:35-978]feed
[17:25:35-978]device:9100334 csq:0 net:0 server:0, relay:1
[17:25:36-478]feed
[17:25:36-978]feed
[17:25:36-978]device:9100334 csq:0 net:0 server:0, relay:1
[17:25:37-040]now: 2023-01-13 17:25:32
[17:25:37-165]air blow: err: 8, rst: 0, status: -2
[17:25:37-165]Rw:  len=8, data=fb 03 00 00 00 0a d1 97 
[17:25:37-478]Rr:  len=1, data=feed
[17:25:37-978]feed
[17:25:37-978]device:9100334 csq:0 net:0 server:0, relay:1
[17:25:38-478]feed
[17:25:38-978]feed
[17:25:38-993]device:9100334 csq:0 net:0 server:0, relay:1
[17:25:39-181]air blow: err: 9, rst: 0, status: -2
[17:25:39-181]Rw:  len=8, data=fb 03 00 00 00 0a d1 97 
[17:25:39-493]Rr:  len=1, data=feed
[17:25:39-493]Pw:  len=16, data=00 8a dc 2e 03 40 00 00 0e d0 00 01 01 01 91 ec 
[17:25:39-493]
[17:25:39-994]feed
[17:25:39-994]device:9100334 csq:0 net:1 server:0, relay:1
[17:25:40-040]now: 2023-01-13 17:25:35
[17:25:40-494]feed
[17:25:40-494]CSQ: 0
[17:25:40-509]Pr:  len=13, data=00 8a dc 2e 03 40 00 00 0e 00 00 01 01 
[17:25:40-509]Pr:  len=1, data=01 
[17:25:40-525]Pr:  len=2, data=50 3e 
[17:25:40-697]Gw:  len=11, data=a5 5a 00 00 02 00 00 ff ff 30 94 
[17:25:40-697]
[17:25:40-994]feed
[17:25:40-994]device:9100334 csq:0 net:1 server:1, relay:1
[17:25:41-197]Gr:  len=9, data=a5 5a 00 00 02 14 00 eb ff 
[17:25:41-212]Gr:  len=20, data=38 39 38 36 30 34 41 32 31 39 32 31 37 31 31 35 34 37 35 39 
[17:25:41-212]Gr:  len=2, data=cd 63 
[17:25:41-228]Gw:  len=11, data=a5 5a 00 00 03 00 00 ff ff 0d 54 
[17:25:41-228]
[17:25:41-494]feed
[17:25:41-728]Gr:  len=9, data=a5 5a 00 00 03 01 00 fe ff 
[17:25:41-728]Gr:  len=1, data=01 
[17:25:41-728]Gr:  len=2, data=38 05 
[17:25:41-759]Pw:  len=36, data=00 8a dc 2e 03 40 00 00 2c d0 00 01 15 01 38 39 38 36 30 34 41 32 31 39 32 31 37 31 31 35 34 37 35 39 b7 e1 
[17:25:41-759]
[17:25:41-994]feed
[17:25:41-994]device:9100334 csq:0 net:1 server:1, relay:1
[17:25:42-494]feed
[17:25:42-994]feed
[17:25:43-009]device:9100334 csq:0 net:1 server:1, relay:1
[17:25:43-040]now: 2023-01-13 17:25:38
[17:25:43-509]feed
[17:25:44-009]feed
[17:25:44-009]device:9100334 csq:0 net:1 server:1, relay:1
[17:25:44-509]feed
[17:25:44-619]Pr:  len=13, data=00 8a dc 2e 03 40 00 00 12 00 00 01 01 
[17:25:44-619]Pr:  len=1, data=01 
[17:25:44-619]Pr:  len=2, data=52 62 
[17:25:44-650]Pw:  len=52, data=00 8a dc 2e 03 40 00 00 12 d0 00 01 25 01 17 01 0d 11 19 28 ff fc 00 00 00 00 00 00 00 00 f8 00 00 00 00 00 00 00 00 00 00 00 00 00 00 00 00 00 00 00 a1 1e 
[17:25:44-650]
[17:25:45-009]feed
[17:25:45-009]device:9100334 csq:0 net:1 server:1, relay:1
[17:25:45-509]feed
[17:25:46-009]feed
[17:25:46-009]device:9100334 csq:0 net:1 server:1, relay:1
[17:25:46-040]now: 2023-01-13 17:25:41
[17:25:46-197]air blow: err: 0, rst: 1, status: -1
[17:25:46-212]Rw:  len=8, data=fb 03 00 00 00 0a d1 97 
[17:25:46-509]Rr:  len=1, data=feed
[17:25:47-009]feed
[17:25:47-025]device:9100334 csq:0 net:1 server:1, relay:1
[17:25:47-525]feed
[17:25:47-869]<Recv>:
[17:25:47-869]id = 18f61111, dlc = 7
[17:25:47-869]04 48 08 5c 08 5c 08 
[17:25:47-884]power in:cfg=4, VA=212(V), VB=214(V), VC=214(V)
[17:25:48-025]feed
[17:25:48-025]device:9100334 csq:0 net:1 server:1, relay:1
[17:25:48-212]scan sensors driver
[17:25:48-212]Rw:  len=8, data=01 03 00 14 00 04 04 0d 
[17:25:48-525]Rr:  len=1, data=feed
[17:25:49-025]feed
[17:25:49-025]device:9100334 csq:0 net:1 server:1, relay:1
[17:25:49-040]now: 2023-01-13 17:25:44
[17:25:49-228]Update model <DO-Y102>
[17:25:49-244]Rw:  len=8, data=01 06 00 0a 00 00 a9 c8 
[17:25:49-525]Rr:  len=1, data=feed
[17:25:49-650]Pr:  len=13, data=00 8a dc 2e 16 40 00 00 0a 00 00 01 07 
[17:25:49-665]Pr:  len=7, data=17 01 0d 05 11 19 2f 
[17:25:49-665]Pr:  len=2, data=db bb 
[17:25:49-665]Pw:  len=15, data=00 8a dc 2e 16 40 00 00 0a d0 00 01 00 ad 80 
[17:25:49-665]
[17:25:50-025]feed
[17:25:50-025]device:9100334 csq:0 net:1 server:1, relay:1
[17:25:50-525]feed
[17:25:51-025]feed
[17:25:51-040]device:9100334 csq:0 net:1 server:1, relay:1
[17:25:51-244]Rw:  len=8, data=02 03 00 14 00 04 04 3e 
[17:25:51-540]Rr:  len=1, data=feed
[17:25:52-040]feed
[17:25:52-040]device:9100334 csq:0 net:1 server:1, relay:1
[17:25:52-040]now: 2023-01-13 17:25:49
[17:25:52-259]Update model <PH-201>
[17:25:52-540]feed
[17:25:53-040]feed
[17:25:53-040]device:9100334 csq:0 net:1 server:1, relay:1
[17:25:53-259]indicators_values[1].sensor = NULL
[17:25:53-275]indicators_values[2].sensor = NULL
[17:25:53-275]air blow: err: 1, rst: 1, status: -2
[17:25:53-275]Rw:  len=8, data=fb 03 00 00 00 0a d1 97 
[17:25:53-540]Rr:  len=1, data=feed
[17:25:53-540]CSQ: 6
[17:25:54-040]feed
[17:25:54-040]device:9100334 csq:6 net:1 server:1, relay:1
[17:25:54-541]feed
[17:25:54-666]Pr:  len=13, data=00 8a dc 2e 03 40 00 00 02 00 00 01 00 
[17:25:54-666]Pr:  len=2, data=86 11 
[17:25:54-681]Pw:  len=42, data=00 8a dc 2e 03 40 00 00 02 d0 00 01 1b 01 00 00 01 00 00 59 2d 35 31 35 00 00 00 00 00 04 5a 00 8a dc 2e 00 00 00 00 00 1c 1c 
[17:25:54-697]
[17:25:55-056]feed
[17:25:55-056]device:9100334 csq:6 net:1 server:1, relay:1
[17:25:55-056]now: 2023-01-13 17:25:52
[17:25:55-291]air blow: err: 2, rst: 1, status: -2
[17:25:55-291]Rw:  len=8, data=fb 03 00 00 00 0a d1 97 
[17:25:55-556]Rr:  len=1, data=feed
[17:25:56-056]feed
[17:25:56-056]device:9100334 csq:6 net:1 server:1, relay:1
[17:25:56-556]feed
[17:25:57-056]feed
[17:25:57-056]device:9100334 csq:6 net:1 server:1, relay:1
[17:25:57-306]air blow: err: 3, rst: 1, status: -2
[17:25:57-306]Rw:  len=8, data=fb 03 00 00 00 0a d1 97 
[17:25:57-556]Rr:  len=1, data=feed
[17:25:58-056]feed
[17:25:58-056]device:9100334 csq:6 net:1 server:1, relay:1
[17:25:58-072]now: 2023-01-13 17:25:55
[17:25:58-556]feed
[17:25:59-072]feed
[17:25:59-072]device:9100334 csq:6 net:1 server:1, relay:1
[17:25:59-322]air blow: err: 4, rst: 1, status: -2
[17:25:59-322]Rw:  len=8, data=fb 03 00 00 00 0a d1 97 
[17:25:59-572]Rr:  len=1, data=feed
[17:25:59-697]Pr:  len=13, data=00 8a dc 2e 03 40 00 00 07 00 00 01 01 
[17:25:59-697]Pr:  len=1, data=01 
[17:25:59-713]Pr:  len=2, data=50 a7 
[17:25:59-713]Pw:  len=18, data=00 8a dc 2e 03 40 00 00 07 d0 00 01 03 01 00 00 ad cf 
[17:25:59-713]
[17:26:00-072]feed
[17:26:00-072]device:9100334 csq:6 net:1 server:1, relay:1
[17:26:00-572]feed
[17:26:01-072]feed
[17:26:01-072]device:9100334 csq:6 net:1 server:1, relay:1
[17:26:01-072]now: 2023-01-13 17:25:58
[17:26:01-338]air blow: err: 5, rst: 1, status: -2
[17:26:01-338]Rw:  len=8, data=fb 03 00 00 00 0a d1 97 
[17:26:01-572]Rr:  len=1, data=feed
[17:26:02-072]feed
[17:26:02-088]device:9100334 csq:6 net:1 server:1, relay:1
[17:26:02-588]feed
[17:26:03-088]feed
[17:26:03-088]device:9100334 csq:6 net:1 server:1, relay:1
[17:26:03-353]air blow: err: 6, rst: 1, status: -2
[17:26:03-353]Rw:  len=8, data=fb 03 00 00 00 0a d1 97 
[17:26:03-588]Rr:  len=1, data=feed
[17:26:04-088]feed
[17:26:04-088]device:9100334 csq:6 net:1 server:1, relay:1
[17:26:04-088]now: 2023-01-13 17:26:01
[17:26:04-588]feed
[17:26:05-088]feed
[17:26:05-088]device:9100334 csq:6 net:1 server:1, relay:1
[17:26:05-369]air blow: err: 7, rst: 1, status: -2
[17:26:05-369]Rw:  len=8, data=fb 03 00 00 00 0a d1 97 
[17:26:05-588]Rr:  len=1, data=feed
[17:26:06-088]feed
[17:26:06-103]device:9100334 csq:6 net:1 server:1, relay:1
[17:26:06-603]feed
[17:26:06-635]CSQ: 6
[17:26:07-103]feed
[17:26:07-103]device:9100334 csq:6 net:1 server:1, relay:1
[17:26:07-103]now: 2023-01-13 17:26:04
[17:26:07-385]air blow: err: 8, rst: 1, status: -2
[17:26:07-400]Rw:  len=8, data=fb 03 00 00 00 0a d1 97 
[17:26:07-603]Rr:  len=1, data=feed
[17:26:08-103]feed
[17:26:08-103]device:9100334 csq:6 net:1 server:1, relay:1
[17:26:08-603]feed
[17:26:09-103]feed
[17:26:09-103]device:9100334 csq:6 net:1 server:1, relay:1
[17:26:09-400]air blow: err: 9, rst: 1, status: -2
[17:26:09-416]Rw:  len=8, data=fb 03 00 00 00 0a d1 97 
[17:26:09-603]Rr:  len=1, data=feed
[17:26:10-103]feed
[17:26:10-119]device:9100334 csq:6 net:1 server:1, relay:1
[17:26:10-119]now: 2023-01-13 17:26:07
[17:26:10-619]feed
[17:26:11-119]feed
[17:26:11-119]device:9100334 csq:6 net:1 server:1, relay:1
[17:26:11-619]feed
[17:26:12-119]feed
[17:26:12-119]device:9100334 csq:6 net:1 server:1, relay:1
[17:26:12-619]feed
[17:26:13-119]feed
[17:26:13-119]device:9100334 csq:6 net:1 server:1, relay:1
[17:26:13-135]now: 2023-01-13 17:26:10
[17:26:13-619]feed
[17:26:14-119]feed
[17:26:14-135]device:9100334 csq:6 net:1 server:1, relay:1
[17:26:14-635]feed
[17:26:15-135]feed
[17:26:15-135]device:9100334 csq:6 net:1 server:1, relay:1
[17:26:15-635]feed
[17:26:16-135]feed
[17:26:16-135]device:9100334 csq:6 net:1 server:1, relay:1
[17:26:16-135]now: 2023-01-13 17:26:13
[17:26:16-432]air blow: err: 0, rst: 2, status: -1
[17:26:16-432]Rw:  len=8, data=fb 03 00 00 00 0a d1 97 
[17:26:16-635]Rr:  len=1, data=feed
[17:26:17-135]feed
[17:26:17-135]device:9100334 csq:6 net:1 server:1, relay:1
[17:26:17-635]feed
[17:26:17-885]<Recv>:
[17:26:17-885]id = 18f61111, dlc = 7
[17:26:17-885]04 48 08 5c 08 52 08 
[17:26:17-885]power in:cfg=4, VA=212(V), VB=214(V), VC=213(V)
[17:26:18-135]feed
[17:26:18-150]device:9100334 csq:6 net:1 server:1, relay:1
[17:26:18-447]air blow: err: 1, rst: 2, status: -2
[17:26:18-447]Rw:  len=8, data=fb 03 00 00 00 0a d1 97 
[17:26:18-650]Rr:  len=1, data=feed
[17:26:19-150]feed
[17:26:19-150]device:9100334 csq:6 net:1 server:1, relay:1
[17:26:19-150]now: 2023-01-13 17:26:16
[17:26:19-650]feed
[17:26:19-713]CSQ: 6
[17:26:20-150]feed
[17:26:20-150]device:9100334 csq:6 net:1 server:1, relay:1
[17:26:20-463]air blow: err: 2, rst: 2, status: -2
[17:26:20-463]Rw:  len=8, data=fb 03 00 00 00 0a d1 97 
[17:26:20-650]Rr:  len=1, data=feed
[17:26:21-150]feed
[17:26:21-150]device:9100334 csq:6 net:1 server:1, relay:1
[17:26:21-650]feed
[17:26:22-166]feed
[17:26:22-166]device:9100334 csq:6 net:1 server:1, relay:1
[17:26:22-166]now: 2023-01-13 17:26:19
[17:26:22-478]air blow: err: 3, rst: 2, status: -2
[17:26:22-478]Rw:  len=8, data=fb 03 00 00 00 0a d1 97 
[17:26:22-666]Rr:  len=1, data=feed
[17:26:23-166]feed
[17:26:23-166]device:9100334 csq:6 net:1 server:1, relay:1
[17:26:23-666]feed
[17:26:24-166]feed
[17:26:24-166]device:9100334 csq:6 net:1 server:1, relay:1
[17:26:24-494]air blow: err: 4, rst: 2, status: -2
[17:26:24-494]Rw:  len=8, data=fb 03 00 00 00 0a d1 97 
[17:26:24-666]Rr:  len=1, data=feed
[17:26:25-166]feed
[17:26:25-166]device:9100334 csq:6 net:1 server:1, relay:1
[17:26:25-182]now: 2023-01-13 17:26:22
[17:26:25-666]feed
[17:26:26-182]feed
[17:26:26-182]device:9100334 csq:6 net:1 server:1, relay:1
[17:26:26-510]air blow: err: 5, rst: 2, status: -2
[17:26:26-510]Rw:  len=8, data=fb 03 00 00 00 0a d1 97 
[17:26:26-682]Rr:  len=1, data=feed
[17:26:27-182]feed
[17:26:27-182]device:9100334 csq:6 net:1 server:1, relay:1
[17:26:27-682]feed
[17:26:28-182]feed
[17:26:28-182]device:9100334 csq:6 net:1 server:1, relay:1
[17:26:28-182]now: 2023-01-13 17:26:25
[17:26:28-525]air blow: err: 6, rst: 2, status: -2
[17:26:28-525]Rw:  len=8, data=fb 03 00 00 00 0a d1 97 
[17:26:28-682]Rr:  len=1, data=feed
[17:26:29-182]feed
[17:26:29-197]device:9100334 csq:6 net:1 server:1, relay:1
[17:26:29-697]feed
[17:26:30-197]feed
[17:26:30-197]device:9100334 csq:6 net:1 server:1, relay:1
[17:26:30-541]air blow: err: 7, rst: 2, status: -2
[17:26:30-541]Rw:  len=8, data=fb 03 00 00 00 0a d1 97 
[17:26:30-697]Rr:  len=1, data=feed
[17:26:31-197]feed
[17:26:31-197]device:9100334 csq:6 net:1 server:1, relay:1
[17:26:31-197]now: 2023-01-13 17:26:28
[17:26:31-697]feed
[17:26:32-197]feed
[17:26:32-197]device:9100334 csq:6 net:1 server:1, relay:1
[17:26:32-557]air blow: err: 8, rst: 2, status: -2
[17:26:32-572]Rw:  len=8, data=fb 03 00 00 00 0a d1 97 
[17:26:32-572]Rr:  len=1, data=CSQ: 6
[17:26:32-697]feed
[17:26:33-197]feed
[17:26:33-213]device:9100334 csq:6 net:1 server:1, relay:1
[17:26:33-713]feed
[17:26:34-213]feed
[17:26:34-213]device:9100334 csq:6 net:1 server:1, relay:1
[17:26:34-213]now: 2023-01-13 17:26:31
[17:26:34-572]air blow: err: 9, rst: 2, status: -2
[17:26:34-588]Rw:  len=8, data=fb 03 00 00 00 0a d1 97 
[17:26:34-713]Rr:  len=1, data=feed
[17:26:35-213]feed
[17:26:35-213]device:9100334 csq:6 net:1 server:1, relay:1
[17:26:35-713]feed
[17:26:36-213]feed
[17:26:36-213]device:9100334 csq:6 net:1 server:1, relay:1
[17:26:36-713]feed
[17:26:37-213]feed
[17:26:37-229]device:9100334 csq:6 net:1 server:1, relay:1
[17:26:37-229]now: 2023-01-13 17:26:34
[17:26:37-729]feed
[17:26:38-229]feed
[17:26:38-229]device:9100334 csq:6 net:1 server:1, relay:1
[17:26:38-729]feed
[17:26:39-223]feed
[17:26:39-223]device:9100334 csq:6 net:1 server:1, relay:1
[17:26:39-723]feed
[17:26:40-239]feed
[17:26:40-239]device:9100334 csq:6 net:1 server:1, relay:1
[17:26:40-239]now: 2023-01-13 17:26:37
[17:26:40-739]feed
[17:26:41-239]feed
[17:26:41-239]device:9100334 csq:6 net:1 server:1, relay:1
[17:26:41-598]air blow: err: 0, rst: 3, status: -1
[17:26:41-598]Rw:  len=8, data=fb 03 00 00 00 0a d1 97 
[17:26:41-739]Rr:  len=1, data=feed
[17:26:42-239]feed
[17:26:42-239]device:9100334 csq:6 net:1 server:1, relay:1
[17:26:42-739]feed
[17:26:43-254]feed
[17:26:43-254]device:9100334 csq:6 net:1 server:1, relay:1
[17:26:43-254]now: 2023-01-13 17:26:40
[17:26:43-614]air blow: err: 1, rst: 3, status: -2
[17:26:43-614]Rw:  len=8, data=fb 03 00 00 00 0a d1 97 
[17:26:43-754]Rr:  len=1, data=feed
[17:26:44-254]feed
[17:26:44-254]device:9100334 csq:6 net:1 server:1, relay:1
[17:26:44-754]feed
[17:26:45-254]feed
[17:26:45-254]device:9100334 csq:6 net:1 server:1, relay:1
[17:26:45-629]air blow: err: 2, rst: 3, status: -2
[17:26:45-629]Rw:  len=8, data=fb 03 00 00 00 0a d1 97 
[17:26:45-645]Rr:  len=1, data=CSQ: 6
[17:26:45-754]feed
[17:26:46-255]feed
[17:26:46-255]device:9100334 csq:6 net:1 server:1, relay:1
[17:26:46-255]now: 2023-01-13 17:26:43
[17:26:46-754]feed
[17:26:47-255]feed
[17:26:47-270]device:9100334 csq:6 net:1 server:1, relay:1
[17:26:47-645]air blow: err: 3, rst: 3, status: -2
[17:26:47-645]Rw:  len=8, data=fb 03 00 00 00 0a d1 97 
[17:26:47-770]Rr:  len=1, data=feed
[17:26:47-880]<Recv>:
[17:26:47-895]id = 18f61111, dlc = 7
[17:26:47-895]04 48 08 5c 08 52 08 
[17:26:47-895]power in:cfg=4, VA=212(V), VB=214(V), VC=213(V)
[17:26:48-270]feed
[17:26:48-270]device:9100334 csq:6 net:1 server:1, relay:1
[17:26:48-770]feed
[17:26:49-270]feed
[17:26:49-270]device:9100334 csq:6 net:1 server:1, relay:1
[17:26:49-270]now: 2023-01-13 17:26:46
[17:26:49-661]air blow: err: 4, rst: 3, status: -2
[17:26:49-661]Rw:  len=8, data=fb 03 00 00 00 0a d1 97 
[17:26:49-770]Rr:  len=1, data=feed
[17:26:50-270]feed
[17:26:50-270]device:9100334 csq:6 net:1 server:1, relay:1
[17:26:50-770]feed
[17:26:51-270]feed
[17:26:51-286]device:9100334 csq:6 net:1 server:1, relay:1
[17:26:51-677]air blow: err: 5, rst: 3, status: -2
[17:26:51-692]Rw:  len=8, data=fb 03 00 00 00 0a d1 97 
[17:26:51-786]Rr:  len=1, data=feed
[17:26:52-286]feed
[17:26:52-286]device:9100334 csq:6 net:1 server:1, relay:1
[17:26:52-286]now: 2023-01-13 17:26:49
[17:26:52-786]feed
[17:26:53-286]feed
[17:26:53-286]device:9100334 csq:6 net:1 server:1, relay:1
[17:26:53-692]air blow: err: 6, rst: 3, status: -2
[17:26:53-708]Rw:  len=8, data=fb 03 00 00 00 0a d1 97 
[17:26:53-786]Rr:  len=1, data=feed
[17:26:54-286]feed
[17:26:54-286]device:9100334 csq:6 net:1 server:1, relay:1
[17:26:54-786]feed
[17:26:55-286]feed
[17:26:55-302]device:9100334 csq:6 net:1 server:1, relay:1
[17:26:55-302]now: 2023-01-13 17:26:52
[17:26:55-723]air blow: err: 7, rst: 3, status: -2
[17:26:55-723]Rw:  len=8, data=fb 03 00 00 00 0a d1 97 
[17:26:55-802]Rr:  len=1, data=feed
[17:26:56-302]feed
[17:26:56-302]device:9100334 csq:6 net:1 server:1, relay:1
[17:26:56-802]feed
[17:26:57-302]feed
[17:26:57-302]device:9100334 csq:6 net:1 server:1, relay:1
[17:26:57-739]air blow: err: 8, rst: 3, status: -2
[17:26:57-739]Rw:  len=8, data=fb 03 00 00 00 0a d1 97 
[17:26:57-802]Rr:  len=1, data=feed
[17:26:58-302]feed
[17:26:58-302]device:9100334 csq:6 net:1 server:1, relay:1
[17:26:58-317]now: 2023-01-13 17:26:55
[17:26:58-489]CSQ: 6
[17:26:58-802]feed
[17:26:59-302]feed
[17:26:59-317]device:9100334 csq:6 net:1 server:1, relay:1
[17:26:59-755]air blow: err: 9, rst: 3, status: -2
[17:26:59-755]Rw:  len=8, data=fb 03 00 00 00 0a d1 97 
[17:26:59-817]Rr:  len=1, data=feed
[17:27:00-317]feed
[17:27:00-317]device:9100334 csq:6 net:1 server:1, relay:1
[17:27:00-817]feed
[17:27:01-317]feed
[17:27:01-317]device:9100334 csq:6 net:1 server:1, relay:1
[17:27:01-317]now: 2023-01-13 17:26:58
[17:27:01-770]Rw:  len=8, data=01 06 00 0a 00 00 a9 c8 
[17:27:01-817]Rr:  len=1, data=feed
[17:27:02-317]feed
[17:27:02-317]device:9100334 csq:6 net:1 server:1, relay:1
[17:27:02-770]read each start
[17:27:02-786]Rw:  len=8, data=01 03 00 00 00 05 85 c9 
[17:27:02-817]Rr:  len=1, data=feed
[17:27:03-020]Pr:  len=13, data=00 8a dc 2e 16 40 00 01 0b 00 00 01 06 
[17:27:03-020]Pr:  len=6, data=01 80 00 01 00 14 
[17:27:03-020]Pr:  len=2, data=d2 35 
[17:27:03-036]eeprom write: 1576 page
[17:27:03-036]01 01 01 17 01 0d 11 1b 00 17 01 0d 11 2f 00 00 00 00 00 00 00 00 00 00 00 00 00 00 00 00 0e 01 
[17:27:03-052]Pw:  len=15, data=00 8a dc 2e 16 40 00 01 0b d0 00 01 00 91 91 
[17:27:03-052]
[17:27:03-317]feed
[17:27:03-333]device:9100334 csq:6 net:1 server:1, relay:1
[17:27:03-333]set_ch <1> = ON
[17:27:03-333]<USend>:
[17:27:03-333]id = 0c501101, dlc = 7
[17:27:03-333]01 01 03 00 00 00 00 
[17:27:03-348]<Recv>:
[17:27:03-348]id = 18e80111, dlc = 4
[17:27:03-348]50 00 00 00 
[17:27:03-348]dev_respon:PGN=5000,status=0
[17:27:03-395]<Recv>:
[17:27:03-395]id = 18f51111, dlc = 6
[17:27:03-395]01 00 02 00 00 00 
[17:27:03-395]dev_relay:ch=1, os=0, ks=2, err=0, cur=0(mA)
[17:27:03-395]<Recv>:
[17:27:03-395]id = 18f51111, dlc = 6
[17:27:03-395]02 00 02 00 00 00 
[17:27:03-411]dev_relay:ch=2, os=0, ks=2, err=0, cur=0(mA)
[17:27:03-411]<Recv>:
[17:27:03-411]id = 18f51111, dlc = 6
[17:27:03-411]03 00 02 00 00 00 
[17:27:03-411]dev_relay:ch=3, os=0, ks=2, err=0, cur=0(mA)
[17:27:03-411]<Recv>:
[17:27:03-427]id = 18f51111, dlc = 6
[17:27:03-427]04 00 02 00 01 00 
[17:27:03-427]dev_relay:ch=4, os=0, ks=2, err=0, cur=10(mA)
[17:27:03-427]<Recv>:
[17:27:03-427]id = 18f51111, dlc = 6
[17:27:03-427]05 00 02 00 01 00 
[17:27:03-427]dev_relay:ch=5, os=0, ks=2, err=0, cur=10(mA)
[17:27:03-614]<Recv>:
[17:27:03-614]id = 18f51111, dlc = 6
[17:27:03-630]01 01 02 00 00 00 
[17:27:03-630]dev_relay:ch=1, os=1, ks=2, err=0, cur=0(mA)
[17:27:03-630]<Recv>:
[17:27:03-630]id = 18f51111, dlc = 6
[17:27:03-630]02 00 02 00 00 00 
[17:27:03-630]dev_relay:ch=2, os=0, ks=2, err=0, cur=0(mA)
[17:27:03-645]<Recv>:
[17:27:03-645]id = 18f51111, dlc = 6
[17:27:03-645]03 00 02 00 00 00 
[17:27:03-645]dev_relay:ch=3, os=0, ks=2, err=0, cur=0(mA)
[17:27:03-645]<Recv>:
[17:27:03-645]id = 18f51111, dlc = 6
[17:27:03-645]04 00 02 00 01 00 
[17:27:03-661]dev_relay:ch=4, os=0, ks=2, err=0, cur=10(mA)
[17:27:03-661]<Recv>:
[17:27:03-661]id = 18f51111, dlc = 6
[17:27:03-661]05 00 02 00 01 00 
[17:27:03-661]dev_relay:ch=5, os=0, ks=2, err=0, cur=10(mA)
[17:27:03-786]
[17:27:03-786]Sensors read rc -2 s -2
[17:27:03-833]feed
[17:27:04-145]<Recv>:
[17:27:04-145]id = 18f51111, dlc = 6
[17:27:04-145]01 01 02 01 00 00 
[17:27:04-161]dev_relay:ch=1, os=1, ks=2, err=1, cur=0(mA)
[17:27:04-161]<Recv>:
[17:27:04-161]id = 18f51111, dlc = 6
[17:27:04-161]02 00 02 00 00 00 
[17:27:04-161]dev_relay:ch=2, os=0, ks=2, err=0, cur=0(mA)
[17:27:04-161]<Recv>:
[17:27:04-177]id = 18f51111, dlc = 6
[17:27:04-177]03 00 02 00 00 00 
[17:27:04-177]dev_relay:ch=3, os=0, ks=2, err=0, cur=0(mA)
[17:27:04-177]<Recv>:
[17:27:04-177]id = 18f51111, dlc = 6
[17:27:04-177]04 00 02 00 01 00 
[17:27:04-192]dev_relay:ch=4, os=0, ks=2, err=0, cur=10(mA)
[17:27:04-192]<Recv>:
[17:27:04-192]id = 18f51111, dlc = 6
[17:27:04-192]05 00 02 00 01 00 
[17:27:04-192]dev_relay:ch=5, os=0, ks=2, err=0, cur=10(mA)
[17:27:04-333]feed
[17:27:04-333]device:9100334 csq:6 net:1 server:1, relay:1
[17:27:04-802]Rw:  len=8, data=02 03 00 00 00 03 05 f8 
[17:27:04-833]Rr:  len=1, data=feed
[17:27:05-333]feed
[17:27:05-333]device:9100334 csq:6 net:1 server:1, relay:1
[17:27:05-802]
[17:27:05-802]Sensors read rc -2 s -2
[17:27:05-833]feed
[17:27:06-333]feed
[17:27:06-333]device:9100334 csq:6 net:1 server:1, relay:1
[17:27:06-442]now: 2023-01-13 17:27:03
[17:27:06-442][0]broken_index<0> = broken_type<1>
[17:27:06-458]Pw:  len=52, data=00 8a dc 2e 03 40 00 00 12 d0 00 01 25 01 17 01 0d 11 1b 03 ff fc 00 00 00 00 80 00 80 00 f8 00 00 00 80 00 00 00 80 00 00 00 00 00 00 00 00 00 00 00 1c 49 
[17:27:06-458]
[17:27:06-817]read each end
[17:27:06-817]indicators_values[1].sensor = 20000a1c
[17:27:06-817]indicators_values[2].sensor = 20000a8c
[17:27:06-833]feed
[17:27:07-349]feed
[17:27:07-349]device:9100334 csq:6 net:1 server:1, relay:1
[17:27:07-817]air blow: err: 10, rst: 3, status: -2
[17:27:07-817]Rw:  len=8, data=fb 03 00 00 00 0a d1 97 
[17:27:07-849]Rr:  len=1, data=feed
[17:27:08-349]feed
[17:27:08-349]device:9100334 csq:6 net:1 server:1, relay:1
[17:27:08-849]feed
[17:27:09-349]feed
[17:27:09-349]device:9100334 csq:6 net:1 server:1, relay:1
[17:27:09-458]now: 2023-01-13 17:27:06
[17:27:09-677]<Recv>:
[17:27:09-677]id = 18f51111, dlc = 6
[17:27:09-677]01 01 01 01 00 00 
[17:27:09-692]dev_relay:ch=1, os=1, ks=1, err=1, cur=0(mA)
[17:27:09-692]<Recv>:
[17:27:09-692]id = 18f51111, dlc = 6
[17:27:09-692]02 00 02 00 00 00 
[17:27:09-692]dev_relay:ch=2, os=0, ks=2, err=0, cur=0(mA)
[17:27:09-692]<Recv>:
[17:27:09-708]id = 18f51111, dlc = 6
[17:27:09-708]03 00 02 00 00 00 
[17:27:09-708]dev_relay:ch=3, os=0, ks=2, err=0, cur=0(mA)
[17:27:09-708]<Recv>:
[17:27:09-708]id = 18f51111, dlc = 6
[17:27:09-708]04 00 02 00 02 00 
[17:27:09-708]dev_relay:ch=4, os=0, ks=2, err=0, cur=20(mA)
[17:27:09-708]<Recv>:
[17:27:09-724]id = 18f51111, dlc = 6
[17:27:09-724]05 00 02 00 01 00 
[17:27:09-724]dev_relay:ch=5, os=0, ks=2, err=0, cur=10(mA)
[17:27:09-833]probe u_value = 0
[17:27:09-833]probe u_value = 0
[17:27:09-833]probe u_value = 0
[17:27:09-849]Rw:  len=8, data=01 06 00 0a 00 00 a9 c8 
[17:27:10-349]Rr:  len=1, data=feed
[17:27:10-364]device:9100334 csq:6 net:1 server:1, relay:1
[17:27:10-458]key<1> press
[17:27:10-849]read each start
[17:27:10-864]Rw:  len=8, data=01 03 00 00 00 05 85 c9 
[17:27:11-364]Rr:  len=1, data=feed
[17:27:11-364]device:9100334 csq:6 net:1 server:1, relay:1
[17:27:11-614]CSQ: 6
[17:27:11-864]feed
[17:27:11-864]
[17:27:11-864]Sensors read rc -2 s -2
[17:27:12-364]feed
[17:27:12-364]device:9100334 csq:6 net:1 server:1, relay:1
[17:27:12-474]now: 2023-01-13 17:27:09
[17:27:12-864]feed
[17:27:12-880]Rw:  len=8, data=02 03 00 00 00 03 05 f8 
[17:27:13-364]Rr:  len=1, data=feed
[17:27:13-364]device:9100334 csq:6 net:1 server:1, relay:1
[17:27:13-864]feed
[17:27:13-880]
[17:27:13-880]Sensors read rc -2 s -2
[17:27:14-364]feed
[17:27:14-380]device:9100334 csq:6 net:1 server:1, relay:1
[17:27:14-880]feed
[17:27:14-880]read each end
[17:27:14-896]indicators_values[1].sensor = 20000a1c
[17:27:14-896]indicators_values[2].sensor = 20000a8c
[17:27:15-380]feed
[17:27:15-380]device:9100334 csq:6 net:1 server:1, relay:1
[17:27:15-474]now: 2023-01-13 17:27:12
[17:27:15-880]feed
[17:27:15-896]air blow: err: 10, rst: 3, status: -2
[17:27:15-896]Rw:  len=8, data=fb 03 00 00 00 0a d1 97 
[17:27:16-380]Rr:  len=1, data=feed
[17:27:16-380]device:9100334 csq:6 net:1 server:1, relay:1
[17:27:16-880]feed
[17:27:17-380]feed
[17:27:17-380]device:9100334 csq:6 net:1 server:1, relay:1
[17:27:17-880]feed
[17:27:17-911]probe u_value = 0
[17:27:17-911]probe u_value = 0
[17:27:17-911]probe u_value = 0
[17:27:17-911]Rw:  len=8, data=01 06 00 0a 00 00 a9 c8 
[17:27:17-927]Rr:  len=1, data=Pw:  len=15, data=00 8a dc 2e 03 40 00 00 22 d0 00 01 00 3f 16 
[17:27:17-942]
[17:27:18-208]<Recv>:
[17:27:18-208]id = 18f61111, dlc = 7
[17:27:18-208]04 48 08 52 08 52 08 
[17:27:18-224]power in:cfg=4, VA=212(V), VB=213(V), VC=213(V)
[17:27:18-255]Pr:  len=13, data=00 8a dc 2e 03 40 00 00 22 d1 00 01 00 
[17:27:18-255]Pr:  len=2, data=3e ea 
[17:27:18-380]feed
[17:27:18-396]device:9100334 csq:6 net:1 server:1, relay:1
[17:27:18-474]now: 2023-01-13 17:27:15
[17:27:18-896]feed
[17:27:18-927]read each start
[17:27:18-927]Rw:  len=8, data=01 03 00 00 00 05 85 c9 
[17:27:18-958]Rr:  len=1, data=Pr:  len=13, data=00 8a dc 2e 16 40 00 02 0b 00 00 01 06 
[17:27:18-974]Pr:  len=6, data=01 80 00 00 00 14 
[17:27:18-974]Pr:  len=2, data=87 f1 
[17:27:18-974]eeprom write: 1576 page
[17:27:18-989]01 01 00 17 01 0d 11 1b 10 17 01 0d 11 2f 10 00 00 00 00 00 00 00 00 00 00 00 00 00 00 00 11 40 
[17:27:18-989]Pw:  len=15, data=00 8a dc 2e 16 40 00 02 0b d0 00 01 00 91 a2 
[17:27:18-989]
[17:27:19-396]feed
[17:27:19-396]device:9100334 csq:6 net:1 server:1, relay:1
[17:27:19-489]Pw:  len=52, data=00 8a dc 2e 03 40 00 00 12 d0 00 01 25 01 17 01 0d 11 1b 10 ff fc 00 00 00 00 00 00 80 00 78 00 00 00 80 00 00 00 80 00 00 00 00 00 00 00 00 00 00 00 d5 b1 
[17:27:19-489]
[17:27:19-896]feed
[17:27:19-942]
[17:27:19-942]Sensors read rc -2 s -2
[17:27:20-396]feed
[17:27:20-396]device:9100334 csq:6 net:1 server:1, relay:1
[17:27:20-896]feed
[17:27:20-942]Rw:  len=8, data=02 03 00 00 00 03 05 f8 
[17:27:21-396]Rr:  len=1, data=feed
[17:27:21-396]device:9100334 csq:6 net:1 server:1, relay:1
[17:27:21-489]now: 2023-01-13 17:27:18
[17:27:21-896]feed
[17:27:21-958]
[17:27:21-958]Sensors read rc -2 s -2
[17:27:22-396]feed
[17:27:22-411]device:9100334 csq:6 net:1 server:1, relay:1
[17:27:22-911]feed
[17:27:22-958]read each end
[17:27:22-958]indicators_values[1].sensor = 20000a1c
[17:27:22-974]indicators_values[2].sensor = 20000a8c
[17:27:23-411]feed
[17:27:23-411]device:9100334 csq:6 net:1 server:1, relay:1
[17:27:23-911]feed
[17:27:23-974]air blow: err: 10, rst: 3, status: -2
[17:27:23-974]Rw:  len=8, data=fb 03 00 00 00 0a d1 97 
[17:27:24-411]Rr:  len=1, data=feed
[17:27:24-411]device:9100334 csq:6 net:1 server:1, relay:1
[17:27:24-489]CSQ: 6
[17:27:24-489]now: 2023-01-13 17:27:21
[17:27:24-911]feed
[17:27:25-411]feed
[17:27:25-411]device:9100334 csq:6 net:1 server:1, relay:1
[17:27:25-911]feed
[17:27:25-989]probe u_value = 0
[17:27:25-989]probe u_value = 0
[17:27:25-989]probe u_value = 0
[17:27:25-989]Rw:  len=8, data=01 06 00 0a 00 00 a9 c8 
[17:27:26-411]Rr:  len=1, data=feed
[17:27:26-427]device:9100334 csq:6 net:1 server:1, relay:1
[17:27:26-927]feed
[17:27:27-005]read each start
[17:27:27-005]Rw:  len=8, data=01 03 00 00 00 05 85 c9 
[17:27:27-427]Rr:  len=1, data=feed
[17:27:27-427]device:9100334 csq:6 net:1 server:1, relay:1
[17:27:27-505]now: 2023-01-13 17:27:24
[17:27:27-927]feed
[17:27:28-021]
[17:27:28-021]Sensors read rc -2 s -2
[17:27:28-427]feed
[17:27:28-427]device:9100334 csq:6 net:1 server:1, relay:1
[17:27:28-708]<Recv>:
[17:27:28-708]id = 18f51111, dlc = 6
[17:27:28-708]01 01 02 01 00 00 
[17:27:28-708]dev_relay:ch=1, os=1, ks=2, err=1, cur=0(mA)
[17:27:28-724]<Recv>:
[17:27:28-724]id = 18f51111, dlc = 6
[17:27:28-724]02 00 02 00 00 00 
[17:27:28-739]dev_relay:ch=2, os=0, ks=2, err=0, cur=0(mA)
[17:27:28-739]<Recv>:
[17:27:28-739]id = 18f51111, dlc = 6
[17:27:28-739]03 00 02 00 00 00 
[17:27:28-739]dev_relay:ch=3, os=0, ks=2, err=0, cur=0(mA)
[17:27:28-739]<Recv>:
[17:27:28-739]id = 18f51111, dlc = 6
[17:27:28-739]04 00 02 00 02 00 
[17:27:28-755]dev_relay:ch=4, os=0, ks=2, err=0, cur=20(mA)
[17:27:28-755]<Recv>:
[17:27:28-755]id = 18f51111, dlc = 6
[17:27:28-755]05 00 02 00 01 00 
[17:27:28-755]dev_relay:ch=5, os=0, ks=2, err=0, cur=10(mA)
[17:27:28-927]feed
[17:27:29-021]Rw:  len=8, data=02 03 00 00 00 03 05 f8 
[17:27:29-427]Rr:  len=1, data=feed
[17:27:29-427]device:9100334 csq:6 net:1 server:1, relay:1
[17:27:29-505]key<1> release
[17:27:29-505]set_ch <1> = OFF
[17:27:29-505]<USend>:
[17:27:29-505]id = 0c501101, dlc = 7
[17:27:29-505]01 00 03 00 00 00 00 
[17:27:29-521]<Recv>:
[17:27:29-521]id = 18e80111, dlc = 4
[17:27:29-521]50 00 00 00 
[17:27:29-521]dev_respon:PGN=5000,status=0
[17:27:29-927]feed
[17:27:29-943]<Recv>:
[17:27:29-943]id = 18f51111, dlc = 6
[17:27:29-943]01 00 02 00 00 00 
[17:27:29-958]dev_relay:ch=1, os=0, ks=2, err=0, cur=0(mA)
[17:27:29-958]<Recv>:
[17:27:29-958]id = 18f51111, dlc = 6
[17:27:29-958]02 00 02 00 00 00 
[17:27:29-958]dev_relay:ch=2, os=0, ks=2, err=0, cur=0(mA)
[17:27:29-958]<Recv>:
[17:27:29-974]id = 18f51111, dlc = 6
[17:27:29-974]03 00 02 00 00 00 
[17:27:29-974]dev_relay:ch=3, os=0, ks=2, err=0, cur=0(mA)
[17:27:29-974]<Recv>:
[17:27:29-974]id = 18f51111, dlc = 6
[17:27:29-974]04 00 02 00 03 00 
[17:27:29-974]dev_relay:ch=4, os=0, ks=2, err=0, cur=30(mA)
[17:27:29-974]<Recv>:
[17:27:29-989]id = 18f51111, dlc = 6
[17:27:29-989]05 00 02 00 01 00 
[17:27:29-989]dev_relay:ch=5, os=0, ks=2, err=0, cur=10(mA)
[17:27:30-036]
[17:27:30-036]Sensors read rc -2 s -2
[17:27:30-443]feed
[17:27:30-443]device:9100334 csq:6 net:1 server:1, relay:1
[17:27:30-943]feed
[17:27:31-036]read each end
[17:27:31-036]indicators_values[1].sensor = 20000a1c
[17:27:31-036]indicators_values[2].sensor = 20000a8c
[17:27:31-443]feed
[17:27:31-443]device:9100334 csq:6 net:1 server:1, relay:1
[17:27:31-943]feed
[17:27:32-052]air blow: err: 10, rst: 3, status: -2
[17:27:32-052]Rw:  len=8, data=fb 03 00 00 00 0a d1 97 
[17:27:32-443]Rr:  len=1, data=feed
[17:27:32-443]device:9100334 csq:6 net:1 server:1, relay:1
[17:27:32-614]now: 2023-01-13 17:27:29
[17:27:32-614][0]broken_index<0> = broken_type<0>
[17:27:32-630]Pw:  len=52, data=00 8a dc 2e 03 40 00 00 12 d0 00 01 25 01 17 01 0d 11 1b 1d ff fc 00 00 00 00 00 00 80 00 78 00 00 00 00 00 00 00 00 00 00 00 00 00 00 00 00 00 00 00 e7 a9 
[17:27:32-630]
[17:27:32-943]feed
[17:27:33-443]feed
[17:27:33-458]device:9100334 csq:6 net:1 server:1, relay:1
[17:27:33-958]feed
[17:27:34-068]probe u_value = 0
[17:27:34-068]probe u_value = 0
[17:27:34-068]probe u_value = 0
[17:27:34-068]Rw:  len=8, data=01 06 00 0a 00 00 a9 c8 
[17:27:34-458]Rr:  len=1, data=feed
[17:27:34-458]device:9100334 csq:6 net:1 server:1, relay:1
[17:27:34-958]feed
[17:27:35-083]read each start
[17:27:35-083]Rw:  len=8, data=01 03 00 00 00 05 85 c9 
[17:27:35-458]Rr:  len=1, data=feed
[17:27:35-458]device:9100334 csq:6 net:1 server:1, relay:1
[17:27:35-630]now: 2023-01-13 17:27:32
[17:27:35-958]feed
[17:27:36-099]
[17:27:36-099]Sensors read rc -2 s -2
[17:27:36-458]feed
[17:27:36-458]device:9100334 csq:6 net:1 server:1, relay:1
[17:27:36-958]feed
[17:27:37-099]Rw:  len=8, data=02 03 00 00 00 03 05 f8 
[17:27:37-458]Rr:  len=1, data=feed
[17:27:37-474]device:9100334 csq:6 net:1 server:1, relay:1
[17:27:37-615]CSQ: 6
[17:27:37-974]feed
[17:27:38-115]
[17:27:38-115]Sensors read rc -2 s -2
[17:27:38-474]feed
[17:27:38-474]device:9100334 csq:6 net:1 server:1, relay:1
[17:27:38-630]now: 2023-01-13 17:27:35
[17:27:38-974]feed
[17:27:39-115]read each end
[17:27:39-115]indicators_values[1].sensor = 20000a1c
[17:27:39-115]indicators_values[2].sensor = 20000a8c
[17:27:39-177]<Recv>:
[17:27:39-177]id = 18f51111, dlc = 6
[17:27:39-177]01 01 01 01 00 00 
[17:27:39-193]dev_relay:ch=1, os=1, ks=1, err=1, cur=0(mA)
[17:27:39-193]<Recv>:
[17:27:39-193]id = 18f51111, dlc = 6
[17:27:39-193]02 00 02 00 00 00 
[17:27:39-193]dev_relay:ch=2, os=0, ks=2, err=0, cur=0(mA)
[17:27:39-193]<Recv>:
[17:27:39-193]id = 18f51111, dlc = 6
[17:27:39-193]03 00 02 00 00 00 
[17:27:39-208]dev_relay:ch=3, os=0, ks=2, err=0, cur=0(mA)
[17:27:39-208]<Recv>:
[17:27:39-208]id = 18f51111, dlc = 6
[17:27:39-208]04 00 02 00 01 00 
[17:27:39-208]dev_relay:ch=4, os=0, ks=2, err=0, cur=10(mA)
[17:27:39-208]<Recv>:
[17:27:39-208]id = 18f51111, dlc = 6
[17:27:39-224]05 00 02 00 01 00 
[17:27:39-224]dev_relay:ch=5, os=0, ks=2, err=0, cur=10(mA)
[17:27:39-474]feed
[17:27:39-474]device:9100334 csq:6 net:1 server:1, relay:1
[17:27:39-646]key<1> press
[17:27:39-646]get_ch <1> = ON
[17:27:39-974]feed
[17:27:40-130]air blow: err: 10, rst: 3, status: -2
[17:27:40-130]Rw:  len=8, data=fb 03 00 00 00 0a d1 97 
[17:27:40-474]Rr:  len=1, data=feed
[17:27:40-474]device:9100334 csq:6 net:1 server:1, relay:1
[17:27:40-630][0]broken_index<0> = broken_type<1>
[17:27:40-661]Pw:  len=52, data=00 8a dc 2e 03 40 00 00 12 d0 00 01 25 01 17 01 0d 11 1b 25 ff fc 00 00 00 00 80 00 80 00 f8 00 00 00 80 00 00 00 80 00 00 00 00 00 00 00 00 00 00 00 7d 98 
[17:27:40-661]
[17:27:40-974]feed
[17:27:41-474]feed
[17:27:41-490]device:9100334 csq:6 net:1 server:1, relay:1
[17:27:41-662]now: 2023-01-13 17:27:39
[17:27:41-990]feed
[17:27:42-130]probe u_value = 0
[17:27:42-146]probe u_value = 0
[17:27:42-146]probe u_value = 0
[17:27:42-146]Rw:  len=8, data=01 06 00 0a 00 00 a9 c8 
[17:27:42-490]Rr:  len=1, data=feed
[17:27:42-490]device:9100334 csq:6 net:1 server:1, relay:1
[17:27:42-990]feed
[17:27:43-162]read each start
[17:27:43-162]Rw:  len=8, data=01 03 00 00 00 05 85 c9 
[17:27:43-490]Rr:  len=1, data=feed
[17:27:43-490]device:9100334 csq:6 net:1 server:1, relay:1
[17:27:43-990]feed
[17:27:44-177]
[17:27:44-177]Sensors read rc -2 s -2
[17:27:44-490]feed
[17:27:44-490]device:9100334 csq:6 net:1 server:1, relay:1
[17:27:44-662]now: 2023-01-13 17:27:42
[17:27:44-990]feed
[17:27:45-177]Rw:  len=8, data=02 03 00 00 00 03 05 f8 
[17:27:45-490]Rr:  len=1, data=feed
[17:27:45-505]device:9100334 csq:6 net:1 server:1, relay:1
[17:27:46-005]feed
[17:27:46-193]
[17:27:46-193]Sensors read rc -2 s -2
[17:27:46-505]feed
[17:27:46-505]device:9100334 csq:6 net:1 server:1, relay:1
[17:27:47-005]feed
[17:27:47-193]read each end
[17:27:47-193]indicators_values[1].sensor = 20000a1c
[17:27:47-193]indicators_values[2].sensor = 20000a8c
[17:27:47-505]feed
[17:27:47-505]device:9100334 csq:6 net:1 server:1, relay:1
[17:27:47-677]now: 2023-01-13 17:27:45
[17:27:48-005]feed
[17:27:48-193]air blow: err: 10, rst: 3, status: -2
[17:27:48-208]Rw:  len=8, data=fb 03 00 00 00 0a d1 97 
[17:27:48-505]Rr:  len=1, data=feed
[17:27:48-505]device:9100334 csq:6 net:1 server:1, relay:1
[17:27:48-708]<Recv>:
[17:27:48-708]id = 18f61111, dlc = 7
[17:27:48-708]04 48 08 5c 08 5c 08 
[17:27:48-708]power in:cfg=4, VA=212(V), VB=214(V), VC=214(V)
[17:27:49-005]feed
[17:27:49-505]feed
[17:27:49-521]device:9100334 csq:6 net:1 server:1, relay:1
[17:27:50-021]feed
[17:27:50-208]probe u_value = 0
[17:27:50-208]probe u_value = 0
[17:27:50-208]probe u_value = 0
[17:27:50-224]Rw:  len=8, data=01 06 00 0a 00 00 a9 c8 
[17:27:50-474]Rr:  len=1, data=CSQ: 6
[17:27:50-521]feed
[17:27:50-521]device:9100334 csq:6 net:1 server:1, relay:1
[17:27:50-677]now: 2023-01-13 17:27:48
[17:27:51-021]feed
[17:27:51-099]Pr:  len=13, data=00 8a dc 2e 16 40 00 03 0b 00 00 01 06 
[17:27:51-099]Pr:  len=6, data=01 80 00 00 00 01 
[17:27:51-099]Pr:  len=2, data=bb fd 
[17:27:51-115]eeprom write: 1576 page
[17:27:51-115]01 01 00 17 01 0d 11 1b 30 17 01 0d 11 1c 30 00 00 00 00 00 00 00 00 00 00 00 00 00 00 00 ce 7d 
[17:27:51-130]Pw:  len=15, data=00 8a dc 2e 16 40 00 03 0b d0 00 01 00 90 73 
[17:27:51-130]
[17:27:51-224]read each start
[17:27:51-240]Rw:  len=8, data=01 03 00 00 00 05 85 c9 
[17:27:51-521]Rr:  len=1, data=feed
[17:27:51-521]device:9100334 csq:6 net:1 server:1, relay:1
[17:27:52-021]feed
[17:27:52-240]
[17:27:52-240]Sensors read rc -2 s -2
[17:27:52-521]feed
[17:27:52-521]device:9100334 csq:6 net:1 server:1, relay:1
[17:27:53-021]feed
[17:27:53-255]Rw:  len=8, data=02 03 00 00 00 03 05 f8 
[17:27:53-537]Rr:  len=1, data=feed
[17:27:53-537]device:9100334 csq:6 net:1 server:1, relay:1
[17:27:53-677]now: 2023-01-13 17:27:51
[17:27:54-037]feed
[17:27:54-255]
[17:27:54-255]Sensors read rc -2 s -2
[17:27:54-537]feed
[17:27:54-537]device:9100334 csq:6 net:1 server:1, relay:1
[17:27:55-037]feed
[17:27:55-255]read each end
[17:27:55-271]indicators_values[1].sensor = 20000a1c
[17:27:55-271]indicators_values[2].sensor = 20000a8c
[17:27:55-537]feed
[17:27:55-537]device:9100334 csq:6 net:1 server:1, relay:1
[17:27:56-037]feed
[17:27:56-271]air blow: err: 10, rst: 3, status: -2
[17:27:56-271]Rw:  len=8, data=fb 03 00 00 00 0a d1 97 
[17:27:56-537]Rr:  len=1, data=feed
[17:27:56-537]device:9100334 csq:6 net:1 server:1, relay:1
[17:27:56-677]now: 2023-01-13 17:27:54
[17:27:57-037]feed
[17:27:57-552]feed
[17:27:57-552]device:9100334 csq:6 net:1 server:1, relay:1
[17:27:58-052]feed
[17:27:58-287]probe u_value = 0
[17:27:58-287]probe u_value = 0
[17:27:58-287]probe u_value = 0
[17:27:58-302]Rw:  len=8, data=01 06 00 0a 00 00 a9 c8 
[17:27:58-552]Rr:  len=1, data=feed
[17:27:58-552]device:9100334 csq:6 net:1 server:1, relay:1
[17:27:59-052]feed
[17:27:59-302]read each start
[17:27:59-302]Rw:  len=8, data=01 03 00 00 00 05 85 c9 
[17:27:59-552]Rr:  len=1, data=feed
[17:27:59-552]device:9100334 csq:6 net:1 server:1, relay:1
[17:27:59-677]now: 2023-01-13 17:27:57
[17:28:00-052]feed
[17:28:00-318]
[17:28:00-318]Sensors read rc -2 s -2
[17:28:00-552]feed
[17:28:00-568]device:9100334 csq:6 net:1 server:1, relay:1
[17:28:01-068]feed
[17:28:01-318]Rw:  len=8, data=02 03 00 00 00 03 05 f8 
[17:28:01-568]Rr:  len=1, data=feed
[17:28:01-568]device:9100334 csq:6 net:1 server:1, relay:1
[17:28:02-068]feed
[17:28:02-334]
[17:28:02-334]Sensors read rc -2 s -2
[17:28:02-568]feed
[17:28:02-568]device:9100334 csq:6 net:1 server:1, relay:1
[17:28:02-677]now: 2023-01-13 17:28:00
[17:28:03-068]feed
[17:28:03-334]read each end
[17:28:03-334]indicators_values[1].sensor = 20000a1c
[17:28:03-349]indicators_values[2].sensor = 20000a8c
[17:28:03-568]feed
[17:28:03-568]device:9100334 csq:6 net:1 server:1, relay:1
[17:28:03-599]CSQ: 6
[17:28:04-068]feed
[17:28:04-349]air blow: err: 10, rst: 3, status: -2
[17:28:04-349]Rw:  len=8, data=fb 03 00 00 00 0a d1 97 
[17:28:04-568]Rr:  len=1, data=feed
[17:28:04-584]device:9100334 csq:6 net:1 server:1, relay:1
[17:28:05-084]feed
[17:28:05-584]feed
[17:28:05-584]device:9100334 csq:6 net:1 server:1, relay:1
[17:28:05-677]now: 2023-01-13 17:28:03
[17:28:06-084]feed
[17:28:06-365]probe u_value = 0
[17:28:06-365]probe u_value = 0
[17:28:06-365]probe u_value = 0
[17:28:06-365]Rw:  len=8, data=01 06 00 0a 00 00 a9 c8 
[17:28:06-584]Rr:  len=1, data=feed
[17:28:06-584]device:9100334 csq:6 net:1 server:1, relay:1
[17:28:07-084]feed
[17:28:07-380]read each start
[17:28:07-380]Rw:  len=8, data=01 03 00 00 00 05 85 c9 
[17:28:07-584]Rr:  len=1, data=feed
[17:28:07-584]device:9100334 csq:6 net:1 server:1, relay:1
[17:28:08-084]feed
[17:28:08-396]
[17:28:08-396]Sensors read rc -2 s -2
[17:28:08-584]feed
[17:28:08-599]device:9100334 csq:6 net:1 server:1, relay:1
[17:28:08-693]now: 2023-01-13 17:28:06
[17:28:09-099]feed
[17:28:09-396]Rw:  len=8, data=02 03 00 00 00 03 05 f8 
[17:28:09-599]Rr:  len=1, data=feed
[17:28:09-599]device:9100334 csq:6 net:1 server:1, relay:1
[17:28:10-099]feed
[17:28:10-412]
[17:28:10-412]Sensors read rc -2 s -2
[17:28:10-599]feed
[17:28:10-599]device:9100334 csq:6 net:1 server:1, relay:1
[17:28:11-099]feed
[17:28:11-412]read each end
[17:28:11-412]indicators_values[1].sensor = 20000a1c
[17:28:11-427]indicators_values[2].sensor = 20000a8c
[17:28:11-599]feed
[17:28:11-599]device:9100334 csq:6 net:1 server:1, relay:1
[17:28:11-693]now: 2023-01-13 17:28:09
[17:28:12-099]feed
[17:28:12-427]air blow: err: 10, rst: 3, status: -2
[17:28:12-427]Rw:  len=8, data=fb 03 00 00 00 0a d1 97 
[17:28:12-599]Rr:  len=1, data=feed
[17:28:12-615]device:9100334 csq:6 net:1 server:1, relay:1
[17:28:13-115]feed
[17:28:13-615]feed
[17:28:13-615]device:9100334 csq:6 net:1 server:1, relay:1
[17:28:14-115]feed
[17:28:14-443]probe u_value = 0
[17:28:14-443]probe u_value = 0
[17:28:14-443]probe u_value = 0
[17:28:14-443]Rw:  len=8, data=01 06 00 0a 00 00 a9 c8 
[17:28:14-615]Rr:  len=1, data=feed
[17:28:14-615]device:9100334 csq:6 net:1 server:1, relay:1
[17:28:14-693]now: 2023-01-13 17:28:12
[17:28:15-115]feed
[17:28:15-459]read each start
[17:28:15-459]Rw:  len=8, data=01 03 00 00 00 05 85 c9 
[17:28:15-615]Rr:  len=1, data=feed
[17:28:15-615]device:9100334 csq:6 net:1 server:1, relay:1
[17:28:16-115]feed
[17:28:16-474]
[17:28:16-474]Sensors read rc -2 s -2
[17:28:16-615]feed
[17:28:16-631]device:9100334 csq:6 net:1 server:1, relay:1
[17:28:16-724]CSQ: 6
[17:28:17-131]feed
[17:28:17-474]Rw:  len=8, data=02 03 00 00 00 03 05 f8 
[17:28:17-631]Rr:  len=1, data=feed
[17:28:17-631]device:9100334 csq:6 net:1 server:1, relay:1
[17:28:17-693]now: 2023-01-13 17:28:15
[17:28:18-131]feed
[17:28:18-490]
[17:28:18-490]Sensors read rc -2 s -2
[17:28:18-631]feed
[17:28:18-631]device:9100334 csq:6 net:1 server:1, relay:1
[17:28:18-709]<Recv>:
[17:28:18-724]id = 18f61111, dlc = 7
[17:28:18-724]04 48 08 52 08 52 08 
[17:28:18-724]power in:cfg=4, VA=212(V), VB=213(V), VC=213(V)
[17:28:19-131]feed
[17:28:19-490]read each end
[17:28:19-490]indicators_values[1].sensor = 20000a1c
[17:28:19-490]indicators_values[2].sensor = 20000a8c
[17:28:19-631]feed
[17:28:19-631]device:9100334 csq:6 net:1 server:1, relay:1
[17:28:20-131]feed
[17:28:20-506]air blow: err: 10, rst: 3, status: -2
[17:28:20-506]Rw:  len=8, data=fb 03 00 00 00 0a d1 97 
[17:28:20-631]Rr:  len=1, data=feed
[17:28:20-646]device:9100334 csq:6 net:1 server:1, relay:1
[17:28:20-693]now: 2023-01-13 17:28:18
[17:28:21-146]feed
[17:28:21-646]feed
[17:28:21-646]device:9100334 csq:6 net:1 server:1, relay:1
[17:28:22-146]feed
[17:28:22-521]probe u_value = 0
[17:28:22-521]probe u_value = 0
[17:28:22-521]probe u_value = 0
[17:28:22-521]Rw:  len=8, data=01 06 00 0a 00 00 a9 c8 
[17:28:22-646]Rr:  len=1, data=feed
[17:28:22-646]device:9100334 csq:6 net:1 server:1, relay:1
[17:28:23-146]feed
[17:28:23-537]read each start
[17:28:23-537]Rw:  len=8, data=01 03 00 00 00 05 85 c9 
[17:28:23-646]Rr:  len=1, data=feed
[17:28:23-646]device:9100334 csq:6 net:1 server:1, relay:1
[17:28:23-693]now: 2023-01-13 17:28:21
[17:28:24-146]feed
[17:28:24-553]
[17:28:24-553]Sensors read rc -2 s -2
[17:28:24-662]feed
[17:28:24-662]device:9100334 csq:6 net:1 server:1, relay:1
[17:28:25-162]feed
[17:28:25-553]Rw:  len=8, data=02 03 00 00 00 03 05 f8 
[17:28:25-662]Rr:  len=1, data=feed
[17:28:25-662]device:9100334 csq:6 net:1 server:1, relay:1
[17:28:26-162]feed
[17:28:26-568]
[17:28:26-568]Sensors read rc -2 s -2
[17:28:26-662]feed
[17:28:26-662]device:9100334 csq:6 net:1 server:1, relay:1
[17:28:26-693]now: 2023-01-13 17:28:24
[17:28:27-162]feed
[17:28:27-568]read each end
[17:28:27-568]indicators_values[1].sensor = 20000a1c
[17:28:27-568]indicators_values[2].sensor = 20000a8c
[17:28:27-662]feed
[17:28:27-678]device:9100334 csq:6 net:1 server:1, relay:1
[17:28:28-178]feed
[17:28:28-568]air blow: err: 10, rst: 3, status: -2
[17:28:28-584]Rw:  len=8, data=fb 03 00 00 00 0a d1 97 
[17:28:28-678]Rr:  len=1, data=feed
[17:28:28-678]device:9100334 csq:6 net:1 server:1, relay:1
[17:28:29-178]feed
[17:28:29-584]CSQ: 6
[17:28:29-678]feed
[17:28:29-678]device:9100334 csq:6 net:1 server:1, relay:1
[17:28:29-693]now: 2023-01-13 17:28:27
[17:28:30-178]feed
[17:28:30-584]probe u_value = 0
[17:28:30-600]probe u_value = 0
[17:28:30-600]probe u_value = 0
[17:28:30-600]Rw:  len=8, data=01 06 00 0a 00 00 a9 c8 
[17:28:30-678]Rr:  len=1, data=feed
[17:28:30-678]device:9100334 csq:6 net:1 server:1, relay:1
[17:28:31-178]feed
[17:28:31-615]read each start
[17:28:31-615]Rw:  len=8, data=01 03 00 00 00 05 85 c9 
[17:28:31-678]Rr:  len=1, data=feed
[17:28:31-693]device:9100334 csq:6 net:1 server:1, relay:1
[17:28:32-193]feed
[17:28:32-631]
[17:28:32-631]Sensors read rc -2 s -2
[17:28:32-693]feed
[17:28:32-693]device:9100334 csq:6 net:1 server:1, relay:1
[17:28:32-709]now: 2023-01-13 17:28:30
[17:28:33-193]feed
[17:28:33-631]Rw:  len=8, data=02 03 00 00 00 03 05 f8 
[17:28:33-693]Rr:  len=1, data=feed
[17:28:33-693]device:9100334 csq:6 net:1 server:1, relay:1
[17:28:34-193]feed
[17:28:34-647]
[17:28:34-647]Sensors read rc -2 s -2
[17:28:34-693]feed
[17:28:34-693]device:9100334 csq:6 net:1 server:1, relay:1
[17:28:35-193]feed
[17:28:35-647]read each end
[17:28:35-647]indicators_values[1].sensor = 20000a1c
[17:28:35-647]indicators_values[2].sensor = 20000a8c
[17:28:35-693]feed
[17:28:35-709]device:9100334 csq:6 net:1 server:1, relay:1
[17:28:35-709]now: 2023-01-13 17:28:33
[17:28:36-209]feed
[17:28:36-647]air blow: err: 10, rst: 3, status: -2
[17:28:36-647]Rw:  len=8, data=fb 03 00 00 00 0a d1 97 
[17:28:36-709]Rr:  len=1, data=feed
[17:28:36-709]device:9100334 csq:6 net:1 server:1, relay:1
[17:28:37-209]feed
[17:28:37-709]feed
[17:28:37-709]device:9100334 csq:6 net:1 server:1, relay:1
[17:28:38-209]feed
[17:28:38-662]probe u_value = 0
[17:28:38-662]probe u_value = 0
[17:28:38-662]probe u_value = 0
[17:28:38-678]Rw:  len=8, data=01 06 00 0a 00 00 a9 c8 
[17:28:38-709]Rr:  len=1, data=feed
[17:28:38-709]device:9100334 csq:6 net:1 server:1, relay:1
[17:28:38-725]now: 2023-01-13 17:28:36
[17:28:39-209]feed
[17:28:39-678]read each start
[17:28:39-693]Rw:  len=8, data=01 03 00 00 00 05 85 c9 
[17:28:39-709]Rr:  len=1, data=feed
[17:28:39-725]device:9100334 csq:6 net:1 server:1, relay:1
[17:28:40-225]feed
[17:28:40-693]
[17:28:40-693]Sensors read rc -2 s -2
[17:28:40-725]feed
[17:28:40-725]device:9100334 csq:6 net:1 server:1, relay:1
[17:28:41-225]feed
[17:28:41-709]Rw:  len=8, data=02 03 00 00 00 03 05 f8 
[17:28:41-725]Rr:  len=1, data=feed
[17:28:41-725]device:9100334 csq:6 net:1 server:1, relay:1
[17:28:41-725]now: 2023-01-13 17:28:39
[17:28:42-225]feed
[17:28:42-709]
[17:28:42-709]Sensors read rc -2 s -2
[17:28:42-709]CSQ: 6
[17:28:42-725]feed
[17:28:42-725]device:9100334 csq:6 net:1 server:1, relay:1
[17:28:43-225]feed
[17:28:43-709]read each end
[17:28:43-725]indicators_values[1].sensor = 20000a1c
[17:28:43-725]indicators_values[2].sensor = 20000a8c
[17:28:43-740]feed
[17:28:43-740]device:9100334 csq:6 net:1 server:1, relay:1
[17:28:44-240]feed
[17:28:44-725]air blow: err: 10, rst: 3, status: -2
[17:28:44-725]Rw:  len=8, data=fb 03 00 00 00 0a d1 97 
[17:28:44-740]feed
[17:28:44-740]device:9100334 csq:6 net:1 server:1, relay:1
[17:28:44-740]now: 2023-01-13 17:28:42
[17:28:45-240]feed
[17:28:45-740]feed
[17:28:45-740]device:9100334 csq:6 net:1 server:1, relay:1
[17:28:46-240]feed
[17:28:46-740]probe u_value = 0
[17:28:46-740]probe u_value = 0
[17:28:46-740]probe u_value = 0
[17:28:46-740]Rw:  len=8, data=01 06 00 0a 00 00 a9 c8 
[17:28:47-240]Rr:  len=1, data=feed
[17:28:47-740]feed
[17:28:47-756]device:9100334 csq:6 net:1 server:1, relay:1
[17:28:47-756]read each start
[17:28:47-756]Rw:  len=8, data=01 03 00 00 00 05 85 c9 
[17:28:47-772]Rr:  len=1, data=now: 2023-01-13 17:28:45
[17:28:48-256]feed
[17:28:48-725]<Recv>:
[17:28:48-725]id = 18f61111, dlc = 7
[17:28:48-725]04 48 08 5c 08 5c 08 
[17:28:48-725]power in:cfg=4, VA=212(V), VB=214(V), VC=214(V)
[17:28:48-756]feed
[17:28:48-756]device:9100334 csq:6 net:1 server:1, relay:1
[17:28:48-772]
[17:28:48-772]Sensors read rc -2 s -2
[17:28:49-256]feed
[17:28:49-756]feed
[17:28:49-756]device:9100334 csq:6 net:1 server:1, relay:1
[17:28:49-772]Rw:  len=8, data=02 03 00 00 00 03 05 f8 
[17:28:50-256]Rr:  len=1, data=feed
[17:28:50-756]feed
[17:28:50-756]device:9100334 csq:6 net:1 server:1, relay:1
[17:28:50-787]
[17:28:50-787]Sensors read rc -2 s -2
[17:28:50-787]now: 2023-01-13 17:28:48
[17:28:51-256]feed
[17:28:51-756]feed
[17:28:51-772]device:9100334 csq:6 net:1 server:1, relay:1
[17:28:51-787]read each end
[17:28:51-787]indicators_values[1].sensor = 20000a1c
[17:28:51-803]indicators_values[2].sensor = 20000a8c
[17:28:52-272]feed
[17:28:52-772]feed
[17:28:52-772]device:9100334 csq:6 net:1 server:1, relay:1
[17:28:52-803]air blow: err: 10, rst: 3, status: -2
[17:28:52-803]Rw:  len=8, data=fb 03 00 00 00 0a d1 97 
[17:28:53-272]Rr:  len=1, data=feed
[17:28:53-772]feed
[17:28:53-772]device:9100334 csq:6 net:1 server:1, relay:1
[17:28:53-819]now: 2023-01-13 17:28:51
[17:28:54-272]feed
[17:28:54-772]feed
[17:28:54-772]device:9100334 csq:6 net:1 server:1, relay:1
[17:28:54-819]probe u_value = 0
[17:28:54-819]probe u_value = 0
[17:28:54-819]probe u_value = 0
[17:28:54-819]Rw:  len=8, data=01 06 00 0a 00 00 a9 c8 
[17:28:55-272]Rr:  len=1, data=feed
[17:28:55-584]CSQ: 6
[17:28:55-772]feed
[17:28:55-787]device:9100334 csq:6 net:1 server:1, relay:1
[17:28:55-834]read each start
[17:28:55-834]Rw:  len=8, data=01 03 00 00 00 05 85 c9 
[17:28:56-287]Rr:  len=1, data=feed
[17:28:56-787]feed
[17:28:56-787]device:9100334 csq:6 net:1 server:1, relay:1
[17:28:56-850]
[17:28:56-850]Sensors read rc -2 s -2
[17:28:56-850]now: 2023-01-13 17:28:54
[17:28:57-287]feed
[17:28:57-787]feed
[17:28:57-787]device:9100334 csq:6 net:1 server:1, relay:1
[17:28:57-850]Rw:  len=8, data=02 03 00 00 00 03 05 f8 
[17:28:58-287]Rr:  len=1, data=feed
[17:28:58-788]feed
[17:28:58-788]device:9100334 csq:6 net:1 server:1, relay:1
[17:28:58-866]
[17:28:58-866]Sensors read rc -2 s -2
[17:28:59-288]feed
[17:28:59-787]feed
[17:28:59-803]device:9100334 csq:6 net:1 server:1, relay:1
[17:28:59-866]read each end
[17:28:59-866]indicators_values[1].sensor = 20000a1c
[17:28:59-866]indicators_values[2].sensor = 20000a8c
[17:28:59-881]now: 2023-01-13 17:28:57
[17:29:00-303]feed
[17:29:00-803]feed
[17:29:00-803]device:9100334 csq:6 net:1 server:1, relay:1
[17:29:00-881]air blow: err: 10, rst: 3, status: -2
[17:29:00-881]Rw:  len=8, data=fb 03 00 00 00 0a d1 97 
[17:29:01-303]Rr:  len=1, data=feed
[17:29:01-803]feed
[17:29:01-803]device:9100334 csq:6 net:1 server:1, relay:1
[17:29:02-303]feed
[17:29:02-803]feed
[17:29:02-803]device:9100334 csq:6 net:1 server:1, relay:1
[17:29:02-897]probe u_value = 0
[17:29:02-897]probe u_value = 0
[17:29:02-897]probe u_value = 0
[17:29:02-897]Rw:  len=8, data=01 06 00 0a 00 00 a9 c8 
[17:29:02-913]Rr:  len=1, data=now: 2023-01-13 17:29:00
[17:29:03-303]feed
[17:29:03-819]feed
[17:29:03-819]device:9100334 csq:6 net:1 server:1, relay:1
[17:29:03-913]read each start
[17:29:03-913]Rw:  len=8, data=01 03 00 00 00 05 85 c9 
[17:29:04-319]Rr:  len=1, data=feed
[17:29:04-819]feed
[17:29:04-819]device:9100334 csq:6 net:1 server:1, relay:1
[17:29:04-928]
[17:29:04-928]Sensors read rc -2 s -2
[17:29:05-319]feed
[17:29:05-819]feed
[17:29:05-819]device:9100334 csq:6 net:1 server:1, relay:1
[17:29:05-928]Rw:  len=8, data=02 03 00 00 00 03 05 f8 
[17:29:05-944]Rr:  len=1, data=now: 2023-01-13 17:29:03
[17:29:06-319]feed
[17:29:06-819]feed
[17:29:06-819]device:9100334 csq:6 net:1 server:1, relay:1
[17:29:06-944]
[17:29:06-944]Sensors read rc -2 s -2
[17:29:07-319]feed
[17:29:07-834]feed
[17:29:07-834]device:9100334 csq:6 net:1 server:1, relay:1
[17:29:07-944]read each end
[17:29:07-944]indicators_values[1].sensor = 20000a1c
[17:29:07-944]indicators_values[2].sensor = 20000a8c
[17:29:08-334]feed
[17:29:08-694]CSQ: 6
[17:29:08-834]feed
[17:29:08-834]device:9100334 csq:6 net:1 server:1, relay:1
[17:29:08-959]air blow: err: 10, rst: 3, status: -2
[17:29:08-959]Rw:  len=8, data=fb 03 00 00 00 0a d1 97 
[17:29:08-975]Rr:  len=1, data=now: 2023-01-13 17:29:06
[17:29:09-334]feed
[17:29:09-834]feed
[17:29:09-834]device:9100334 csq:6 net:1 server:1, relay:1
[17:29:10-334]feed
[17:29:10-834]feed
[17:29:10-850]device:9100334 csq:6 net:1 server:1, relay:1
[17:29:10-959]probe u_value = 0
[17:29:10-975]probe u_value = 0
[17:29:10-975]probe u_value = 0
[17:29:10-975]Rw:  len=8, data=01 06 00 0a 00 00 a9 c8 
[17:29:11-350]Rr:  len=1, data=feed
[17:29:11-850]feed
[17:29:11-850]device:9100334 csq:6 net:1 server:1, relay:1
[17:29:11-991]read each start
[17:29:11-991]Rw:  len=8, data=01 03 00 00 00 05 85 c9 
[17:29:12-006]Rr:  len=1, data=now: 2023-01-13 17:29:09
[17:29:12-350]feed
[17:29:12-850]feed
[17:29:12-850]device:9100334 csq:6 net:1 server:1, relay:1
[17:29:13-006]
[17:29:13-006]Sensors read rc -2 s -2
[17:29:13-350]feed
[17:29:13-850]feed
[17:29:13-850]device:9100334 csq:6 net:1 server:1, relay:1
[17:29:14-006]Rw:  len=8, data=02 03 00 00 00 03 05 f8 
[17:29:14-350]Rr:  len=1, data=feed
[17:29:14-850]feed
[17:29:14-866]device:9100334 csq:6 net:1 server:1, relay:1
[17:29:15-022]
[17:29:15-022]Sensors read rc -2 s -2
[17:29:15-022]now: 2023-01-13 17:29:12
[17:29:15-366]feed
[17:29:15-866]feed
[17:29:15-866]device:9100334 csq:6 net:1 server:1, relay:1
[17:29:16-022]read each end
[17:29:16-022]indicators_values[1].sensor = 20000a1c
[17:29:16-022]indicators_values[2].sensor = 20000a8c
[17:29:16-366]feed
[17:29:16-866]feed
[17:29:16-866]device:9100334 csq:6 net:1 server:1, relay:1
[17:29:17-022]air blow: err: 10, rst: 3, status: -2
[17:29:17-038]Rw:  len=8, data=fb 03 00 00 00 0a d1 97 
[17:29:17-366]Rr:  len=1, data=feed
[17:29:17-866]feed
[17:29:17-866]device:9100334 csq:6 net:1 server:1, relay:1
[17:29:18-053]Pw:  len=15, data=00 8a dc 2e 03 40 00 00 22 d0 00 01 00 3f 16 
[17:29:18-053]
[17:29:18-053]now: 2023-01-13 17:29:15
[17:29:18-241]Pr:  len=13, data=00 8a dc 2e 03 40 00 00 22 d1 00 01 00 
[17:29:18-241]Pr:  len=2, data=3e ea 
[17:29:18-366]feed
[17:29:18-725]<Recv>:
[17:29:18-725]id = 18f61111, dlc = 7
[17:29:18-725]04 48 08 5c 08 5c 08 
[17:29:18-741]power in:cfg=4, VA=212(V), VB=214(V), VC=214(V)
[17:29:18-866]feed
[17:29:18-881]device:9100334 csq:6 net:1 server:1, relay:1
[17:29:19-038]probe u_value = 0
[17:29:19-038]probe u_value = 0
[17:29:19-038]probe u_value = 0
[17:29:19-053]Rw:  len=8, data=01 06 00 0a 00 00 a9 c8 
[17:29:19-381]Rr:  len=1, data=feed
[17:29:19-881]feed
[17:29:19-881]device:9100334 csq:6 net:1 server:1, relay:1
[17:29:20-053]read each start
[17:29:20-069]Rw:  len=8, data=01 03 00 00 00 05 85 c9 
[17:29:20-381]Rr:  len=1, data=feed
[17:29:20-881]feed
[17:29:20-881]device:9100334 csq:6 net:1 server:1, relay:1
[17:29:21-069]
[17:29:21-069]Sensors read rc -2 s -2
[17:29:21-085]now: 2023-01-13 17:29:18
[17:29:21-381]feed
[17:29:21-569]CSQ: 6
[17:29:21-881]feed
[17:29:21-881]device:9100334 csq:6 net:1 server:1, relay:1
[17:29:22-085]Rw:  len=8, data=02 03 00 00 00 03 05 f8 
[17:29:22-381]Rr:  len=1, data=feed
[17:29:22-881]feed
[17:29:22-897]device:9100334 csq:6 net:1 server:1, relay:1
[17:29:23-085]
[17:29:23-085]Sensors read rc -2 s -2
[17:29:23-397]feed
[17:29:23-897]feed
[17:29:23-897]device:9100334 csq:6 net:1 server:1, relay:1
[17:29:24-085]read each end
[17:29:24-100]indicators_values[1].sensor = 20000a1c
[17:29:24-100]indicators_values[2].sensor = 20000a8c
[17:29:24-100]now: 2023-01-13 17:29:21
[17:29:24-397]feed
[17:29:24-897]feed
[17:29:24-897]device:9100334 csq:6 net:1 server:1, relay:1
[17:29:25-100]air blow: err: 10, rst: 3, status: -2
[17:29:25-100]Rw:  len=8, data=fb 03 00 00 00 0a d1 97 
[17:29:25-397]Rr:  len=1, data=feed
[17:29:25-897]feed
[17:29:25-897]device:9100334 csq:6 net:1 server:1, relay:1
[17:29:26-397]feed
[17:29:26-913]feed
[17:29:26-913]device:9100334 csq:6 net:1 server:1, relay:1
[17:29:27-116]probe u_value = 0
[17:29:27-116]probe u_value = 0
[17:29:27-116]probe u_value = 0
[17:29:27-131]Rw:  len=8, data=01 06 00 0a 00 00 a9 c8 
[17:29:27-131]Rr:  len=1, data=now: 2023-01-13 17:29:24
[17:29:27-413]feed
[17:29:27-913]feed
[17:29:27-913]device:9100334 csq:6 net:1 server:1, relay:1
[17:29:28-131]read each start
[17:29:28-131]Rw:  len=8, data=01 03 00 00 00 05 85 c9 
[17:29:28-413]Rr:  len=1, data=feed
[17:29:28-913]feed
[17:29:28-913]device:9100334 csq:6 net:1 server:1, relay:1
[17:29:29-147]
[17:29:29-147]Sensors read rc -2 s -2
[17:29:29-413]feed
[17:29:29-913]feed
[17:29:29-928]device:9100334 csq:6 net:1 server:1, relay:1
[17:29:30-147]Rw:  len=8, data=02 03 00 00 00 03 05 f8 
[17:29:30-163]Rr:  len=1, data=now: 2023-01-13 17:29:27
[17:29:30-413]feed
[17:29:30-928]feed
[17:29:30-928]device:9100334 csq:6 net:1 server:1, relay:1
[17:29:31-163]
[17:29:31-163]Sensors read rc -2 s -2
[17:29:31-428]feed
[17:29:31-928]feed
[17:29:31-928]device:9100334 csq:6 net:1 server:1, relay:1
[17:29:32-163]read each end
[17:29:32-163]indicators_values[1].sensor = 20000a1c
[17:29:32-178]indicators_values[2].sensor = 20000a8c
[17:29:32-428]feed
[17:29:32-928]feed
[17:29:32-928]device:9100334 csq:6 net:1 server:1, relay:1
[17:29:33-178]air blow: err: 10, rst: 3, status: -2
[17:29:33-178]Rw:  len=8, data=fb 03 00 00 00 0a d1 97 
[17:29:33-194]Rr:  len=1, data=now: 2023-01-13 17:29:30
[17:29:33-428]feed
[17:29:33-928]feed
[17:29:33-944]device:9100334 csq:6 net:1 server:1, relay:1
[17:29:34-444]feed
[17:29:34-694]CSQ: 6
[17:29:34-944]feed
[17:29:34-944]device:9100334 csq:6 net:1 server:1, relay:1
[17:29:35-194]probe u_value = 0
[17:29:35-194]probe u_value = 0
[17:29:35-194]probe u_value = 0
[17:29:35-194]Rw:  len=8, data=01 06 00 0a 00 00 a9 c8 
[17:29:35-444]Rr:  len=1, data=feed
[17:29:35-944]feed
[17:29:35-944]device:9100334 csq:6 net:1 server:1, relay:1
[17:29:36-210]read each start
[17:29:36-210]Rw:  len=8, data=01 03 00 00 00 05 85 c9 
[17:29:36-225]Rr:  len=1, data=now: 2023-01-13 17:29:33
[17:29:36-444]feed
[17:29:36-944]feed
[17:29:36-944]device:9100334 csq:6 net:1 server:1, relay:1
[17:29:37-225]
[17:29:37-225]Sensors read rc -2 s -2
[17:29:37-444]feed
[17:29:37-944]feed
[17:29:37-960]device:9100334 csq:6 net:1 server:1, relay:1
[17:29:38-225]Rw:  len=8, data=02 03 00 00 00 03 05 f8 
[17:29:38-460]Rr:  len=1, data=feed
[17:29:38-960]feed
[17:29:38-960]device:9100334 csq:6 net:1 server:1, relay:1
[17:29:39-241]
[17:29:39-241]Sensors read rc -2 s -2
[17:29:39-241]now: 2023-01-13 17:29:36
[17:29:39-455]feed
[17:29:39-955]feed
[17:29:39-955]device:9100334 csq:6 net:1 server:1, relay:1
[17:29:40-236]read each end
[17:29:40-252]indicators_values[1].sensor = 20000a1c
[17:29:40-252]indicators_values[2].sensor = 20000a8c
[17:29:40-455]feed
[17:29:40-955]feed
[17:29:40-971]device:9100334 csq:6 net:1 server:1, relay:1
[17:29:41-252]air blow: err: 10, rst: 3, status: -2
[17:29:41-252]Rw:  len=8, data=fb 03 00 00 00 0a d1 97 
[17:29:41-471]Rr:  len=1, data=feed
[17:29:41-971]feed
[17:29:41-971]device:9100334 csq:6 net:1 server:1, relay:1
[17:29:42-267]now: 2023-01-13 17:29:39
[17:29:42-471]feed
[17:29:42-971]feed
[17:29:42-971]device:9100334 csq:6 net:1 server:1, relay:1
[17:29:43-268]probe u_value = 0
[17:29:43-268]probe u_value = 0
[17:29:43-268]probe u_value = 0
[17:29:43-283]Rw:  len=8, data=01 06 00 0a 00 00 a9 c8 
[17:29:43-471]Rr:  len=1, data=feed
[17:29:43-971]feed
[17:29:43-971]device:9100334 csq:6 net:1 server:1, relay:1
[17:29:44-283]read each start
[17:29:44-283]Rw:  len=8, data=01 03 00 00 00 05 85 c9 
[17:29:44-471]Rr:  len=1, data=feed
[17:29:44-986]feed
[17:29:44-986]device:9100334 csq:6 net:1 server:1, relay:1
[17:29:45-299]
[17:29:45-299]Sensors read rc -2 s -2
[17:29:45-299]now: 2023-01-13 17:29:42
[17:29:45-486]feed
[17:29:45-986]feed
[17:29:45-986]device:9100334 csq:6 net:1 server:1, relay:1
[17:29:46-299]Rw:  len=8, data=02 03 00 00 00 03 05 f8 
[17:29:46-486]Rr:  len=1, data=feed
[17:29:46-986]feed
[17:29:46-986]device:9100334 csq:6 net:1 server:1, relay:1
[17:29:47-315]
[17:29:47-315]Sensors read rc -2 s -2
[17:29:47-487]feed
[17:29:47-565]CSQ: 6
[17:29:47-987]feed
[17:29:47-987]device:9100334 csq:6 net:1 server:1, relay:1
[17:29:48-315]read each end
[17:29:48-315]indicators_values[1].sensor = 20000a1c
[17:29:48-330]indicators_values[2].sensor = 20000a8c
[17:29:48-330]now: 2023-01-13 17:29:45
[17:29:48-487]feed
[17:29:48-736]<Recv>:
[17:29:48-736]id = 18f61111, dlc = 7
[17:29:48-736]04 48 08 52 08 52 08 
[17:29:48-752]power in:cfg=4, VA=212(V), VB=213(V), VC=213(V)
[17:29:49-002]feed
[17:29:49-002]device:9100334 csq:6 net:1 server:1, relay:1
[17:29:49-330]air blow: err: 10, rst: 3, status: -2
[17:29:49-330]Rw:  len=8, data=fb 03 00 00 00 0a d1 97 
[17:29:49-502]Rr:  len=1, data=feed
[17:29:50-002]feed
[17:29:50-002]device:9100334 csq:6 net:1 server:1, relay:1
[17:29:50-502]feed
[17:29:51-002]feed
[17:29:51-002]device:9100334 csq:6 net:1 server:1, relay:1
[17:29:51-346]probe u_value = 0
[17:29:51-346]probe u_value = 0
[17:29:51-346]probe u_value = 0
[17:29:51-346]Rw:  len=8, data=01 06 00 0a 00 00 a9 c8 
[17:29:51-362]Rr:  len=1, data=now: 2023-01-13 17:29:48
[17:29:51-502]feed
[17:29:52-002]feed
[17:29:52-002]device:9100334 csq:6 net:1 server:1, relay:1
[17:29:52-362]read each start
[17:29:52-362]Rw:  len=8, data=01 03 00 00 00 05 85 c9 
[17:29:52-502]Rr:  len=1, data=feed
[17:29:53-018]feed
[17:29:53-018]device:9100334 csq:6 net:1 server:1, relay:1
[17:29:53-377]
[17:29:53-377]Sensors read rc -2 s -2
[17:29:53-440]<Recv>:
[17:29:53-440]id = 18f51111, dlc = 6
[17:29:53-440]01 00 02 00 00 00 
[17:29:53-455]dev_relay:ch=1, os=0, ks=2, err=0, cur=0(mA)
[17:29:53-455]<Recv>:
[17:29:53-455]id = 18f51111, dlc = 6
[17:29:53-455]02 00 02 00 00 00 
[17:29:53-455]dev_relay:ch=2, os=0, ks=2, err=0, cur=0(mA)
[17:29:53-455]<Recv>:
[17:29:53-471]id = 18f51111, dlc = 6
[17:29:53-471]03 00 02 00 00 00 
[17:29:53-471]dev_relay:ch=3, os=0, ks=2, err=0, cur=0(mA)
[17:29:53-471]<Recv>:
[17:29:53-471]id = 18f51111, dlc = 6
[17:29:53-471]04 00 02 00 02 00 
[17:29:53-471]dev_relay:ch=4, os=0, ks=2, err=0, cur=20(mA)
[17:29:53-471]<Recv>:
[17:29:53-487]id = 18f51111, dlc = 6
[17:29:53-487]05 00 02 00 01 00 
[17:29:53-487]dev_relay:ch=5, os=0, ks=2, err=0, cur=10(mA)
[17:29:53-518]feed
[17:29:54-018]feed
[17:29:54-018]device:9100334 csq:6 net:1 server:1, relay:1
[17:29:54-377]Rw:  len=8, data=02 03 00 00 00 03 05 f8 
[17:29:54-393]Rr:  len=1, data=now: 2023-01-13 17:29:51
[17:29:54-393]key<1> release
[17:29:54-393]get_ch <1> = OFF
[17:29:54-518]feed
[17:29:55-018]feed
[17:29:55-018]device:9100334 csq:6 net:1 server:1, relay:1
[17:29:55-393]
[17:29:55-393]Sensors read rc -2 s -2
[17:29:55-393][0]broken_index<0> = broken_type<0>
[17:29:55-408]Pw:  len=52, data=00 8a dc 2e 03 40 00 00 12 d0 00 01 25 01 17 01 0d 11 1d 34 ff fc 00 00 00 00 00 00 00 00 f8 00 00 00 00 00 00 00 00 00 00 00 00 00 00 00 00 00 00 00 62 e1 
[17:29:55-424]
[17:29:55-518]feed
[17:29:56-018]feed
[17:29:56-034]device:9100334 csq:6 net:1 server:1, relay:1
[17:29:56-393]read each end
[17:29:56-393]indicators_values[1].sensor = 20000a1c
[17:29:56-408]indicators_values[2].sensor = 20000a8c
[17:29:56-534]feed
[17:29:57-034]feed
[17:29:57-034]device:9100334 csq:6 net:1 server:1, relay:1
[17:29:57-409]air blow: err: 10, rst: 3, status: -2
[17:29:57-409]Rw:  len=8, data=fb 03 00 00 00 0a d1 97 
[17:29:57-424]Rr:  len=1, data=now: 2023-01-13 17:29:54
[17:29:57-534]feed
[17:29:58-034]feed
[17:29:58-034]device:9100334 csq:6 net:1 server:1, relay:1
[17:29:58-533]feed
[17:29:59-034]feed
[17:29:59-034]device:9100334 csq:6 net:1 server:1, relay:1
[17:29:59-424]probe u_value = 0
[17:29:59-424]probe u_value = 0
[17:29:59-424]probe u_value = 0
[17:29:59-424]Rw:  len=8, data=01 06 00 0a 00 00 a9 c8 
[17:29:59-534]Rr:  len=1, data=feed
[17:30:00-034]feed
[17:30:00-049]device:9100334 csq:6 net:1 server:1, relay:1
[17:30:00-440]read each start
[17:30:00-440]Rw:  len=8, data=01 03 00 00 00 05 85 c9 
[17:30:00-455]Rr:  len=1, data=now: 2023-01-13 17:29:57
[17:30:00-549]feed
[17:30:00-705]CSQ: 6
[17:30:01-049]feed
[17:30:01-049]device:9100334 csq:6 net:1 server:1, relay:1
[17:30:01-455]
[17:30:01-455]Sensors read rc -2 s -2
[17:30:01-549]feed
[17:30:02-049]feed
[17:30:02-049]device:9100334 csq:6 net:1 server:1, relay:1
[17:30:02-455]Rw:  len=8, data=02 03 00 00 00 03 05 f8 
[17:30:02-549]Rr:  len=1, data=feed
[17:30:03-049]feed
[17:30:03-049]device:9100334 csq:6 net:1 server:1, relay:1
[17:30:03-471]
[17:30:03-471]Sensors read rc -2 s -2
[17:30:03-471]now: 2023-01-13 17:30:00
[17:30:03-549]feed
[17:30:04-049]feed
[17:30:04-065]device:9100334 csq:6 net:1 server:1, relay:1
[17:30:04-471]read each end
[17:30:04-471]indicators_values[1].sensor = 20000a1c
[17:30:04-471]indicators_values[2].sensor = 20000a8c
[17:30:04-565]feed
[17:30:05-065]feed
[17:30:05-065]device:9100334 csq:6 net:1 server:1, relay:1
[17:30:05-487]air blow: err: 10, rst: 3, status: -2
[17:30:05-487]Rw:  len=8, data=fb 03 00 00 00 0a d1 97 
[17:30:05-565]Rr:  len=1, data=feed
[17:30:06-065]feed
[17:30:06-065]device:9100334 csq:6 net:1 server:1, relay:1
[17:30:06-502]now: 2023-01-13 17:30:03
[17:30:06-565]feed
[17:30:07-065]feed
[17:30:07-065]device:9100334 csq:6 net:1 server:1, relay:1
[17:30:07-502]probe u_value = 0
[17:30:07-502]probe u_value = 0
[17:30:07-502]probe u_value = 0
[17:30:07-502]Rw:  len=8, data=01 06 00 0a 00 00 a9 c8 
[17:30:07-565]Rr:  len=1, data=feed
[17:30:08-065]feed
[17:30:08-080]device:9100334 csq:6 net:1 server:1, relay:1
[17:30:08-518]read each start
[17:30:08-518]Rw:  len=8, data=01 03 00 00 00 05 85 c9 
[17:30:08-580]Rr:  len=1, data=feed
[17:30:09-080]feed
[17:30:09-080]device:9100334 csq:6 net:1 server:1, relay:1
[17:30:09-534]
[17:30:09-534]Sensors read rc -2 s -2
[17:30:09-534]now: 2023-01-13 17:30:06
[17:30:09-581]feed
[17:30:10-081]feed
[17:30:10-081]device:9100334 csq:6 net:1 server:1, relay:1
[17:30:10-534]Rw:  len=8, data=02 03 00 00 00 03 05 f8 
[17:30:10-580]Rr:  len=1, data=feed
[17:30:10-674]<Recv>:
[17:30:10-674]id = 18f51111, dlc = 6
[17:30:10-674]01 01 01 01 00 00 
[17:30:10-690]dev_relay:ch=1, os=1, ks=1, err=1, cur=0(mA)
[17:30:10-690]<Recv>:
[17:30:10-690]id = 18f51111, dlc = 6
[17:30:10-690]02 00 02 00 00 00 
[17:30:10-690]dev_relay:ch=2, os=0, ks=2, err=0, cur=0(mA)
[17:30:10-690]<Recv>:
[17:30:10-690]id = 18f51111, dlc = 6
[17:30:10-690]03 00 02 00 00 00 
[17:30:10-705]dev_relay:ch=3, os=0, ks=2, err=0, cur=0(mA)
[17:30:10-705]<Recv>:
[17:30:10-705]id = 18f51111, dlc = 6
[17:30:10-705]04 00 02 00 01 00 
[17:30:10-705]dev_relay:ch=4, os=0, ks=2, err=0, cur=10(mA)
[17:30:10-705]<Recv>:
[17:30:10-705]id = 18f51111, dlc = 6
[17:30:10-721]05 00 02 00 01 00 
[17:30:10-721]dev_relay:ch=5, os=0, ks=2, err=0, cur=10(mA)
[17:30:11-081]feed
[17:30:11-081]device:9100334 csq:6 net:1 server:1, relay:1
[17:30:11-549]
[17:30:11-549]Sensors read rc -2 s -2
[17:30:11-549]key<1> press
[17:30:11-549]get_ch <1> = ON
[17:30:11-581]feed
[17:30:12-081]feed
[17:30:12-096]device:9100334 csq:6 net:1 server:1, relay:1
[17:30:12-549]read each end
[17:30:12-549]indicators_values[1].sensor = 20000a1c
[17:30:12-549]indicators_values[2].sensor = 20000a8c
[17:30:12-549]now: 2023-01-13 17:30:09
[17:30:12-549][0]broken_index<0> = broken_type<1>
[17:30:12-565]Pw:  len=52, data=00 8a dc 2e 03 40 00 00 12 d0 00 01 25 01 17 01 0d 11 1e 09 ff fc 00 00 00 00 80 00 00 00 f8 00 00 00 80 00 00 00 80 00 00 00 00 00 00 00 00 00 00 00 37 b8 
[17:30:12-581]
[17:30:12-596]feed
[17:30:13-096]feed
[17:30:13-096]device:9100334 csq:6 net:1 server:1, relay:1
[17:30:13-549]air blow: err: 10, rst: 3, status: -2
[17:30:13-565]Rw:  len=8, data=fb 03 00 00 00 0a d1 97 
[17:30:13-565]Rr:  len=1, data=CSQ: 6
[17:30:13-596]feed
[17:30:14-096]feed
[17:30:14-096]device:9100334 csq:6 net:1 server:1, relay:1
[17:30:14-596]feed
[17:30:15-096]feed
[17:30:15-096]device:9100334 csq:6 net:1 server:1, relay:1
[17:30:15-565]probe u_value = 0
[17:30:15-581]probe u_value = 0
[17:30:15-581]probe u_value = 0
[17:30:15-581]Rw:  len=8, data=01 06 00 0a 00 00 a9 c8 
[17:30:15-596]Rr:  len=1, data=now: 2023-01-13 17:30:12
[17:30:15-596]feed
[17:30:16-112]feed
[17:30:16-112]device:9100334 csq:6 net:1 server:1, relay:1
[17:30:16-581]read each start
[17:30:16-596]Rw:  len=8, data=01 03 00 00 00 05 85 c9 
[17:30:16-612]Rr:  len=1, data=feed
[17:30:17-112]feed
[17:30:17-112]device:9100334 csq:6 net:1 server:1, relay:1
[17:30:17-612]
[17:30:17-612]Sensors read rc -2 s -2
[17:30:17-612]feed
[17:30:17-862]Pw:  len=16, data=00 8a dc 2e 03 40 00 00 21 d0 00 01 01 06 d7 b1 
[17:30:17-862]
[17:30:17-956]AHT20 read
[17:30:17-971]AHT20: status: -1, temperature: 0.000000 humidity:0.000000
[17:30:18-081]Pw:  len=33, data=00 8a dc 2e 03 40 00 00 27 d0 00 01 12 1f e0 08 48 08 52 08 52 00 00 00 00 00 00 00 01 00 01 14 00 
[17:30:18-081]
[17:30:18-112]feed
[17:30:18-112]device:9100334 csq:6 net:1 server:1, relay:1
[17:30:18-190]Pw:  len=18, data=00 8a dc 2e 03 40 00 00 26 d0 00 01 03 01 00 00 6e 1b 
[17:30:18-190]
[17:30:18-612]Rw:  len=8, data=02 03 00 00 00 03 05 f8 
[17:30:18-612]feed
[17:30:18-627]Rr:  len=1, data=now: 2023-01-13 17:30:15
[17:30:19-112]feed
[17:30:19-127]device:9100334 csq:6 net:1 server:1, relay:1
[17:30:19-206]<Recv>:
[17:30:19-206]id = 18f61111, dlc = 7
[17:30:19-206]04 48 08 52 08 52 08 
[17:30:19-206]power in:cfg=4, VA=212(V), VB=213(V), VC=213(V)
[17:30:19-612]
[17:30:19-612]Sensors read rc -2 s -2
[17:30:20-127]feed
[17:30:20-127]device:9100334 csq:6 net:1 server:1, relay:1
[17:30:20-627]read each end
[17:30:20-627]indicators_values[1].sensor = feed
[17:30:20-627]20000a1c
[17:30:20-627]indicators_values[2].sensor = 20000a8c
[17:30:21-127]feed
[17:30:21-127]device:9100334 csq:6 net:1 server:1, relay:1
[17:30:21-627]feed
[17:30:21-627]air blow: err: 10, rst: 3, status: -2
[17:30:21-643]Rw:  len=8, data=fb 03 00 00 00 0a d1 97 
[17:30:21-643]Rr:  len=1, data=now: 2023-01-13 17:30:18
[17:30:22-127]feed
[17:30:22-127]device:9100334 csq:6 net:1 server:1, relay:1
[17:30:22-628]feed
[17:30:23-128]feed
[17:30:23-143]device:9100334 csq:6 net:1 server:1, relay:1
[17:30:23-643]feed
[17:30:23-643]probe u_value = 0
[17:30:23-643]probe u_value = 0
[17:30:23-643]probe u_value = 0
[17:30:23-659]Pw:  len=48, data=00 8a dc 2e 03 40 00 00 13 d0 00 01 21 01 17 01 0d 11 1e 14 00 00 00 00 00 00 e0 00 00 00 00 00 e0 00 00 00 00 00 e0 00 00 00 00 00 e0 00 89 bd 
[17:30:23-674]
[17:30:23-674]Rw:  len=8, data=01 06 00 0a 00 00 a9 c8 
[17:30:24-143]Rr:  len=1, data=feed
[17:30:24-143]device:9100334 csq:6 net:1 server:1, relay:1
[17:30:24-643]feed
[17:30:24-690]read each start
[17:30:24-690]Rw:  len=8, data=01 03 00 00 00 05 85 c9 
[17:30:24-706]Rr:  len=1, data=now: 2023-01-13 17:30:22
[17:30:25-143]feed
[17:30:25-143]device:9100334 csq:6 net:1 server:1, relay:1
[17:30:25-643]feed
[17:30:25-706]
[17:30:25-706]Sensors read rc -2 s -2
[17:30:26-143]feed
[17:30:26-143]device:9100334 csq:6 net:1 server:1, relay:1
[17:30:26-456]CSQ: 6
[17:30:26-643]feed
[17:30:26-706]Rw:  len=8, data=02 03 00 00 00 03 05 f8 
[17:30:27-143]Rr:  len=1, data=feed
[17:30:27-159]device:9100334 csq:6 net:1 server:1, relay:1
[17:30:27-659]feed
[17:30:27-721]
[17:30:27-721]Sensors read rc -2 s -2
[17:30:27-721]now: 2023-01-13 17:30:25
[17:30:28-159]feed
[17:30:28-159]device:9100334 csq:6 net:1 server:1, relay:1
[17:30:28-659]feed
[17:30:28-722]read each end
[17:30:28-722]indicators_values[1].sensor = 20000a1c
[17:30:28-722]indicators_values[2].sensor = 20000a8c
[17:30:29-159]feed
[17:30:29-159]device:9100334 csq:6 net:1 server:1, relay:1
[17:30:29-409]<Recv>:
[17:30:29-409]id = 18f51111, dlc = 6
[17:30:29-409]01 00 02 00 00 00 
[17:30:29-425]dev_relay:ch=1, os=0, ks=2, err=0, cur=0(mA)
[17:30:29-425]<Recv>:
[17:30:29-425]id = 18f51111, dlc = 6
[17:30:29-425]02 00 02 00 00 00 
[17:30:29-425]dev_relay:ch=2, os=0, ks=2, err=0, cur=0(mA)
[17:30:29-425]<Recv>:
[17:30:29-425]id = 18f51111, dlc = 6
[17:30:29-425]03 00 02 00 00 00 
[17:30:29-440]dev_relay:ch=3, os=0, ks=2, err=0, cur=0(mA)
[17:30:29-440]<Recv>:
[17:30:29-440]id = 18f51111, dlc = 6
[17:30:29-440]04 00 02 00 02 00 
[17:30:29-440]dev_relay:ch=4, os=0, ks=2, err=0, cur=20(mA)
[17:30:29-440]<Recv>:
[17:30:29-456]id = 18f51111, dlc = 6
[17:30:29-456]05 00 02 00 01 00 
[17:30:29-456]dev_relay:ch=5, os=0, ks=2, err=0, cur=10(mA)
[17:30:29-659]feed
[17:30:29-722]air blow: err: 10, rst: 3, status: -2
[17:30:29-737]Rw:  len=8, data=fb 03 00 00 00 0a d1 97 
[17:30:29-737]Rr:  len=1, data=key<1> release
[17:30:29-737]get_ch <1> = OFF
[17:30:30-159]feed
[17:30:30-159]device:9100334 csq:6 net:1 server:1, relay:1
[17:30:30-659]feed
[17:30:30-737]now: 2023-01-13 17:30:28
[17:30:30-737][0]broken_index<0> = broken_type<0>
[17:30:30-768]Pw:  len=52, data=00 8a dc 2e 03 40 00 00 12 d0 00 01 25 01 17 01 0d 11 1e 1c ff fc 00 00 00 00 00 00 00 00 f8 00 00 00 00 00 00 00 00 00 00 00 00 00 00 00 00 00 00 00 e2 43 
[17:30:30-768]
[17:30:31-159]feed
[17:30:31-175]device:9100334 csq:6 net:1 server:1, relay:1
[17:30:31-675]feed
[17:30:31-737]probe u_value = 0
[17:30:31-737]probe u_value = 0
[17:30:31-737]probe u_value = 0
[17:30:31-753]Rw:  len=8, data=01 06 00 0a 00 00 a9 c8 
[17:30:32-175]Rr:  len=1, data=feed
[17:30:32-175]device:9100334 csq:6 net:1 server:1, relay:1
[17:30:32-675]feed
[17:30:32-753]read each start
[17:30:32-769]Rw:  len=8, data=01 03 00 00 00 05 85 c9 
[17:30:33-175]Rr:  len=1, data=feed
[17:30:33-175]device:9100334 csq:6 net:1 server:1, relay:1
[17:30:33-675]feed
[17:30:33-769]
[17:30:33-769]Sensors read rc -2 s -2
[17:30:33-784]now: 2023-01-13 17:30:31
[17:30:34-175]feed
[17:30:34-175]device:9100334 csq:6 net:1 server:1, relay:1
[17:30:34-675]feed
[17:30:34-784]Rw:  len=8, data=02 03 00 00 00 03 05 f8 
[17:30:35-175]Rr:  len=1, data=feed
[17:30:35-191]device:9100334 csq:6 net:1 server:1, relay:1
[17:30:35-691]feed
[17:30:35-784]
[17:30:35-784]Sensors read rc -2 s -2
[17:30:36-191]feed
[17:30:36-191]device:9100334 csq:6 net:1 server:1, relay:1
[17:30:36-691]feed
[17:30:36-800]read each end
[17:30:36-800]indicators_values[1].sensor = 20000a1c
[17:30:36-800]indicators_values[2].sensor = 20000a8c
[17:30:36-800]now: 2023-01-13 17:30:34
[17:30:37-191]feed
[17:30:37-191]device:9100334 csq:6 net:1 server:1, relay:1
[17:30:37-691]feed
[17:30:37-800]air blow: err: 10, rst: 3, status: -2
[17:30:37-800]Rw:  len=8, data=fb 03 00 00 00 0a d1 97 
[17:30:38-191]Rr:  len=1, data=feed
[17:30:38-191]device:9100334 csq:6 net:1 server:1, relay:1
[17:30:38-691]feed
[17:30:38-941]Pr:  len=13, data=00 8a dc 2e 16 40 00 04 0b 00 00 01 06 
[17:30:38-941]Pr:  len=6, data=01 20 00 01 00 14 
[17:30:38-956]Pr:  len=2, data=5e 20 
[17:30:38-956]eeprom write: 1578 page
[17:30:38-972]01 01 01 17 01 0d 11 1e 24 17 01 0d 11 32 24 00 00 00 00 00 00 00 00 00 00 00 00 00 00 00 14 ca 
[17:30:38-988]Pw:  len=15, data=00 8a dc 2e 16 40 00 04 0b d0 00 01 00 91 c4 
[17:30:38-988]
[17:30:39-191]feed
[17:30:39-206]device:9100334 csq:6 net:1 server:1, relay:1
[17:30:39-566]CSQ: 6
[17:30:39-706]feed
[17:30:39-816]probe u_value = 0
[17:30:39-816]probe u_value = 0
[17:30:39-816]probe u_value = 0
[17:30:39-831]Rw:  len=8, data=01 06 00 0a 00 00 a9 c8 
[17:30:39-831]Rr:  len=1, data=now: 2023-01-13 17:30:37
[17:30:39-831]set_ch <3> = ON
[17:30:39-847]<USend>:
[17:30:39-847]id = 0c501101, dlc = 7
[17:30:39-847]03 01 03 00 00 00 00 
[17:30:39-863]<Recv>:
[17:30:39-863]id = 18e80111, dlc = 4
[17:30:39-863]50 00 00 00 
[17:30:39-863]dev_respon:PGN=5000,status=0
[17:30:39-941]<Recv>:
[17:30:39-941]id = 18f51111, dlc = 6
[17:30:39-941]01 00 02 00 00 00 
[17:30:39-956]dev_relay:ch=1, os=0, ks=2, err=0, cur=0(mA)
[17:30:39-956]<Recv>:
[17:30:39-956]id = 18f51111, dlc = 6
[17:30:39-956]02 00 02 00 00 00 
[17:30:39-956]dev_relay:ch=2, os=0, ks=2, err=0, cur=0(mA)
[17:30:39-956]<Recv>:
[17:30:39-956]id = 18f51111, dlc = 6
[17:30:39-956]03 00 02 00 00 00 
[17:30:39-972]dev_relay:ch=3, os=0, ks=2, err=0, cur=0(mA)
[17:30:39-972]<Recv>:
[17:30:39-972]id = 18f51111, dlc = 6
[17:30:39-972]04 00 02 00 01 00 
[17:30:39-972]fev_relay:ch=4, os=0, ks=2, err=0, cur=10(mA)
[17:30:39-972]<Recv>:
[17:30:39-972]id = 18f51111, dlc = 6
[17:30:39-988]05 00 02 00 01 00 
[17:30:39-988]dev_relay:ch=5, os=0, ks=2, err=0, cur=10(mA)
[17:30:40-175]<Recv>:
[17:30:40-175]id = 18f51111, dlc = 6
[17:30:40-175]01 00 02 00 00 00 
[17:30:40-175]dev_relay:ch=1, os=0, ks=2, err=0, cur=0(mA)
[17:30:40-175]<Recv>:
[17:30:40-175]id = 18f51111, dlc = 6
[17:30:40-175]02 00 02 00 00 00 
[17:30:40-175]dev_relay:ch=2, os=0, ks=2, err=0, cur=0(mA)
[17:30:40-191]<Recv>:
[17:30:40-191]id = 18f51111, dlc = 6
[17:30:40-191]03 01 02 00 00 00 
[17:30:40-191]dev_relay:ch=3, os=1, ks=2, err=0, cur=0(mA)
[17:30:40-191]<Recv>:
[17:30:40-206]id = 18f51111, dlc = 6
[17:30:40-206]04 00 02 00 01 00 
[17:30:40-206]dev_relay:ch=4, os=0, ks=2, err=0, cur=10(mA)
[17:30:40-206]<Recv>:
[17:30:40-206]id = 18f51111, dlc = 6
[17:30:40-206]05 00 02 00 01 00 
[17:30:40-222]dev_relay:ch=5, os=0, ks=2, err=0, cur=10(mA)
[17:30:40-691]<Recv>:
[17:30:40-706]id = 18f51111, dlc = 6
[17:30:40-706]01 00 02 00 00 00 
[17:30:40-706]dev_relay:ch=1, os=0, ks=2, err=0, cur=0(mA)
[17:30:40-706]<Recv>:
[17:30:40-706]id = 18f51111, dlc = 6
[17:30:40-706]02 00 02 00 00 00 
[17:30:40-722]dev_relay:ch=2, os=0, ks=2, err=0, cur=0(mA)
[17:30:40-722]<Recv>:
[17:30:40-722]id = 18f51111, dlc = 6
[17:30:40-722]03 01 02 00 57 02 
[17:30:40-722]dev_relay:ch=3, os=1, ks=2, err=0, cur=5990(mA)
[17:30:40-722]<Recv>:
[17:30:40-722]id = 18f51111, dlc = 6
[17:30:40-738]04 00 02 00 02 00 
[17:30:40-738]dev_relay:ch=4, os=0, ks=2, err=0, cur=20(mA)
[17:30:40-738]<Recv>:
[17:30:40-738]id = 18f51111, dlc = 6
[17:30:40-738]05 00 02 00 02 00 
[17:30:40-738]dev_relay:ch=5, os=0, ks=2, err=0, cur=20(mA)
[17:30:40-831]read each start
[17:30:40-847]Rw:  len=8, data=01 03 00 00 00 05 85 c9 
[17:30:41-206]Rr:  len=1, data=feed
[17:30:41-206]device:9100334 csq:6 net:1 server:1, relay:1
[17:30:41-706]feed
[17:30:41-847]
[17:30:41-847]Sensors read rc -2 s -2
[17:30:42-206]feed
[17:30:42-206]device:9100334 csq:6 net:1 server:1, relay:1
[17:30:42-706]feed
[17:30:42-863]Rw:  len=8, data=02 03 00 00 00 03 05 f8 
[17:30:42-988]Rr:  len=1, data=now: 2023-01-13 17:30:40
[17:30:42-988]relay_output_status ON
[17:30:43-003]Pw:  len=52, data=00 8a dc 2e 03 40 00 00 12 d0 00 01 25 01 17 01 0d 11 1e 28 ff fc 00 00 00 00 20 00 20 00 f8 00 00 00 20 00 20 00 00 00 00 00 00 00 00 00 00 00 00 00 20 d3 
[17:30:43-003]
[17:30:43-206]feed
[17:30:43-206]device:9100334 csq:6 net:1 server:1, relay:1
[17:30:43-706]feed
[17:30:43-863]
[17:30:43-863]Sensors read rc -2 s -2
[17:30:44-206]feed
[17:30:44-222]device:9100334 csq:6 net:1 server:1, relay:1
[17:30:44-722]feed
[17:30:44-863]read each end
[17:30:44-878]indicators_values[1].sensor = 20000a1c
[17:30:44-878]indicators_values[2].sensor = 20000a8c
[17:30:45-222]feed
[17:30:45-222]device:9100334 csq:6 net:1 server:1, relay:1
[17:30:45-722]feed
[17:30:45-894]Pw:  len=67, data=00 8a dc 2e 03 40 00 00 16 d0 00 01 34 21 01 e0 00 00 00 00 00 00 00 44 4f 2d 59 31 30 32 00 00 00 0c 1f 01 00 00 00 00 00 00 00 00 00 00 00 50 48 2d 32 30 31 00 00 00 00 0c 81 02 00 00 00 00 00 4a a5 
[17:30:45-910]
[17:30:45-910]air blow: err: 10, rst: 3, status: -2
[17:30:45-910]Rw:  len=8, data=fb 03 00 00 00 0a d1 97 
[17:30:46-019]Rr:  len=1, data=now: 2023-01-13 17:30:43
[17:30:46-222]feed
[17:30:46-222]device:9100334 csq:6 net:1 server:1, relay:1
[17:30:46-722]feed
[17:30:47-222]feed
[17:30:47-222]device:9100334 csq:6 net:1 server:1, relay:1
[17:30:47-722]feed
[17:30:47-925]probe u_value = 0
[17:30:47-925]probe u_value = 0
[17:30:47-925]probe u_value = 0
[17:30:47-925]Rw:  len=8, data=01 06 00 0a 00 00 a9 c8 
[17:30:48-238]Rr:  len=1, data=feed
[17:30:48-238]device:9100334 csq:6 net:1 server:1, relay:1
[17:30:48-738]feed
[17:30:48-941]read each start
[17:30:48-941]Rw:  len=8, data=01 03 00 00 00 05 85 c9 
[17:30:49-019]Rr:  len=1, data=now: 2023-01-13 17:30:46
[17:30:49-238]<Recv>:
[17:30:49-238]id = 18f61111, dlc = 7
[17:30:49-238]04 48 08 52 08 52 08 
[17:30:49-238]power in:cfg=4, VA=212(V), VB=213(V), VC=213(V)
[17:30:49-738]feed
[17:30:49-957]
[17:30:49-957]Sensors read rc -2 s -2
[17:30:50-238]feed
[17:30:50-238]device:9100334 csq:6 net:1 server:1, relay:1
[17:30:50-738]feed
[17:30:50-957]Rw:  len=8, data=02 03 00 00 00 03 05 f8 
[17:30:51-238]Rr:  len=1, data=feed
[17:30:51-238]device:9100334 csq:6 net:1 server:1, relay:1
[17:30:51-738]feed
[17:30:51-972]
[17:30:51-972]Sensors read rc -2 s -2
[17:30:52-019]now: 2023-01-13 17:30:49
[17:30:52-238]feed
[17:30:52-238]device:9100334 csq:6 net:1 server:1, relay:1
[17:30:52-472]CSQ: 20
[17:30:52-738]feed
[17:30:52-972]read each end
[17:30:52-972]indicators_values[1].sensor = 20000a1c
[17:30:52-972]indicators_values[2].sensor = 20000a8c
[17:30:53-254]feed
[17:30:53-254]device:9100334 csq:20 net:1 server:1, relay:1
[17:30:53-754]feed
[17:30:53-988]air blow: err: 10, rst: 3, status: -2
[17:30:53-988]Rw:  len=8, data=fb 03 00 00 00 0a d1 97 
[17:30:54-254]Rr:  len=1, data=feed
[17:30:54-254]device:9100334 csq:20 net:1 server:1, relay:1
[17:30:54-754]feed
[17:30:55-019]now: 2023-01-13 17:30:52
[17:30:55-254]feed
[17:30:55-254]device:9100334 csq:20 net:1 server:1, relay:1
[17:30:55-754]feed
[17:30:55-988]probe u_value = 0
[17:30:56-004]probe u_value = 0
[17:30:56-004]probe u_value = 0
[17:30:56-004]Rw:  len=8, data=01 06 00 0a 00 00 a9 c8 
[17:30:56-254]Rr:  len=1, data=feed
[17:30:56-269]device:9100334 csq:20 net:1 server:1, relay:1
[17:30:56-769]feed
[17:30:57-019]read each start
[17:30:57-019]Rw:  len=8, data=01 03 00 00 00 05 85 c9 
[17:30:57-269]Rr:  len=1, data=feed
[17:30:57-269]device:9100334 csq:20 net:1 server:1, relay:1
[17:30:57-769]feed
[17:30:58-035]
[17:30:58-035]Sensors read rc -2 s -2
[17:30:58-035]now: 2023-01-13 17:30:55
[17:30:58-269]feed
[17:30:58-269]device:9100334 csq:20 net:1 server:1, relay:1
[17:30:58-769]feed
[17:30:59-035]Rw:  len=8, data=02 03 00 00 00 03 05 f8 
[17:30:59-269]Rr:  len=1, data=feed
[17:30:59-269]device:9100334 csq:20 net:1 server:1, relay:1
[17:30:59-769]feed
[17:31:00-051]
[17:31:00-051]Sensors read rc -2 s -2
[17:31:00-269]feed
[17:31:00-285]device:9100334 csq:20 net:1 server:1, relay:1
[17:31:00-785]feed
[17:31:01-051]read each end
[17:31:01-051]indicators_values[1].sensor = 20000a1c
[17:31:01-051]indicators_values[2].sensor = 20000a8c
[17:31:01-051]now: 2023-01-13 17:30:58
[17:31:01-285]feed
[17:31:01-285]device:9100334 csq:20 net:1 server:1, relay:1
[17:31:01-785]feed
[17:31:02-051]air blow: err: 10, rst: 3, status: -2
[17:31:02-066]Rw:  len=8, data=fb 03 00 00 00 0a d1 97 
[17:31:02-285]Rr:  len=1, data=feed
[17:31:02-285]device:9100334 csq:20 net:1 server:1, relay:1
[17:31:02-785]feed
[17:31:03-285]feed
[17:31:03-285]device:9100334 csq:20 net:1 server:1, relay:1
[17:31:03-785]feed
[17:31:04-066]probe u_value = 0
[17:31:04-066]probe u_value = 0
[17:31:04-066]probe u_value = 0
[17:31:04-082]Rw:  len=8, data=01 06 00 0a 00 00 a9 c8 
[17:31:04-098]Rr:  len=1, data=now: 2023-01-13 17:31:01
[17:31:04-285]feed
[17:31:04-301]device:9100334 csq:20 net:1 server:1, relay:1
[17:31:04-801]feed
[17:31:05-082]read each start
[17:31:05-098]Rw:  len=8, data=01 03 00 00 00 05 85 c9 
[17:31:05-301]Rr:  len=1, data=feed
[17:31:05-301]device:9100334 csq:20 net:1 server:1, relay:1
[17:31:05-598]CSQ: 20
[17:31:05-801]feed
[17:31:05-879]Pr:  len=13, data=00 8a dc 2e 16 40 00 05 0b 00 00 01 06 
[17:31:05-879]Pr:  len=6, data=01 20 00 00 00 01 
[17:31:05-879]Pr:  len=2, data=33 ec 
[17:31:05-894]eeprom write: 1578 page
