[11:45:33-372]air blow: err: 2, rst: 0, status: -2
[11:45:33-372]Rw:  len=8, data=fb 03 00 00 00 0a d1 97 
[11:45:33-734]Rr:  len=1, data=feed
[11:45:34-239]feed
[11:45:34-239]device:9100334 csq:0 net:0 server:0, relay:1
[11:45:34-739]feed
[11:45:35-242]feed
[11:45:35-242]device:9100334 csq:0 net:0 server:0, relay:1
[11:45:35-389]air blow: err: 3, rst: 0, status: -2
[11:45:35-389]Rw:  len=8, data=fb 03 00 00 00 0a d1 97 
[11:45:35-742]Rr:  len=1, data=feed
[11:45:36-248]feed
[11:45:36-248]device:9100334 csq:0 net:0 server:0, relay:1
[11:45:36-747]feed
[11:45:37-252]feed
[11:45:37-252]device:9100334 csq:0 net:0 server:0, relay:1
[11:45:37-407]air blow: err: 4, rst: 0, status: -2
[11:45:37-407]Rw:  len=8, data=fb 03 00 00 00 0a d1 97 
[11:45:37-751]Rr:  len=1, data=feed
[11:45:38-256]feed
[11:45:38-256]device:9100334 csq:0 net:0 server:0, relay:1
[11:45:38-755]feed
[11:45:39-260]feed
[11:45:39-260]device:9100334 csq:0 net:0 server:0, relay:1
[11:45:39-326]now: 2023-01-18 11:45:33
[11:45:39-424]air blow: err: 5, rst: 0, status: -2
[11:45:39-424]Rw:  len=8, data=fb 03 00 00 00 0a d1 97 
[11:45:39-760]Rr:  len=1, data=feed
[11:45:40-263]feed
[11:45:40-263]device:9100334 csq:0 net:0 server:0, relay:1
[11:45:40-764]feed
[11:45:41-268]feed
[11:45:41-269]device:9100334 csq:0 net:0 server:0, relay:1
[11:45:41-442]air blow: err: 6, rst: 0, status: -2
[11:45:41-442]Rw:  len=8, data=fb 03 00 00 00 0a d1 97 
[11:45:41-767]Rr:  len=1, data=feed
[11:45:42-272]feed
[11:45:42-272]device:9100334 csq:0 net:0 server:0, relay:1
[11:45:42-329]now: 2023-01-18 11:45:36
[11:45:42-772]feed
[11:45:43-275]feed
[11:45:43-275]device:9100334 csq:0 net:0 server:0, relay:1
[11:45:43-458]air blow: err: 7, rst: 0, status: -2
[11:45:43-458]Rw:  len=8, data=fb 03 00 00 00 0a d1 97 
[11:45:43-776]Rr:  len=1, data=feed
[11:45:44-279]feed
[11:45:44-279]device:9100334 csq:0 net:0 server:0, relay:1
[11:45:44-780]feed
[11:45:45-289]feed
[11:45:45-291]device:9100334 csq:0 net:0 server:0, relay:1
[11:45:45-331]now: 2023-01-18 11:45:39
[11:45:45-478]air blow: err: 8, rst: 0, status: -2
[11:45:45-478]Rw:  len=8, data=fb 03 00 00 00 0a d1 97 
[11:45:45-784]Rr:  len=1, data=feed
[11:45:46-291]feed
[11:45:46-293]device:9100334 csq:0 net:0 server:0, relay:1
[11:45:46-799]feed
[11:45:46-800]Pw:  len=16, data=00 8a dc 2e 03 40 00 00 0e d0 00 01 01 01 91 ec 
[11:45:46-801]
[11:45:47-295]feed
[11:45:47-296]device:9100334 csq:0 net:1 server:0, relay:1
[11:45:47-495]air blow: err: 9, rst: 0, status: -2
[11:45:47-495]Rw:  len=8, data=fb 03 00 00 00 0a d1 97 
[11:45:47-792]Rr:  len=1, data=feed
[11:45:47-825]Pr:  len=13, data=00 8a dc 2e 03 40 00 00 0e 00 00 01 01 
[11:45:47-825]Pr:  len=1, data=01 
[11:45:47-826]Pr:  len=2, data=50 3e 
[11:45:48-011]Gw:  len=11, data=a5 5a 00 00 02 00 00 ff ff 30 94 
[11:45:48-011]
[11:45:48-299]feed
[11:45:48-299]device:9100334 csq:0 net:1 server:1, relay:1
[11:45:48-334]now: 2023-01-18 11:45:42
[11:45:48-516]Gr:  len=9, data=a5 5a 00 00 02 14 00 eb ff 
[11:45:48-517]Gr:  len=20, data=38 39 38 36 30 34 41 32 31 39 32 31 37 31 31 35 34 37 35 39 
[11:45:48-530]Gr:  len=2, data=cd 63 
[11:45:48-530]Gw:  len=11, data=a5 5a 00 00 03 00 00 ff ff 0d 54 
[11:45:48-530]
[11:45:48-799]feed
[11:45:48-799]CSQ: 0
[11:45:49-040]Gr:  len=9, data=a5 5a 00 00 03 01 00 fe ff 
[11:45:49-040]Gr:  len=1, data=01 
[11:45:49-041]Gr:  len=2, data=38 05 
[11:45:49-053]Pw:  len=36, data=00 8a dc 2e 03 40 00 00 2c d0 00 01 15 01 38 39 38 36 30 34 41 32 31 39 32 31 37 31 31 35 34 37 35 39 b7 e1 
[11:45:49-063]
[11:45:49-302]feed
[11:45:49-303]device:9100334 csq:0 net:1 server:1, relay:1
[11:45:49-801]feed
[11:45:50-307]feed
[11:45:50-307]device:9100334 csq:0 net:1 server:1, relay:1
[11:45:50-804]feed
[11:45:51-311]feed
[11:45:51-313]device:9100334 csq:0 net:1 server:1, relay:1
[11:45:51-336]now: 2023-01-18 11:45:45
[11:45:51-810]feed
[11:45:52-030]Pr:  len=13, data=00 8a dc 2e 03 40 00 00 12 00 00 01 01 
[11:45:52-030]Pr:  len=1, data=01 
[11:45:52-030]Pr:  len=2, data=52 62 
[11:45:52-052]Pw:  len=52, data=00 8a dc 2e 03 40 00 00 12 d0 00 01 25 01 17 01 12 0b 2d 2e ff fc 00 00 00 00 00 00 00 00 00 00 00 00 00 00 00 00 00 00 00 00 00 00 00 00 00 00 00 00 10 3f 
[11:45:52-057]
[11:45:52-315]feed
[11:45:52-316]device:9100334 csq:0 net:1 server:1, relay:1
[11:45:52-812]feed
[11:45:53-319]feed
[11:45:53-319]device:9100334 csq:0 net:1 server:1, relay:1
[11:45:53-817]feed
[11:45:54-323]feed
[11:45:54-323]device:9100334 csq:0 net:1 server:1, relay:1
[11:45:54-337]now: 2023-01-18 11:45:48
[11:45:54-513]air blow: err: 0, rst: 1, status: -1
[11:45:54-515]Rw:  len=8, data=fb 03 00 00 00 0a d1 97 
[11:45:54-820]Rr:  len=1, data=feed
[11:45:55-328]feed
[11:45:55-330]device:9100334 csq:0 net:1 server:1, relay:1
[11:45:55-824]feed
[11:45:56-187]<Recv>:
[11:45:56-187]id = 18f61111, dlc = 7
[11:45:56-187]04 70 08 84 08 84 08 
[11:45:56-187]power in:cfg=4, VA=216(V), VB=218(V), VC=218(V)
[11:45:56-332]feed
[11:45:56-333]device:9100334 csq:0 net:1 server:1, relay:1
[11:45:56-527]scan sensors driver
[11:45:56-527]Rw:  len=8, data=01 03 00 14 00 04 04 0d 
[11:45:56-830]Rr:  len=1, data=feed
[11:45:57-062]Pr:  len=13, data=00 8a dc 2e 16 40 00 00 0a 00 00 01 07 
[11:45:57-062]Pr:  len=7, data=17 01 12 03 0b 2d 34 
[11:45:57-064]Pr:  len=2, data=39 fd 
[11:45:57-074]Pw:  len=15, data=00 8a dc 2e 16 40 00 00 0a d0 00 01 00 ad 80 
[11:45:57-076]
[11:45:57-335]feed
[11:45:57-336]device:9100334 csq:0 net:1 server:1, relay:1
[11:45:57-340]now: 2023-01-18 11:45:52
[11:45:57-545]Update model <DO-Y102>
[11:45:57-546]Rw:  len=8, data=01 06 00 0a 00 00 a9 c8 
[11:45:57-833]Rr:  len=1, data=feed
[11:45:58-340]feed
[11:45:58-341]device:9100334 csq:0 net:1 server:1, relay:1
[11:45:58-837]feed
[11:45:59-343]feed
[11:45:59-343]device:9100334 csq:0 net:1 server:1, relay:1
[11:45:59-554]Rw:  len=8, data=02 03 00 14 00 04 04 3e 
[11:45:59-842]Rr:  len=1, data=feed
[11:46:00-349]feed
[11:46:00-349]device:9100334 csq:0 net:1 server:1, relay:1
[11:46:00-349]now: 2023-01-18 11:45:55
[11:46:00-566]Update model <PH-201>
[11:46:00-844]feed
[11:46:01-351]feed
[11:46:01-352]device:9100334 csq:0 net:1 server:1, relay:1
[11:46:01-574]indicators_values[1].sensor = NULL
[11:46:01-574]indicators_values[2].sensor = NULL
[11:46:01-574]air blow: err: 1, rst: 1, status: -2
[11:46:01-582]Rw:  len=8, data=fb 03 00 00 00 0a d1 97 
[11:46:01-852]Rr:  len=1, data=feed
[11:46:01-853]CSQ: 6
[11:46:01-981]Pr:  len=13, data=00 8a dc 2e 03 40 00 00 02 00 00 01 00 
[11:46:01-982]Pr:  len=2, data=86 11 
[11:46:01-999]Pw:  len=42, data=00 8a dc 2e 03 40 00 00 02 d0 00 01 1b 01 00 00 01 00 00 59 2d 35 31 35 00 00 00 00 00 04 5a 00 8a dc 2e 00 00 00 00 00 1c 1c 
[11:46:02-000]
[11:46:02-356]feed
[11:46:02-356]device:9100334 csq:6 net:1 server:1, relay:1
[11:46:02-854]feed
[11:46:03-362]feed
[11:46:03-362]device:9100334 csq:6 net:1 server:1, relay:1
[11:46:03-363]now: 2023-01-18 11:45:58
[11:46:03-599]air blow: err: 2, rst: 1, status: -2
[11:46:03-601]Rw:  len=8, data=fb 03 00 00 00 0a d1 97 
[11:46:03-856]Rr:  len=1, data=feed
[11:46:04-363]feed
[11:46:04-363]device:9100334 csq:6 net:1 server:1, relay:1
[11:46:04-861]feed
[11:46:05-367]feed
[11:46:05-367]device:9100334 csq:6 net:1 server:1, relay:1
[11:46:05-616]air blow: err: 3, rst: 1, status: -2
[11:46:05-618]Rw:  len=8, data=fb 03 00 00 00 0a d1 97 
[11:46:05-866]Rr:  len=1, data=feed
[11:46:06-374]feed
[11:46:06-374]device:9100334 csq:6 net:1 server:1, relay:1
[11:46:06-374]now: 2023-01-18 11:46:01
[11:46:06-869]feed
[11:46:07-111]Pr:  len=13, data=00 8a dc 2e 03 40 00 00 07 00 00 01 01 
[11:46:07-111]Pr:  len=1, data=01 
[11:46:07-112]Pr:  len=2, data=50 a7 
[11:46:07-124]Pw:  len=18, data=00 8a dc 2e 03 40 00 00 07 d0 00 01 03 01 00 00 ad cf 
[11:46:07-126]
[11:46:07-377]feed
[11:46:07-378]device:9100334 csq:6 net:1 server:1, relay:1
[11:46:07-632]air blow: err: 4, rst: 1, status: -2
[11:46:07-632]Rw:  len=8, data=fb 03 00 00 00 0a d1 97 
[11:46:07-873]Rr:  len=1, data=feed
[11:46:08-382]feed
[11:46:08-384]device:9100334 csq:6 net:1 server:1, relay:1
[11:46:08-877]feed
[11:46:09-387]feed
[11:46:09-387]device:9100334 csq:6 net:1 server:1, relay:1
[11:46:09-387]now: 2023-01-18 11:46:04
[11:46:09-649]air blow: err: 5, rst: 1, status: -2
[11:46:09-650]Rw:  len=8, data=fb 03 00 00 00 0a d1 97 
[11:46:09-880]Rr:  len=1, data=feed
[11:46:10-388]feed
[11:46:10-388]device:9100334 csq:6 net:1 server:1, relay:1
[11:46:10-884]feed
[11:46:11-391]feed
[11:46:11-391]device:9100334 csq:6 net:1 server:1, relay:1
[11:46:11-667]air blow: err: 6, rst: 1, status: -2
[11:46:11-669]Rw:  len=8, data=fb 03 00 00 00 0a d1 97 
[11:46:11-890]Rr:  len=1, data=feed
[11:46:12-400]feed
[11:46:12-400]device:9100334 csq:6 net:1 server:1, relay:1
[11:46:12-402]now: 2023-01-18 11:46:07
[11:46:12-895]feed
[11:46:13-400]feed
[11:46:13-400]device:9100334 csq:6 net:1 server:1, relay:1
[11:46:13-684]air blow: err: 7, rst: 1, status: -2
[11:46:13-686]Rw:  len=8, data=fb 03 00 00 00 0a d1 97 
[11:46:13-897]Rr:  len=1, data=feed
[11:46:14-404]feed
[11:46:14-404]device:9100334 csq:6 net:1 server:1, relay:1
[11:46:14-901]feed
[11:46:14-941]CSQ: 6
[11:46:15-391]<Recv>:
[11:46:15-391]id = 18f51111, dlc = 6
[11:46:15-391]01 01 01 00 00 00 
[11:46:15-391]dev_relay:ch=1, os=1, ks=1, err=0, cur=0(mA)
[11:46:15-392]<Recv>:
[11:46:15-403]id = 18f51111, dlc = 6
[11:46:15-403]02 00 02 00 00 00 
[11:46:15-403]dev_relay:ch=2, os=0, ks=2, err=0, cur=0(mA)
[11:46:15-403]<Recv>:
[11:46:15-403]id = 18f51111, dlc = 6
[11:46:15-404]03 00 02 00 00 00 
[11:46:15-415]dev_relay:ch=3, os=0, ks=2, err=0, cur=0(mA)
[11:46:15-415]<Recv>:
[11:46:15-415]id = 18f51111, dlc = 6
[11:46:15-415]04 00 02 00 01 00 
[11:46:15-427]dev_relay:ch=4, os=0, ks=2, err=0, cur=10(mA)
[11:46:15-427]<Recv>:
[11:46:15-427]id = 18f51111, dlc = 6
[11:46:15-427]05 00 02 00 01 00 
[11:46:15-428]dev_relay:ch=5, os=0, ks=2, err=0, cur=10(mA)
[11:46:15-435]now: 2023-01-18 11:46:10
[11:46:15-435]key<1> press
[11:46:15-436]get_ch <1> = ON
[11:46:15-700]air blow: err: 8, rst: 1, status: -2
[11:46:15-700]Rw:  len=8, data=fb 03 00 00 00 0a d1 97 
[11:46:15-901]Rr:  len=1, data=feed
[11:46:15-920]<Recv>:
[11:46:15-920]id = 18f51111, dlc = 6
[11:46:15-920]01 01 01 01 00 00 
[11:46:15-920]dev_relay:ch=1, os=1, ks=1, err=1, cur=0(mA)
[11:46:15-921]<Recv>:
[11:46:15-932]id = 18f51111, dlc = 6
[11:46:15-932]02 00 02 00 00 00 
[11:46:15-932]dev_relay:ch=2, os=0, ks=2, err=0, cur=0(mA)
[11:46:15-932]<Recv>:
[11:46:15-932]id = 18f51111, dlc = 6
[11:46:15-933]03 00 02 00 00 00 
[11:46:15-943]dev_relay:ch=3, os=0, ks=2, err=0, cur=0(mA)
[11:46:15-943]<Recv>:
[11:46:15-943]id = 18f51111, dlc = 6
[11:46:15-944]04 00 02 00 02 00 
[11:46:15-959]dev_relay:ch=4, os=0, ks=2, err=0, cur=20(mA)
[11:46:15-960]<Recv>:
[11:46:15-960]id = 18f51111, dlc = 6
[11:46:15-960]05 00 02 00 01 00 
[11:46:15-960]dev_relay:ch=5, os=0, ks=2, err=0, cur=10(mA)
[11:46:16-410]feed
[11:46:16-412]device:9100334 csq:6 net:1 server:1, relay:1
[11:46:16-443]set_ch <1> = OFF
[11:46:16-443]<USend>:
[11:46:16-443]id = 0c501101, dlc = 7
[11:46:16-444]01 00 03 00 00 00 00 
[11:46:16-462]<Recv>:
[11:46:16-463]id = 18e80111, dlc = 4
[11:46:16-463]50 00 00 00 
[11:46:16-464]dev_respon:PGN=5000,status=0
[11:46:16-907]feed
[11:46:17-412]feed
[11:46:17-412]device:9100334 csq:6 net:1 server:1, relay:1
[11:46:17-718]air blow: err: 9, rst: 1, status: -2
[11:46:17-718]Rw:  len=8, data=fb 03 00 00 00 0a d1 97 
[11:46:17-908]Rr:  len=1, data=feed
[11:46:18-416]feed
[11:46:18-417]device:9100334 csq:6 net:1 server:1, relay:1
[11:46:18-913]feed
[11:46:19-421]feed
[11:46:19-422]device:9100334 csq:6 net:1 server:1, relay:1
[11:46:19-548]now: 2023-01-18 11:46:14
[11:46:19-548][0]broken_index<0> = broken_type<1>
[11:46:19-562]Pw:  len=52, data=00 8a dc 2e 03 40 00 00 12 d0 00 01 25 01 17 01 12 0b 2e 0e ff fc 00 00 00 00 00 00 00 00 00 00 00 00 00 00 00 00 80 00 00 00 00 00 00 00 00 00 00 00 13 27 
[11:46:19-572]
[11:46:19-573]get_ch <1> = ON
[11:46:19-919]feed
[11:46:20-425]feed
[11:46:20-427]device:9100334 csq:6 net:1 server:1, relay:1
[11:46:20-579]set_ch <1> = OFF
[11:46:20-579]<USend>:
[11:46:20-580]id = 0c501101, dlc = 7
[11:46:20-581]01 00 03 00 00 00 00 
[11:46:20-598]<Recv>:
[11:46:20-598]id = 18e80111, dlc = 4
[11:46:20-599]50 00 00 00 
[11:46:20-600]dev_respon:PGN=5000,status=0
[11:46:20-924]feed
[11:46:21-430]feed
[11:46:21-432]device:9100334 csq:6 net:1 server:1, relay:1
[11:46:21-927]feed
[11:46:22-433]feed
[11:46:22-435]device:9100334 csq:6 net:1 server:1, relay:1
[11:46:22-931]feed
[11:46:23-436]feed
[11:46:23-436]device:9100334 csq:6 net:1 server:1, relay:1
[11:46:23-682]now: 2023-01-18 11:46:18
[11:46:23-694]Pw:  len=52, data=00 8a dc 2e 03 40 00 00 12 d0 00 01 25 01 17 01 12 0b 2e 12 ff fc 00 00 00 00 00 00 00 00 00 00 00 00 00 00 00 00 80 00 00 00 00 00 00 00 00 00 00 00 d2 e8 
[11:46:23-707]
[11:46:23-708]get_ch <1> = ON
[11:46:23-936]feed
[11:46:24-440]feed
[11:46:24-440]device:9100334 csq:6 net:1 server:1, relay:1
[11:46:24-711]set_ch <1> = OFF
[11:46:24-711]<USend>:
[11:46:24-711]id = 0c501101, dlc = 7
[11:46:24-712]01 00 03 00 00 00 00 
[11:46:24-727]<Recv>:
[11:46:24-727]id = 18e80111, dlc = 4
[11:46:24-728]50 00 00 00 
[11:46:24-728]dev_respon:PGN=5000,status=0
[11:46:24-729]air blow: err: 0, rst: 2, status: -1
[11:46:24-738]Rw:  len=8, data=fb 03 00 00 00 0a d1 97 
[11:46:24-938]Rr:  len=1, data=feed
[11:46:25-445]feed
[11:46:25-447]device:9100334 csq:6 net:1 server:1, relay:1
[11:46:25-943]feed
[11:46:26-451]feed
[11:46:26-451]device:9100334 csq:6 net:1 server:1, relay:1
[11:46:26-451]<Recv>:
[11:46:26-452]id = 18f61111, dlc = 7
[11:46:26-453]04 70 08 84 08 84 08 
[11:46:26-461]power in:cfg=4, VA=216(V), VB=218(V), VC=218(V)
[11:46:26-753]air blow: err: 1, rst: 2, status: -2
[11:46:26-754]Rw:  len=8, data=fb 03 00 00 00 0a d1 97 
[11:46:26-947]Rr:  len=1, data=feed
[11:46:27-454]feed
[11:46:27-456]device:9100334 csq:6 net:1 server:1, relay:1
[11:46:27-814]now: 2023-01-18 11:46:22
[11:46:27-826]Pw:  len=52, data=00 8a dc 2e 03 40 00 00 12 d0 00 01 25 01 17 01 12 0b 2e 16 ff fc 00 00 00 00 00 00 00 00 00 00 00 00 00 00 00 00 80 00 00 00 00 00 00 00 00 00 00 00 93 2a 
[11:46:27-841]
[11:46:27-843]get_ch <1> = ON
[11:46:27-952]feed
[11:46:28-010]CSQ: 6
[11:46:28-459]feed
[11:46:28-461]device:9100334 csq:6 net:1 server:1, relay:1
[11:46:28-770]air blow: err: 2, rst: 2, status: -2
[11:46:28-771]Rw:  len=8, data=fb 03 00 00 00 0a d1 97 
[11:46:28-839]Rr:  len=1, data=set_ch <1> = OFF
[11:46:28-839]<USend>:
[11:46:28-839]id = 0c501101, dlc = 7
[11:46:28-840]01 00 03 00 00 00 00 
[11:46:28-859]<Recv>:
[11:46:28-860]id = 18e80111, dlc = 4
[11:46:28-860]50 00 00 00 
[11:46:28-860]dev_respon:PGN=5000,status=0
[11:46:28-954]feed
[11:46:29-461]feed
[11:46:29-463]device:9100334 csq:6 net:1 server:1, relay:1
[11:46:29-960]feed
[11:46:30-466]feed
[11:46:30-468]device:9100334 csq:6 net:1 server:1, relay:1
[11:46:30-787]air blow: err: 3, rst: 2, status: -2
[11:46:30-789]Rw:  len=8, data=fb 03 00 00 00 0a d1 97 
[11:46:30-964]Rr:  len=1, data=feed
[11:46:31-470]feed
[11:46:31-472]device:9100334 csq:6 net:1 server:1, relay:1
[11:46:31-943]now: 2023-01-18 11:46:26
[11:46:31-956]Pw:  len=52, data=00 8a dc 2e 03 40 00 00 12 d0 00 01 25 01 17 01 12 0b 2e 1a ff fc 00 00 00 00 00 00 00 00 00 00 00 00 00 00 00 00 80 00 00 00 00 00 00 00 00 00 00 00 53 2c 
[11:46:31-969]
[11:46:31-969]get_ch <1> = ON
[11:46:31-969]feed
[11:46:32-474]feed
[11:46:32-476]device:9100334 csq:6 net:1 server:1, relay:1
[11:46:32-804]air blow: err: 4, rst: 2, status: -2
[11:46:32-806]Rw:  len=8, data=fb 03 00 00 00 0a d1 97 
[11:46:32-973]Rr:  len=1, data=set_ch <1> = OFF
[11:46:32-973]<USend>:
[11:46:32-973]id = 0c501101, dlc = 7
[11:46:32-973]01 00 03 00 00 00 00 
[11:46:32-974]feed
[11:46:32-991]<Recv>:
[11:46:32-991]id = 18e80111, dlc = 4
[11:46:32-991]50 00 00 00 
[11:46:32-992]dev_respon:PGN=5000,status=0
[11:46:33-477]feed
[11:46:33-478]device:9100334 csq:6 net:1 server:1, relay:1
[11:46:33-976]feed
[11:46:34-483]feed
[11:46:34-485]device:9100334 csq:6 net:1 server:1, relay:1
[11:46:34-820]air blow: err: 5, rst: 2, status: -2
[11:46:34-822]Rw:  len=8, data=fb 03 00 00 00 0a d1 97 
[11:46:34-979]Rr:  len=1, data=feed
[11:46:36-351]feed
[11:46:36-351]device:9100334 csq:6 net:1 server:1, relay:1
[11:46:36-351]feed
[11:46:36-351]now: 2023-01-18 11:46:31
[11:46:36-351]Pw:  len=52, data=00 8a dc 2e 03 40 00 00 12 d0 00 01 25 01 17 01 12 0b 2e 1f ff fc 00 00 00 00 00 00 00 00 00 00 00 00 00 00 00 00 80 00 00 00 00 00 00 00 00 00 00 00 83 2e 
[11:46:36-351]
[11:46:36-356]get_ch <1> = ON
