[15:29:06-214]feed
[15:29:06-714]feed
[15:29:06-714]device:9100334 csq:6 net:1 server:1, relay:1
[15:29:07-089]air blow: err: 1, rst: 3, status: -2
[15:29:07-089]Rw:  len=8, data=fb 03 00 00 00 0a d1 97 
[15:29:07-214]Rr:  len=1, data=feed
[15:29:07-714]feed
[15:29:07-730]device:9100334 csq:6 net:1 server:1, relay:1
[15:29:08-230]feed
[15:29:08-730]feed
[15:29:08-730]device:9100334 csq:6 net:1 server:1, relay:1
[15:29:08-871]now: 2023-01-13 15:29:05
[15:29:09-105]air blow: err: 2, rst: 3, status: -2
[15:29:09-105]Rw:  len=8, data=fb 03 00 00 00 0a d1 97 
[15:29:09-121]Rr:  len=1, data=CSQ: 6
[15:29:09-230]feed
[15:29:09-730]feed
[15:29:09-730]device:9100334 csq:6 net:1 server:1, relay:1
[15:29:10-230]feed
[15:29:10-730]feed
[15:29:10-730]device:9100334 csq:6 net:1 server:1, relay:1
[15:29:11-121]air blow: err: 3, rst: 3, status: -2
[15:29:11-121]Rw:  len=8, data=fb 03 00 00 00 0a d1 97 
[15:29:11-230]Rr:  len=1, data=feed
[15:29:11-417]Pr:  len=13, data=00 8a dc 2e 16 40 00 03 0b 00 00 01 06 
[15:29:11-417]Pr:  len=6, data=01 20 00 01 00 14 
[15:29:11-433]Pr:  len=2, data=ab eb 
[15:29:11-449]eeprom write: 1578 page
[15:29:11-449]01 01 01 17 01 0d 0f 1d 08 17 01 0d 0f 31 08 00 00 00 00 00 00 00 00 00 00 00 00 00 00 00 c5 a3 
[15:29:11-464]Pw:  len=15, data=00 8a dc 2e 16 40 00 03 0b d0 00 01 00 90 73 
[15:29:11-464]
[15:29:11-730]feed
[15:29:11-746]device:9100334 csq:6 net:1 server:1, relay:1
[15:29:11-871]now: 2023-01-13 15:29:08
[15:29:11-871]set_ch <3> = ON
[15:29:11-871]<USend>:
[15:29:11-871]id = 0c501101, dlc = 7
[15:29:11-871]03 01 03 00 00 00 00 
[15:29:11-886]<Recv>:
[15:29:11-886]id = 18e80111, dlc = 4
[15:29:11-886]50 00 00 00 
[15:29:11-886]dev_respon:PGN=5000,status=0
[15:29:11-949]<Recv>:
[15:29:11-949]id = 18f51111, dlc = 6
[15:29:11-949]01 00 02 00 00 00 
[15:29:11-949]dev_relay:ch=1, os=0, ks=2, err=0, cur=0(mA)
[15:29:11-949]<Recv>:
[15:29:11-949]id = 18f51111, dlc = 6
[15:29:11-964]02 00 02 00 00 00 
[15:29:11-964]dev_relay:ch=2, os=0, ks=2, err=0, cur=0(mA)
[15:29:11-964]<Recv>:
[15:29:11-964]id = 18f51111, dlc = 6
[15:29:11-964]03 00 02 00 00 00 
[15:29:11-964]dev_relay:ch=3, os=0, ks=2, err=0, cur=0(mA)
[15:29:11-964]<Recv>:
[15:29:11-964]id = 18f51111, dlc = 6
[15:29:11-980]04 00 02 00 01 00 
[15:29:11-980]dev_relay:ch=4, os=0, ks=2, err=0, cur=10(mA)
[15:29:11-980]<Recv>:
[15:29:11-980]id = 18f51111, dlc = 6
[15:29:11-996]05 00 02 00 01 00 
[15:29:11-996]dev_relay:ch=5, os=0, ks=2, err=0, cur=10(mA)
[15:29:11-996]<Recv>:
[15:29:11-996]id = 18f61111, dlc = 7
[15:29:11-996]04 3e 08 52 08 52 08 
[15:29:11-996]power in:cfg=4, VA=211(V), VB=213(V), VC=213(V)
[15:29:12-246]feed
[15:29:12-746]feed
[15:29:12-746]device:9100334 csq:6 net:1 server:1, relay:1
[15:29:13-136]air blow: err: 4, rst: 3, status: -2
[15:29:13-136]Rw:  len=8, data=fb 03 00 00 00 0a d1 97 
[15:29:13-246]Rr:  len=1, data=feed
[15:29:13-746]feed
[15:29:13-746]device:9100334 csq:6 net:1 server:1, relay:1
[15:29:14-246]feed
[15:29:14-746]feed
[15:29:14-746]device:9100334 csq:6 net:1 server:1, relay:1
[15:29:14-996]now: 2023-01-13 15:29:12
[15:29:15-011]Pw:  len=52, data=00 8a dc 2e 03 40 00 00 12 d0 00 01 25 01 17 01 0d 0f 1d 0c ff fc 00 00 00 00 20 00 20 00 00 00 00 00 20 00 00 00 00 00 00 00 00 00 00 00 00 00 00 00 3c 3f 
[15:29:15-027]
[15:29:15-027]get_ch <3> = OFF
[15:29:15-152]air blow: err: 5, rst: 3, status: -2
[15:29:15-152]Rw:  len=8, data=fb 03 00 00 00 0a d1 97 
[15:29:15-246]Rr:  len=1, data=feed
[15:29:15-761]feed
[15:29:15-761]device:9100334 csq:6 net:1 server:1, relay:1
[15:29:16-027]set_ch <3> = ON
[15:29:16-027]<USend>:
[15:29:16-027]id = 0c501101, dlc = 7
[15:29:16-027]03 01 03 00 00 00 00 
[15:29:16-043]<Recv>:
[15:29:16-043]id = 18e80111, dlc = 4
[15:29:16-043]50 00 00 00 
[15:29:16-058]dev_respon:PGN=5000,status=0
[15:29:16-261]feed
[15:29:16-761]feed
[15:29:16-761]device:9100334 csq:6 net:1 server:1, relay:1
[15:29:16-808]<Recv>:
[15:29:16-808]id = 18f51111, dlc = 6
[15:29:16-808]01 00 02 00 00 00 
[15:29:16-824]dev_relay:ch=1, os=0, ks=2, err=0, cur=0(mA)
[15:29:16-824]<Recv>:
[15:29:16-824]id = 18f51111, dlc = 6
[15:29:16-824]02 00 02 00 00 00 
[15:29:16-824]dev_relay:ch=2, os=0, ks=2, err=0, cur=0(mA)
[15:29:16-824]<Recv>:
[15:29:16-839]id = 18f51111, dlc = 6
[15:29:16-839]03 01 02 00 00 00 
[15:29:16-839]dev_relay:ch=3, os=1, ks=2, err=0, cur=0(mA)
[15:29:16-839]<Recv>:
[15:29:16-839]id = 18f51111, dlc = 6
[15:29:16-839]04 00 02 00 01 00 
[15:29:16-839]dev_relay:ch=4, os=0, ks=2, err=0, cur=10(mA)
[15:29:16-839]<Recv>:
[15:29:16-839]id = 18f51111, dlc = 6
[15:29:16-855]05 00 02 00 01 00 
[15:29:16-855]dev_relay:ch=5, os=0, ks=2, err=0, cur=10(mA)
[15:29:17-011]<Recv>:
[15:29:17-011]id = 18f00111, dlc = 8
[15:29:17-011]01 00 00 00 01 00 00 00 
[15:29:17-011]relay_H: 1.0.0.0        relay_F: 1.0.0.0
[15:29:17-105]<Recv>:
[15:29:17-121]id = 18f00211, dlc = 8
[15:29:17-121]52 45 4c 41 59 00 00 00 
[15:29:17-121]relay_PN: RELAY
[15:29:17-168]air blow: err: 6, rst: 3, status: -2
[15:29:17-168]Rw:  len=8, data=fb 03 00 00 00 0a d1 97 
[15:29:17-214]Rr:  len=1, data=<Recv>:
[15:29:17-214]id = 18f00311, dlc = 7
[15:29:17-214]59 04 00 00 00 00 00 
[15:29:17-230]relay_SN: 1113000000000
[15:29:17-261]feed
[15:29:17-339]<Recv>:
[15:29:17-339]id = 18f51111, dlc = 6
[15:29:17-339]01 00 02 00 00 00 
[15:29:17-339]dev_relay:ch=1, os=0, ks=2, err=0, cur=0(mA)
[15:29:17-339]<Recv>:
[15:29:17-355]id = 18f51111, dlc = 6
[15:29:17-355]02 00 02 00 00 00 
[15:29:17-355]dev_relay:ch=2, os=0, ks=2, err=0, cur=0(mA)
[15:29:17-355]<Recv>:
[15:29:17-355]id = 18f51111, dlc = 6
[15:29:17-355]03 01 02 00 f0 01 
[15:29:17-355]dev_relay:ch=3, os=1, ks=2, err=0, cur=4960(mA)
[15:29:17-371]<Recv>:
[15:29:17-371]id = 18f51111, dlc = 6
[15:29:17-371]04 00 02 00 02 00 
[15:29:17-371]dev_relay:ch=4, os=0, ks=2, err=0, cur=20(mA)
[15:29:17-371]<Recv>:
[15:29:17-371]id = 18f51111, dlc = 6
[15:29:17-371]05 00 02 00 01 00 
[15:29:17-386]dev_relay:ch=5, os=0, ks=2, err=0, cur=10(mA)
[15:29:17-761]feed
[15:29:17-761]device:9100334 csq:6 net:1 server:1, relay:1
[15:29:18-261]feed
[15:29:18-761]feed
[15:29:18-761]device:9100334 csq:6 net:1 server:1, relay:1
[15:29:19-136]now: 2023-01-13 15:29:16
[15:29:19-136]relay_output_status ON
[15:29:19-152]Pw:  len=52, data=00 8a dc 2e 03 40 00 00 12 d0 00 01 25 01 17 01 0d 0f 1d 10 ff fc 00 00 00 00 20 00 20 00 00 00 00 00 20 00 20 00 00 00 00 00 00 00 00 00 00 00 00 00 dc 10 
[15:29:19-152]
[15:29:19-183]air blow: err: 7, rst: 3, status: -2
[15:29:19-199]Rw:  len=8, data=fb 03 00 00 00 0a d1 97 
[15:29:19-261]Rr:  len=1, data=feed
[15:29:19-777]feed
[15:29:19-777]device:9100334 csq:6 net:1 server:1, relay:1
[15:29:20-277]feed
[15:29:20-777]feed
[15:29:20-777]device:9100334 csq:6 net:1 server:1, relay:1
[15:29:21-214]air blow: err: 8, rst: 3, status: -2
[15:29:21-214]Rw:  len=8, data=fb 03 00 00 00 0a d1 97 
[15:29:21-277]Rr:  len=1, data=feed
[15:29:21-777]feed
[15:29:21-777]device:9100334 csq:6 net:1 server:1, relay:1
[15:29:22-168]now: 2023-01-13 15:29:19
[15:29:22-215]CSQ: 6
[15:29:22-277]feed
[15:29:22-777]feed
[15:29:22-793]device:9100334 csq:6 net:1 server:1, relay:1
[15:29:23-230]air blow: err: 9, rst: 3, status: -2
[15:29:23-230]Rw:  len=8, data=fb 03 00 00 00 0a d1 97 
[15:29:23-277]Rr:  len=1, data=feed
[15:29:23-793]feed
[15:29:23-793]device:9100334 csq:6 net:1 server:1, relay:1
[15:29:24-293]feed
[15:29:24-793]feed
[15:29:24-793]device:9100334 csq:6 net:1 server:1, relay:1
[15:29:25-168]now: 2023-01-13 15:29:22
[15:29:25-246]Rw:  len=8, data=01 06 00 0a 00 00 a9 c8 
[15:29:25-293]Rr:  len=1, data=feed
[15:29:25-793]feed
[15:29:25-793]device:9100334 csq:6 net:1 server:1, relay:1
[15:29:26-246]read each start
[15:29:26-261]Rw:  len=8, data=01 03 00 00 00 05 85 c9 
[15:29:26-293]Rr:  len=1, data=feed
[15:29:26-793]feed
[15:29:26-808]device:9100334 csq:6 net:1 server:1, relay:1
[15:29:27-262]
[15:29:27-262]Sensors read rc -2 s -2
[15:29:27-308]feed
[15:29:27-808]feed
[15:29:27-808]device:9100334 csq:6 net:1 server:1, relay:1
[15:29:28-168]now: 2023-01-13 15:29:25
[15:29:28-277]Rw:  len=8, data=02 03 00 00 00 03 05 f8 
[15:29:28-308]Rr:  len=1, data=feed
[15:29:28-808]feed
[15:29:28-808]device:9100334 csq:6 net:1 server:1, relay:1
[15:29:29-277]
[15:29:29-277]Sensors read rc -2 s -2
[15:29:29-308]feed
[15:29:29-808]feed
[15:29:29-808]device:9100334 csq:6 net:1 server:1, relay:1
[15:29:30-277]read each end
[15:29:30-293]indicators_values[1].sensor = 20000a1c
[15:29:30-293]indicators_values[2].sensor = 20000a8c
[15:29:30-308]feed
[15:29:30-808]feed
[15:29:30-824]device:9100334 csq:6 net:1 server:1, relay:1
[15:29:31-168]now: 2023-01-13 15:29:28
[15:29:31-293]air blow: err: 10, rst: 3, status: -2
[15:29:31-293]Rw:  len=8, data=fb 03 00 00 00 0a d1 97 
[15:29:31-324]Rr:  len=1, data=feed
[15:29:31-824]feed
[15:29:31-824]device:9100334 csq:6 net:1 server:1, relay:1
[15:29:32-324]feed
[15:29:32-824]feed
[15:29:32-824]device:9100334 csq:6 net:1 server:1, relay:1
[15:29:33-308]probe u_value = 0
[15:29:33-308]probe u_value = 0
[15:29:33-308]probe u_value = 0
[15:29:33-308]Rw:  len=8, data=01 06 00 0a 00 00 a9 c8 
[15:29:33-824]Rr:  len=1, data=feed
[15:29:33-824]device:9100334 csq:6 net:1 server:1, relay:1
[15:29:34-168]now: 2023-01-13 15:29:31
[15:29:34-324]read each start
[15:29:34-324]Rw:  len=8, data=01 03 00 00 00 05 85 c9 
[15:29:34-824]Rr:  len=1, data=feed
[15:29:34-840]device:9100334 csq:6 net:1 server:1, relay:1
[15:29:35-340]feed
[15:29:35-340]
[15:29:35-340]Sensors read rc -2 s -2
[15:29:35-340]CSQ: 6
[15:29:35-840]feed
[15:29:35-840]device:9100334 csq:6 net:1 server:1, relay:1
[15:29:36-340]feed
[15:29:36-340]Rw:  len=8, data=02 03 00 00 00 03 05 f8 
[15:29:36-840]Rr:  len=1, data=feed
[15:29:36-840]device:9100334 csq:6 net:1 server:1, relay:1
[15:29:37-168]now: 2023-01-13 15:29:34
[15:29:37-340]feed
[15:29:37-355]
[15:29:37-355]Sensors read rc -2 s -2
[15:29:37-840]feed
[15:29:37-840]device:9100334 csq:6 net:1 server:1, relay:1
[15:29:38-340]feed
[15:29:38-355]read each end
[15:29:38-355]indicators_values[1].sensor = 20000a1c
[15:29:38-371]indicators_values[2].sensor = 20000a8c
[15:29:38-840]feed
[15:29:38-855]device:9100334 csq:6 net:1 server:1, relay:1
[15:29:39-356]feed
[15:29:39-371]air blow: err: 10, rst: 3, status: -2
[15:29:39-371]Rw:  len=8, data=fb 03 00 00 00 0a d1 97 
[15:29:39-856]Rr:  len=1, data=feed
[15:29:39-856]device:9100334 csq:6 net:1 server:1, relay:1
[15:29:39-871]<Recv>:
[15:29:39-871]id = 18f51111, dlc = 6
[15:29:39-871]01 00 02 00 00 00 
[15:29:39-871]dev_relay:ch=1, os=0, ks=2, err=0, cur=0(mA)
[15:29:39-871]<Recv>:
[15:29:39-887]id = 18f51111, dlc = 6
[15:29:39-887]02 00 02 00 00 00 
[15:29:39-887]dev_relay:ch=2, os=0, ks=2, err=0, cur=0(mA)
[15:29:39-887]<Recv>:
[15:29:39-887]id = 18f51111, dlc = 6
[15:29:39-887]03 01 01 00 16 01 
[15:29:39-902]dev_relay:ch=3, os=1, ks=1, err=0, cur=2780(mA)
[15:29:39-902]<Recv>:
[15:29:39-902]id = 18f51111, dlc = 6
[15:29:39-902]04 00 02 00 02 00 
[15:29:39-902]dev_relay:ch=4, os=0, ks=2, err=0, cur=20(mA)
[15:29:39-902]<Recv>:
[15:29:39-902]id = 18f51111, dlc = 6
[15:29:39-902]05 00 02 00 01 00 
[15:29:39-918]dev_relay:ch=5, os=0, ks=2, err=0, cur=10(mA)
[15:29:40-168]now: 2023-01-13 15:29:37
[15:29:40-168]key<3> press
[15:29:40-356]feed
[15:29:40-856]feed
[15:29:40-856]device:9100334 csq:6 net:1 server:1, relay:1
[15:29:41-355]feed
[15:29:41-387]probe u_value = 0
[15:29:41-387]probe u_value = 0
[15:29:41-387]probe u_value = 0
[15:29:41-387]Rw:  len=8, data=01 06 00 0a 00 00 a9 c8 
[15:29:41-402]Rr:  len=1, data=Pw:  len=15, data=00 8a dc 2e 03 40 00 00 22 d0 00 01 00 3f 16 
[15:29:41-402]
[15:29:41-574]Pr:  len=13, data=00 8a dc 2e 03 40 00 00 22 d1 00 01 00 
[15:29:41-574]Pr:  len=2, data=3e ea 
[15:29:41-856]feed
[15:29:41-856]device:9100334 csq:6 net:1 server:1, relay:1
[15:29:42-356]feed
[15:29:42-402]<Recv>:
[15:29:42-402]id = 18f61111, dlc = 7
[15:29:42-418]04 3e 08 48 08 52 08 
[15:29:42-418]power in:cfg=4, VA=211(V), VB=212(V), VC=213(V)
[15:29:42-856]feed
[15:29:42-871]device:9100334 csq:6 net:1 server:1, relay:1
[15:29:43-184]now: 2023-01-13 15:29:40
[15:29:43-371]feed
[15:29:43-418]
[15:29:43-418]Sensors read rc -2 s -2
[15:29:43-871]feed
[15:29:43-871]device:9100334 csq:6 net:1 server:1, relay:1
[15:29:44-371]feed
[15:29:44-418]Rw:  len=8, data=02 03 00 00 00 03 05 f8 
[15:29:44-871]Rr:  len=1, data=feed
[15:29:44-871]device:9100334 csq:6 net:1 server:1, relay:1
[15:29:45-371]feed
[15:29:45-434]
[15:29:45-434]Sensors read rc -2 s -2
[15:29:45-871]feed
[15:29:45-871]device:9100334 csq:6 net:1 server:1, relay:1
[15:29:46-184]now: 2023-01-13 15:29:43
[15:29:46-371]feed
[15:29:46-434]read each end
[15:29:46-434]indicators_values[1].sensor = 20000a1c
[15:29:46-434]indicators_values[2].sensor = 20000a8c
[15:29:46-887]feed
[15:29:46-887]device:9100334 csq:6 net:1 server:1, relay:1
[15:29:47-387]feed
[15:29:47-434]air blow: err: 10, rst: 3, status: -2
[15:29:47-434]Rw:  len=8, data=fb 03 00 00 00 0a d1 97 
[15:29:47-887]Rr:  len=1, data=feed
[15:29:47-887]device:9100334 csq:6 net:1 server:1, relay:1
[15:29:48-199]CSQ: 6
[15:29:48-387]feed
[15:29:48-887]feed
[15:29:48-887]device:9100334 csq:6 net:1 server:1, relay:1
[15:29:49-184]now: 2023-01-13 15:29:46
[15:29:49-387]feed
[15:29:49-449]probe u_value = 0
[15:29:49-449]probe u_value = 0
[15:29:49-449]probe u_value = 0
[15:29:49-465]Rw:  len=8, data=01 06 00 0a 00 00 a9 c8 
[15:29:49-887]Rr:  len=1, data=feed
[15:29:49-902]device:9100334 csq:6 net:1 server:1, relay:1
[15:29:50-387]feed
[15:29:50-465]read each start
[15:29:50-481]Rw:  len=8, data=01 03 00 00 00 05 85 c9 
[15:29:50-902]Rr:  len=1, data=feed
[15:29:50-902]device:9100334 csq:6 net:1 server:1, relay:1
[15:29:51-403]feed
[15:29:51-481]
[15:29:51-481]Sensors read rc -2 s -2
[15:29:51-903]feed
[15:29:51-903]device:9100334 csq:6 net:1 server:1, relay:1
[15:29:52-184]now: 2023-01-13 15:29:49
[15:29:52-403]feed
[15:29:52-496]Rw:  len=8, data=02 03 00 00 00 03 05 f8 
[15:29:52-903]Rr:  len=1, data=feed
[15:29:52-903]device:9100334 csq:6 net:1 server:1, relay:1
[15:29:53-403]feed
[15:29:53-496]
[15:29:53-496]Sensors read rc -2 s -2
[15:29:53-903]feed
[15:29:53-918]device:9100334 csq:6 net:1 server:1, relay:1
[15:29:54-418]feed
[15:29:54-496]read each end
[15:29:54-512]indicators_values[1].sensor = 20000a1c
[15:29:54-512]indicators_values[2].sensor = 20000a8c
[15:29:54-918]feed
[15:29:54-918]device:9100334 csq:6 net:1 server:1, relay:1
[15:29:55-184]now: 2023-01-13 15:29:52
[15:29:55-413]feed
[15:29:55-507]air blow: err: 10, rst: 3, status: -2
[15:29:55-523]Rw:  len=8, data=fb 03 00 00 00 0a d1 97 
[15:29:55-913]Rr:  len=1, data=feed
[15:29:55-913]device:9100334 csq:6 net:1 server:1, relay:1
[15:29:56-413]feed
[15:29:56-913]feed
[15:29:56-929]device:9100334 csq:6 net:1 server:1, relay:1
[15:29:57-429]feed
[15:29:57-523]probe u_value = 0
[15:29:57-538]probe u_value = 0
[15:29:57-538]probe u_value = 0
[15:29:57-538]Rw:  len=8, data=01 06 00 0a 00 00 a9 c8 
[15:29:57-929]Rr:  len=1, data=feed
[15:29:57-929]device:9100334 csq:6 net:1 server:1, relay:1
[15:29:58-195]now: 2023-01-13 15:29:55
[15:29:58-429]feed
[15:29:58-538]read each start
[15:29:58-554]Rw:  len=8, data=01 03 00 00 00 05 85 c9 
[15:29:58-929]Rr:  len=1, data=feed
[15:29:58-929]device:9100334 csq:6 net:1 server:1, relay:1
[15:29:59-429]feed
[15:29:59-570]
[15:29:59-570]Sensors read rc -2 s -2
[15:29:59-929]feed
[15:29:59-929]device:9100334 csq:6 net:1 server:1, relay:1
[15:30:00-429]feed
[15:30:00-570]Rw:  len=8, data=02 03 00 00 00 03 05 f8 
[15:30:00-929]Rr:  len=1, data=feed
[15:30:00-945]device:9100334 csq:6 net:1 server:1, relay:1
[15:30:01-195]now: 2023-01-13 15:29:58
[15:30:01-320]CSQ: 6
[15:30:01-445]feed
[15:30:01-570]
[15:30:01-570]Sensors read rc -2 s -2
[15:30:01-945]feed
[15:30:01-945]device:9100334 csq:6 net:1 server:1, relay:1
[15:30:02-445]feed
[15:30:02-585]read each end
[15:30:02-585]indicators_values[1].sensor = 20000a1c
[15:30:02-585]indicators_values[2].sensor = 20000a8c
[15:30:02-945]feed
[15:30:02-945]device:9100334 csq:6 net:1 server:1, relay:1
[15:30:03-445]feed
[15:30:03-585]air blow: err: 10, rst: 3, status: -2
[15:30:03-585]Rw:  len=8, data=fb 03 00 00 00 0a d1 97 
[15:30:03-945]Rr:  len=1, data=feed
[15:30:03-945]device:9100334 csq:6 net:1 server:1, relay:1
[15:30:04-195]now: 2023-01-13 15:30:01
[15:30:04-445]feed
[15:30:04-570]Pr:  len=13, data=00 8a dc 2e 16 40 00 04 0b 00 00 01 06 
[15:30:04-585]Pr:  len=6, data=01 20 00 00 00 14 
[15:30:04-585]Pr:  len=2, data=0f e0 
[15:30:04-585]eeprom write: 1578 page
[15:30:04-601]01 01 00 17 01 0d 0f 1e 01 17 01 0d 0f 32 01 00 00 00 00 00 00 00 00 00 00 00 00 00 00 00 fd 0a 
[15:30:04-601]Pw:  len=15, data=00 8a dc 2e 16 40 00 04 0b d0 00 01 00 91 c4 
[15:30:04-601]
[15:30:04-945]feed
[15:30:04-960]device:9100334 csq:6 net:1 server:1, relay:1
[15:30:05-460]feed
[15:30:05-601]probe u_value = 0
[15:30:05-601]probe u_value = 0
[15:30:05-601]probe u_value = 0
[15:30:05-617]Rw:  len=8, data=01 06 00 0a 00 00 a9 c8 
[15:30:05-960]Rr:  len=1, data=feed
[15:30:05-960]device:9100334 csq:6 net:1 server:1, relay:1
[15:30:06-460]feed
[15:30:06-617]read each start
[15:30:06-632]Rw:  len=8, data=01 03 00 00 00 05 85 c9 
[15:30:06-960]Rr:  len=1, data=feed
[15:30:06-960]device:9100334 csq:6 net:1 server:1, relay:1
[15:30:07-195]now: 2023-01-13 15:30:04
[15:30:07-460]feed
[15:30:07-632]
[15:30:07-632]Sensors read rc -2 s -2
[15:30:07-960]feed
[15:30:07-960]device:9100334 csq:6 net:1 server:1, relay:1
[15:30:08-460]feed
[15:30:08-648]Rw:  len=8, data=02 03 00 00 00 03 05 f8 
[15:30:08-976]Rr:  len=1, data=feed
[15:30:08-976]device:9100334 csq:6 net:1 server:1, relay:1
[15:30:09-476]feed
[15:30:09-648]
[15:30:09-648]Sensors read rc -2 s -2
[15:30:09-976]feed
[15:30:09-976]device:9100334 csq:6 net:1 server:1, relay:1
[15:30:10-195]now: 2023-01-13 15:30:07
[15:30:10-476]feed
[15:30:10-648]read each end
[15:30:10-664]indicators_values[1].sensor = 20000a1c
[15:30:10-664]indicators_values[2].sensor = 20000a8c
[15:30:10-976]feed
[15:30:10-976]device:9100334 csq:6 net:1 server:1, relay:1
[15:30:11-476]feed
[15:30:11-664]air blow: err: 10, rst: 3, status: -2
[15:30:11-664]Rw:  len=8, data=fb 03 00 00 00 0a d1 97 
[15:30:11-976]Rr:  len=1, data=feed
[15:30:11-992]device:9100334 csq:6 net:1 server:1, relay:1
[15:30:12-398]<Recv>:
[15:30:12-414]id = 18f61111, dlc = 7
[15:30:12-414]04 3e 08 52 08 52 08 
[15:30:12-414]power in:cfg=4, VA=211(V), VB=213(V), VC=213(V)
[15:30:12-476]feed
[15:30:12-992]feed
[15:30:12-992]device:9100334 csq:6 net:1 server:1, relay:1
[15:30:13-195]now: 2023-01-13 15:30:10
[15:30:13-492]feed
[15:30:13-679]probe u_value = 0
[15:30:13-679]probe u_value = 0
[15:30:13-679]probe u_value = 0
[15:30:13-679]Rw:  len=8, data=01 06 00 0a 00 00 a9 c8 
[15:30:13-992]Rr:  len=1, data=feed
[15:30:13-992]device:9100334 csq:6 net:1 server:1, relay:1
[15:30:14-195]CSQ: 6
[15:30:14-492]feed
[15:30:14-695]read each start
[15:30:14-695]Rw:  len=8, data=01 03 00 00 00 05 85 c9 
[15:30:14-992]Rr:  len=1, data=feed
[15:30:14-992]device:9100334 csq:6 net:1 server:1, relay:1
[15:30:15-492]feed
[15:30:15-710]
[15:30:15-710]Sensors read rc -2 s -2
[15:30:15-992]feed
[15:30:16-007]device:9100334 csq:6 net:1 server:1, relay:1
[15:30:16-195]now: 2023-01-13 15:30:13
[15:30:16-507]feed
[15:30:16-710]Rw:  len=8, data=02 03 00 00 00 03 05 f8 
[15:30:17-007]Rr:  len=1, data=feed
[15:30:17-007]device:9100334 csq:6 net:1 server:1, relay:1
[15:30:17-507]feed
[15:30:17-726]
[15:30:17-726]Sensors read rc -2 s -2
[15:30:18-007]feed
[15:30:18-007]device:9100334 csq:6 net:1 server:1, relay:1
[15:30:18-507]feed
[15:30:18-726]read each end
[15:30:18-726]indicators_values[1].sensor = 20000a1c
[15:30:18-742]indicators_values[2].sensor = 20000a8c
[15:30:19-007]feed
[15:30:19-007]device:9100334 csq:6 net:1 server:1, relay:1
[15:30:19-211]now: 2023-01-13 15:30:16
[15:30:19-507]feed
[15:30:19-742]air blow: err: 10, rst: 3, status: -2
[15:30:19-742]Rw:  len=8, data=fb 03 00 00 00 0a d1 97 
[15:30:20-007]Rr:  len=1, data=feed
[15:30:20-023]device:9100334 csq:6 net:1 server:1, relay:1
[15:30:20-523]feed
[15:30:21-023]feed
[15:30:21-023]device:9100334 csq:6 net:1 server:1, relay:1
[15:30:21-523]feed
[15:30:21-757]probe u_value = 0
[15:30:21-757]probe u_value = 0
[15:30:21-757]probe u_value = 0
[15:30:21-757]Rw:  len=8, data=01 06 00 0a 00 00 a9 c8 
[15:30:22-023]Rr:  len=1, data=feed
[15:30:22-023]device:9100334 csq:6 net:1 server:1, relay:1
[15:30:22-211]now: 2023-01-13 15:30:19
[15:30:22-523]feed
[15:30:22-773]read each start
[15:30:22-773]Rw:  len=8, data=01 03 00 00 00 05 85 c9 
[15:30:23-023]Rr:  len=1, data=feed
[15:30:23-023]device:9100334 csq:6 net:1 server:1, relay:1
[15:30:23-523]feed
[15:30:23-789]
[15:30:23-789]Sensors read rc -2 s -2
[15:30:24-023]feed
[15:30:24-039]device:9100334 csq:6 net:1 server:1, relay:1
[15:30:24-539]feed
[15:30:24-789]Rw:  len=8, data=02 03 00 00 00 03 05 f8 
[15:30:25-039]Rr:  len=1, data=feed
[15:30:25-039]device:9100334 csq:6 net:1 server:1, relay:1
[15:30:25-211]now: 2023-01-13 15:30:22
[15:30:25-539]feed
[15:30:25-804]
[15:30:25-804]Sensors read rc -2 s -2
[15:30:26-039]feed
[15:30:26-039]device:9100334 csq:6 net:1 server:1, relay:1
[15:30:26-539]feed
[15:30:26-804]read each end
[15:30:26-804]indicators_values[1].sensor = 20000a1c
[15:30:26-804]indicators_values[2].sensor = 20000a8c
[15:30:27-039]feed
[15:30:27-039]device:9100334 csq:6 net:1 server:1, relay:1
[15:30:27-304]CSQ: 6
[15:30:27-539]feed
[15:30:27-820]air blow: err: 10, rst: 3, status: -2
[15:30:27-820]Rw:  len=8, data=fb 03 00 00 00 0a d1 97 
[15:30:28-039]Rr:  len=1, data=feed
[15:30:28-054]device:9100334 csq:6 net:1 server:1, relay:1
[15:30:28-211]now: 2023-01-13 15:30:25
[15:30:28-554]feed
[15:30:28-914]<Recv>:
[15:30:28-914]id = 18f51111, dlc = 6
[15:30:28-914]01 00 02 00 00 00 
[15:30:28-914]dev_relay:ch=1, os=0, ks=2, err=0, cur=0(mA)
[15:30:28-914]<Recv>:
[15:30:28-914]id = 18f51111, dlc = 6
[15:30:28-914]02 00 02 00 00 00 
[15:30:28-914]dev_relay:ch=2, os=0, ks=2, err=0, cur=0(mA)
[15:30:28-914]<Recv>:
[15:30:28-914]id = 18f51111, dlc = 6
[15:30:28-914]03 01 02 00 14 01 
[15:30:28-929]dev_relay:ch=3, os=1, ks=2, err=0, cur=2760(mA)
[15:30:28-929]<Recv>:
[15:30:28-945]id = 18f51111, dlc = 6
[15:30:28-945]04 00 02 00 02 00 
[15:30:28-945]dev_relay:ch=4, os=0, ks=2, err=0, cur=20(mA)
[15:30:28-945]<Recv>:
[15:30:28-945]id = 18f51111, dlc = 6
[15:30:28-945]05 00 02 00 01 00 
[15:30:28-961]dev_relay:ch=5, os=0, ks=2, err=0, cur=10(mA)
[15:30:29-054]feed
[15:30:29-054]device:9100334 csq:6 net:1 server:1, relay:1
[15:30:29-211]key<3> release
[15:30:29-211]set_ch <3> = OFF
[15:30:29-211]<USend>:
[15:30:29-211]id = 0c501101, dlc = 7
[15:30:29-211]03 00 03 00 00 00 00 
[15:30:29-226]<Recv>:
[15:30:29-226]id = 18e80111, dlc = 4
[15:30:29-226]50 00 00 00 
[15:30:29-242]dev_respon:PGN=5000,status=0
[15:30:29-554]feed
[15:30:29-633]<Recv>:
[15:30:29-633]id = 18f51111, dlc = 6
[15:30:29-633]01 00 02 00 00 00 
[15:30:29-633]dev_relay:ch=1, os=0, ks=2, err=0, cur=0(mA)
[15:30:29-648]<Recv>:
[15:30:29-648]id = 18f51111, dlc = 6
[15:30:29-648]02 00 02 00 00 00 
[15:30:29-664]dev_relay:ch=2, os=0, ks=2, err=0, cur=0(mA)
[15:30:29-664]<Recv>:
[15:30:29-664]id = 18f51111, dlc = 6
[15:30:29-664]03 00 02 00 13 01 
[15:30:29-664]dev_relay:ch=3, os=0, ks=2, err=0, cur=2750(mA)
[15:30:29-664]<Recv>:
[15:30:29-664]id = 18f51111, dlc = 6
[15:30:29-679]04 00 02 00 02 00 
[15:30:29-679]dev_relay:ch=4, os=0, ks=2, err=0, cur=20(mA)
[15:30:29-679]<Recv>:
[15:30:29-679]id = 18f51111, dlc = 6
[15:30:29-679]05 00 02 00 01 00 
[15:30:29-679]dev_relay:ch=5, os=0, ks=2, err=0, cur=10(mA)
[15:30:29-836]probe u_value = 0
[15:30:29-836]probe u_value = 0
[15:30:29-836]probe u_value = 0
[15:30:29-836]Rw:  len=8, data=01 06 00 0a 00 00 a9 c8 
[15:30:30-054]Rr:  len=1, data=feed
[15:30:30-054]device:9100334 csq:6 net:1 server:1, relay:1
[15:30:30-554]feed
[15:30:30-851]read each start
[15:30:30-851]Rw:  len=8, data=01 03 00 00 00 05 85 c9 
[15:30:31-054]Rr:  len=1, data=feed
[15:30:31-054]device:9100334 csq:6 net:1 server:1, relay:1
[15:30:31-164]<Recv>:
[15:30:31-164]id = 18f51111, dlc = 6
[15:30:31-179]01 00 02 00 00 00 
[15:30:31-179]dev_relay:ch=1, os=0, ks=2, err=0, cur=0(mA)
[15:30:31-179]<Recv>:
[15:30:31-179]id = 18f51111, dlc = 6
[15:30:31-179]02 00 02 00 00 00 
[15:30:31-179]dev_relay:ch=2, os=0, ks=2, err=0, cur=0(mA)
[15:30:31-179]<Recv>:
[15:30:31-195]id = 18f51111, dlc = 6
[15:30:31-195]03 00 02 00 00 00 
[15:30:31-195]dev_relay:ch=3, os=0, ks=2, err=0, cur=0(mA)
[15:30:31-195]<Recv>:
[15:30:31-195]id = 18f51111, dlc = 6
[15:30:31-195]04 00 02 00 01 00 
[15:30:31-211]dev_relay:ch=4, os=0, ks=2, err=0, cur=10(mA)
[15:30:31-211]<Recv>:
[15:30:31-211]id = 18f51111, dlc = 6
[15:30:31-211]05 00 02 00 01 00 
[15:30:31-211]dev_relay:ch=5, os=0, ks=2, err=0, cur=10(mA)
[15:30:31-554]feed
[15:30:31-867]
[15:30:31-867]Sensors read rc -2 s -2
[15:30:32-054]feed
[15:30:32-070]device:9100334 csq:6 net:1 server:1, relay:1
[15:30:32-320]now: 2023-01-13 15:30:29
[15:30:32-320]relay_output_status OFF
[15:30:32-320]Pw:  len=52, data=00 8a dc 2e 03 40 00 00 12 d0 00 01 25 01 17 01 0d 0f 1e 1d ff fc 00 00 00 00 00 00 20 00 00 00 00 00 00 00 00 00 00 00 00 00 00 00 00 00 00 00 00 00 2c 31 
[15:30:32-351]
[15:30:32-570]feed
[15:30:32-867]Rw:  len=8, data=02 03 00 00 00 03 05 f8 
[15:30:33-070]Rr:  len=1, data=feed
[15:30:33-070]device:9100334 csq:6 net:1 server:1, relay:1
[15:30:33-570]feed
[15:30:33-883]
[15:30:33-883]Sensors read rc -2 s -2
[15:30:34-070]feed
[15:30:34-070]device:9100334 csq:6 net:1 server:1, relay:1
[15:30:34-570]feed
[15:30:34-883]read each end
[15:30:34-883]indicators_values[1].sensor = 20000a1c
[15:30:34-883]indicators_values[2].sensor = 20000a8c
[15:30:35-070]feed
[15:30:35-070]device:9100334 csq:6 net:1 server:1, relay:1
[15:30:35-351]now: 2023-01-13 15:30:32
[15:30:35-570]feed
[15:30:35-898]air blow: err: 10, rst: 3, status: -2
[15:30:35-898]Rw:  len=8, data=fb 03 00 00 00 0a d1 97 
[15:30:36-086]Rr:  len=1, data=feed
[15:30:36-086]device:9100334 csq:6 net:1 server:1, relay:1
[15:30:36-586]feed
[15:30:37-086]feed
[15:30:37-086]device:9100334 csq:6 net:1 server:1, relay:1
[15:30:37-586]feed
[15:30:37-898]probe u_value = 0
[15:30:37-914]probe u_value = 0
[15:30:37-914]probe u_value = 0
[15:30:37-914]Rw:  len=8, data=01 06 00 0a 00 00 a9 c8 
[15:30:38-086]Rr:  len=1, data=feed
[15:30:38-086]device:9100334 csq:6 net:1 server:1, relay:1
[15:30:38-351]now: 2023-01-13 15:30:35
[15:30:38-586]feed
[15:30:38-929]read each start
[15:30:38-929]Rw:  len=8, data=01 03 00 00 00 05 85 c9 
[15:30:39-086]Rr:  len=1, data=feed
[15:30:39-086]device:9100334 csq:6 net:1 server:1, relay:1
[15:30:39-586]feed
[15:30:39-945]
[15:30:39-945]Sensors read rc -2 s -2
[15:30:40-101]feed
[15:30:40-101]device:9100334 csq:6 net:1 server:1, relay:1
[15:30:40-195]CSQ: 6
[15:30:40-601]feed
[15:30:40-945]Rw:  len=8, data=02 03 00 00 00 03 05 f8 
[15:30:41-101]Rr:  len=1, data=feed
[15:30:41-101]device:9100334 csq:6 net:1 server:1, relay:1
[15:30:41-351]now: 2023-01-13 15:30:38
[15:30:41-601]feed
[15:30:41-961]
[15:30:41-961]Sensors read rc -2 s -2
[15:30:42-101]feed
[15:30:42-101]device:9100334 csq:6 net:1 server:1, relay:1
[15:30:42-601]feed
[15:30:42-695]<Recv>:
[15:30:42-695]id = 18f61111, dlc = 7
[15:30:42-695]04 3e 08 52 08 52 08 
[15:30:42-711]power in:cfg=4, VA=211(V), VB=213(V), VC=213(V)
[15:30:42-961]read each end
[15:30:42-961]indicators_values[1].sensor = 20000a1c
[15:30:42-961]indicators_values[2].sensor = 20000a8c
[15:30:43-101]feed
[15:30:43-117]device:9100334 csq:6 net:1 server:1, relay:1
[15:30:43-617]feed
[15:30:43-961]air blow: err: 10, rst: 3, status: -2
[15:30:43-976]Rw:  len=8, data=fb 03 00 00 00 0a d1 97 
[15:30:44-117]Rr:  len=1, data=feed
[15:30:44-117]device:9100334 csq:6 net:1 server:1, relay:1
[15:30:44-351]now: 2023-01-13 15:30:41
[15:30:44-617]feed
[15:30:45-117]feed
[15:30:45-117]device:9100334 csq:6 net:1 server:1, relay:1
[15:30:45-617]feed
[15:30:45-976]probe u_value = 0
[15:30:45-976]probe u_value = 0
[15:30:45-976]probe u_value = 0
[15:30:45-992]Rw:  len=8, data=01 06 00 0a 00 00 a9 c8 
[15:30:46-117]Rr:  len=1, data=feed
[15:30:46-117]device:9100334 csq:6 net:1 server:1, relay:1
[15:30:46-617]feed
[15:30:46-992]read each start
[15:30:47-008]Rw:  len=8, data=01 03 00 00 00 05 85 c9 
[15:30:47-117]Rr:  len=1, data=feed
[15:30:47-133]device:9100334 csq:6 net:1 server:1, relay:1
[15:30:47-351]now: 2023-01-13 15:30:44
[15:30:47-633]feed
[15:30:48-008]
[15:30:48-008]Sensors read rc -2 s -2
[15:30:48-133]feed
[15:30:48-133]device:9100334 csq:6 net:1 server:1, relay:1
[15:30:48-633]feed
[15:30:49-023]Rw:  len=8, data=02 03 00 00 00 03 05 f8 
[15:30:49-133]Rr:  len=1, data=feed
[15:30:49-133]device:9100334 csq:6 net:1 server:1, relay:1
[15:30:49-633]feed
[15:30:50-023]
[15:30:50-023]Sensors read rc -2 s -2
[15:30:50-133]feed
[15:30:50-133]device:9100334 csq:6 net:1 server:1, relay:1
[15:30:50-351]now: 2023-01-13 15:30:47
[15:30:50-633]feed
[15:30:51-023]read each end
[15:30:51-039]indicators_values[1].sensor = 20000a1c
[15:30:51-039]indicators_values[2].sensor = 20000a8c
[15:30:51-133]feed
[15:30:51-148]device:9100334 csq:6 net:1 server:1, relay:1
[15:30:51-648]feed
[15:30:52-039]air blow: err: 10, rst: 3, status: -2
[15:30:52-039]Rw:  len=8, data=fb 03 00 00 00 0a d1 97 
[15:30:52-148]Rr:  len=1, data=feed
[15:30:52-148]device:9100334 csq:6 net:1 server:1, relay:1
[15:30:52-648]feed
[15:30:53-148]feed
[15:30:53-148]device:9100334 csq:6 net:1 server:1, relay:1
[15:30:53-305]CSQ: 6
[15:30:53-351]now: 2023-01-13 15:30:50
[15:30:53-648]feed
[15:30:54-055]probe u_value = 0
[15:30:54-055]probe u_value = 0
[15:30:54-055]probe u_value = 0
[15:30:54-070]Rw:  len=8, data=01 06 00 0a 00 00 a9 c8 
[15:30:54-148]Rr:  len=1, data=feed
[15:30:54-148]device:9100334 csq:6 net:1 server:1, relay:1
[15:30:54-648]feed
[15:30:55-070]read each start
[15:30:55-086]Rw:  len=8, data=01 03 00 00 00 05 85 c9 
[15:30:55-148]Rr:  len=1, data=feed
[15:30:55-164]device:9100334 csq:6 net:1 server:1, relay:1
[15:30:55-664]feed
[15:30:56-086]
[15:30:56-086]Sensors read rc -2 s -2
[15:30:56-164]feed
[15:30:56-164]device:9100334 csq:6 net:1 server:1, relay:1
[15:30:56-367]now: 2023-01-13 15:30:53
[15:30:56-664]feed
[15:30:57-102]Rw:  len=8, data=02 03 00 00 00 03 05 f8 
[15:30:57-164]Rr:  len=1, data=feed
[15:30:57-164]device:9100334 csq:6 net:1 server:1, relay:1
[15:30:57-664]feed
[15:30:58-102]
[15:30:58-102]Sensors read rc -2 s -2
[15:30:58-164]feed
[15:30:58-164]device:9100334 csq:6 net:1 server:1, relay:1
[15:30:58-664]feed
[15:30:59-101]read each end
[15:30:59-117]indicators_values[1].sensor = 20000a1c
[15:30:59-117]indicators_values[2].sensor = 20000a8c
[15:30:59-164]feed
[15:30:59-180]device:9100334 csq:6 net:1 server:1, relay:1
[15:30:59-367]now: 2023-01-13 15:30:56
[15:30:59-680]feed
[15:31:00-117]air blow: err: 10, rst: 3, status: -2
[15:31:00-117]Rw:  len=8, data=fb 03 00 00 00 0a d1 97 
[15:31:00-180]Rr:  len=1, data=feed
[15:31:00-180]device:9100334 csq:6 net:1 server:1, relay:1
[15:31:00-680]feed
[15:31:01-180]feed
[15:31:01-180]device:9100334 csq:6 net:1 server:1, relay:1
[15:31:01-680]feed
[15:31:02-133]probe u_value = 0
[15:31:02-133]probe u_value = 0
[15:31:02-133]probe u_value = 0
[15:31:02-133]Rw:  len=8, data=01 06 00 0a 00 00 a9 c8 
[15:31:02-180]Rr:  len=1, data=feed
[15:31:02-180]device:9100334 csq:6 net:1 server:1, relay:1
[15:31:02-367]now: 2023-01-13 15:30:59
[15:31:02-680]feed
[15:31:03-148]read each start
[15:31:03-148]Rw:  len=8, data=01 03 00 00 00 05 85 c9 
[15:31:03-195]Rr:  len=1, data=feed
[15:31:03-195]device:9100334 csq:6 net:1 server:1, relay:1
[15:31:03-695]feed
[15:31:04-164]
[15:31:04-164]Sensors read rc -2 s -2
[15:31:04-195]feed
[15:31:04-195]device:9100334 csq:6 net:1 server:1, relay:1
[15:31:04-695]feed
[15:31:05-164]Rw:  len=8, data=02 03 00 00 00 03 05 f8 
[15:31:05-195]Rr:  len=1, data=feed
[15:31:05-195]device:9100334 csq:6 net:1 server:1, relay:1
[15:31:05-367]now: 2023-01-13 15:31:02
[15:31:05-695]feed
[15:31:05-914]<Recv>:
[15:31:05-914]id = 18f51111, dlc = 6
[15:31:05-914]01 00 02 00 00 00 
[15:31:05-914]dev_relay:ch=1, os=0, ks=2, err=0, cur=0(mA)
[15:31:05-914]<Recv>:
[15:31:05-914]id = 18f51111, dlc = 6
[15:31:05-914]02 00 02 00 00 00 
[15:31:05-930]dev_relay:ch=2, os=0, ks=2, err=0, cur=0(mA)
[15:31:05-930]<Recv>:
[15:31:05-930]id = 18f51111, dlc = 6
[15:31:05-930]03 01 01 00 00 00 
[15:31:05-930]dev_relay:ch=3, os=1, ks=1, err=0, cur=0(mA)
[15:31:05-930]<Recv>:
[15:31:05-930]id = 18f51111, dlc = 6
[15:31:05-930]04 00 02 00 01 00 
[15:31:05-945]dev_relay:ch=4, os=0, ks=2, err=0, cur=10(mA)
[15:31:05-945]<Recv>:
[15:31:05-945]id = 18f51111, dlc = 6
[15:31:05-945]05 00 02 00 01 00 
[15:31:05-945]dev_relay:ch=5, os=0, ks=2, err=0, cur=10(mA)
[15:31:06-180]
[15:31:06-180]Sensors read rc -2 s -2
[15:31:06-180]CSQ: 6
[15:31:06-211]feed
[15:31:06-211]device:9100334 csq:6 net:1 server:1, relay:1
[15:31:06-367]key<3> press
[15:31:06-367]get_ch <3> = ON
[15:31:06-430]<Recv>:
[15:31:06-430]id = 18f51111, dlc = 6
[15:31:06-445]01 00 02 00 00 00 
[15:31:06-445]dev_relay:ch=1, os=0, ks=2, err=0, cur=0(mA)
[15:31:06-445]<Recv>:
[15:31:06-445]id = 18f51111, dlc = 6
[15:31:06-445]02 00 02 00 00 00 
[15:31:06-445]dev_relay:ch=2, os=0, ks=2, err=0, cur=0(mA)
[15:31:06-445]<Recv>:
[15:31:06-445]id = 18f51111, dlc = 6
[15:31:06-445]03 01 01 01 00 00 
[15:31:06-445]dev_relay:ch=3, os=1, ks=1, err=1, cur=0(mA)
[15:31:06-461]<Recv>:
[15:31:06-461]id = 18f51111, dlc = 6
[15:31:06-461]04 00 02 00 02 00 
[15:31:06-477]dev_relay:ch=4, os=0, ks=2, err=0, cur=20(mA)
[15:31:06-477]<Recv>:
[15:31:06-477]id = 18f51111, dlc = 6
[15:31:06-477]05 00 02 00 01 00 
[15:31:06-477]dev_relay:ch=5, os=0, ks=2, err=0, cur=10(mA)
[15:31:06-695]feed
[15:31:06-961]<Recv>:
[15:31:06-961]id = 18f51111, dlc = 6
[15:31:06-961]01 00 02 00 00 00 
[15:31:06-961]dev_relay:ch=1, os=0, ks=2, err=0, cur=0(mA)
[15:31:06-961]<Recv>:
[15:31:06-961]id = 18f51111, dlc = 6
[15:31:06-977]02 00 02 00 00 00 
[15:31:06-977]dev_relay:ch=2, os=0, ks=2, err=0, cur=0(mA)
[15:31:06-977]<Recv>:
[15:31:06-992]id = 18f51111, dlc = 6
[15:31:06-992]03 01 01 01 71 02 
[15:31:06-992]dev_relay:ch=3, os=1, ks=1, err=1, cur=6250(mA)
[15:31:06-992]<Recv>:
[15:31:06-992]id = 18f51111, dlc = 6
[15:31:06-992]04 00 02 00 03 00 
[15:31:07-008]dev_relay:ch=4, os=0, ks=2, err=0, cur=30(mA)
[15:31:07-008]<Recv>:
[15:31:07-008]id = 18f51111, dlc = 6
[15:31:07-008]05 00 02 00 01 00 
[15:31:07-008]dev_relay:ch=5, os=0, ks=2, err=0, cur=10(mA)
[15:31:07-180]read each end
[15:31:07-180]indicators_values[1].sensor = 20000a1c
[15:31:07-195]indicators_values[2].sensor = 20000a8c
[15:31:07-211]feed
[15:31:07-211]device:9100334 csq:6 net:1 server:1, relay:1
[15:31:07-367]relay_output_status ON
[15:31:07-367][2]broken_index<0> = broken_type<1>
[15:31:07-383]Pw:  len=52, data=00 8a dc 2e 03 40 00 00 12 d0 00 01 25 01 17 01 0d 0f 1f 04 ff fc 00 00 00 00 20 00 20 00 20 00 00 00 20 00 20 00 20 00 00 00 00 00 00 00 00 00 00 00 9b db 
[15:31:07-398]
[15:31:07-711]feed
[15:31:08-195]air blow: err: 10, rst: 3, status: -2
[15:31:08-195]Rw:  len=8, data=fb 03 00 00 00 0a d1 97 
[15:31:08-211]Rr:  len=1, data=feed
[15:31:08-211]device:9100334 csq:6 net:1 server:1, relay:1
[15:31:08-398]now: 2023-01-13 15:31:05
[15:31:08-711]feed
[15:31:09-211]feed
[15:31:09-211]device:9100334 csq:6 net:1 server:1, relay:1
[15:31:09-711]feed
[15:31:10-211]probe u_value = 0
[15:31:10-211]probe u_value = 0
[15:31:10-211]probe u_value = 0
[15:31:10-211]Rw:  len=8, data=01 06 00 0a 00 00 a9 c8 
[15:31:10-211]feed
[15:31:10-227]device:9100334 csq:6 net:1 server:1, relay:1
[15:31:10-727]Rr:  len=1, data=feed
[15:31:11-227]feed
[15:31:11-227]device:9100334 csq:6 net:1 server:1, relay:1
[15:31:11-399]Rr:  len=1, data=now: 2023-01-13 15:31:08
[15:31:11-727]feed
[15:31:12-227]feed
[15:31:12-242]device:9100334 csq:6 net:1 server:1, relay:1
[15:31:12-742]feed
[15:31:12-992]<Recv>:
[15:31:12-992]id = 18f61111, dlc = 7
[15:31:12-992]04 3e 08 52 08 48 08 
[15:31:13-008]power in:cfg=4, VA=211(V), VB=213(V), VC=212(V)
[15:31:13-242]Rw:  len=8, data=02 03 00 00 00 03 05 f8 
[15:31:13-742]Rr:  len=1, data=feed
[15:31:14-242]feed
[15:31:14-242]device:9100334 csq:6 net:1 server:1, relay:1
[15:31:14-242]
[15:31:14-242]Sensors read rc -2 s -2
[15:31:14-399]now: 2023-01-13 15:31:11
[15:31:14-742]feed
[15:31:15-242]feed
[15:31:15-242]device:9100334 csq:6 net:1 server:1, relay:1
[15:31:15-258]read each end
[15:31:15-258]indicators_values[1].sensor = 20000a1c
[15:31:15-258]indicators_values[2].sensor = 20000a8c
[15:31:15-742]feed
[15:31:16-242]feed
[15:31:16-242]device:9100334 csq:6 net:1 server:1, relay:1
[15:31:16-258]air blow: err: 10, rst: 3, status: -2
[15:31:16-258]Rw:  len=8, data=fb 03 00 00 00 0a d1 97 
[15:31:16-742]Rr:  len=1, data=feed
[15:31:17-242]feed
[15:31:17-258]device:9100334 csq:6 net:1 server:1, relay:1
[15:31:17-399]now: 2023-01-13 15:31:14
[15:31:17-758]feed
[15:31:18-258]feed
[15:31:18-258]device:9100334 csq:6 net:1 server:1, relay:1
[15:31:18-274]probe u_value = 0
[15:31:18-274]probe u_value = 0
[15:31:18-274]probe u_value = 0
[15:31:18-289]Rw:  len=8, data=01 06 00 0a 00 00 a9 c8 
[15:31:18-758]Rr:  len=1, data=feed
[15:31:19-258]feed
[15:31:19-258]device:9100334 csq:6 net:1 server:1, relay:1
[15:31:19-289]read each start
[15:31:19-305]Rw:  len=8, data=01 03 00 00 00 05 85 c9 
[15:31:19-305]Rr:  len=1, data=CSQ: 6
[15:31:19-758]feed
[15:31:20-258]feed
[15:31:20-258]device:9100334 csq:6 net:1 server:1, relay:1
[15:31:20-305]
[15:31:20-305]Sensors read rc -2 s -2
[15:31:20-414]now: 2023-01-13 15:31:17
[15:31:20-758]feed
[15:31:21-258]feed
[15:31:21-274]device:9100334 csq:6 net:1 server:1, relay:1
[15:31:21-320]Rw:  len=8, data=02 03 00 00 00 03 05 f8 
[15:31:21-774]Rr:  len=1, data=feed
[15:31:22-274]feed
[15:31:22-274]device:9100334 csq:6 net:1 server:1, relay:1
[15:31:22-320]
[15:31:22-320]Sensors read rc -2 s -2
[15:31:22-774]feed
[15:31:23-274]feed
[15:31:23-274]device:9100334 csq:6 net:1 server:1, relay:1
[15:31:23-320]read each end
[15:31:23-336]indicators_values[1].sensor = 20000a1c
[15:31:23-336]indicators_values[2].sensor = 20000a8c
[15:31:23-414]now: 2023-01-13 15:31:20
[15:31:23-774]feed
[15:31:24-274]feed
[15:31:24-274]device:9100334 csq:6 net:1 server:1, relay:1
[15:31:24-336]air blow: err: 10, rst: 3, status: -2
[15:31:24-336]Rw:  len=8, data=fb 03 00 00 00 0a d1 97 
[15:31:24-774]Rr:  len=1, data=feed
[15:31:25-195]<Recv>:
[15:31:25-211]id = 18f51111, dlc = 6
[15:31:25-211]01 00 02 00 00 00 
[15:31:25-211]dev_relay:ch=1, os=0, ks=2, err=0, cur=0(mA)
[15:31:25-211]<Recv>:
[15:31:25-211]id = 18f51111, dlc = 6
[15:31:25-211]02 00 02 00 00 00 
[15:31:25-227]dev_relay:ch=2, os=0, ks=2, err=0, cur=0(mA)
[15:31:25-227]<Recv>:
[15:31:25-227]id = 18f51111, dlc = 6
[15:31:25-227]03 00 02 00 17 01 
[15:31:25-227]dev_relay:ch=3, os=0, ks=2, err=0, cur=2790(mA)
[15:31:25-227]<Recv>:
[15:31:25-242]id = 18f51111, dlc = 6
[15:31:25-242]04 00 02 00 02 00 
[15:31:25-242]dev_relay:ch=4, os=0, ks=2, err=0, cur=20(mA)
[15:31:25-242]<Recv>:
[15:31:25-242]id = 18f51111, dlc = 6
[15:31:25-242]05 00 02 00 01 00 
[15:31:25-242]dev_relay:ch=5, os=0, ks=2, err=0, cur=10(mA)
[15:31:25-274]feed
[15:31:25-289]device:9100334 csq:6 net:1 server:1, relay:1
[15:31:25-414]key<3> release
[15:31:25-414]get_ch <3> = OFF
[15:31:25-789]feed
[15:31:26-289]feed
[15:31:26-289]device:9100334 csq:6 net:1 server:1, relay:1
[15:31:26-352]probe u_value = 0
[15:31:26-352]probe u_value = 0
[15:31:26-352]probe u_value = 0
[15:31:26-352]Rw:  len=8, data=01 06 00 0a 00 00 a9 c8 
[15:31:26-414]Rr:  len=1, data=now: 2023-01-13 15:31:23
[15:31:26-414][2]broken_index<0> = broken_type<0>
[15:31:26-414]Pw:  len=52, data=00 8a dc 2e 03 40 00 00 12 d0 00 01 25 01 17 01 0d 0f 1f 17 ff fc 00 00 00 00 00 00 20 00 00 00 00 00 00 00 20 00 00 00 00 00 00 00 00 00 00 00 00 00 ac 78 
[15:31:26-446]
[15:31:26-727]<Recv>:
[15:31:26-727]id = 18f51111, dlc = 6
[15:31:26-727]01 00 02 00 00 00 
[15:31:26-727]dev_relay:ch=1, os=0, ks=2, err=0, cur=0(mA)
[15:31:26-727]<Recv>:
[15:31:26-727]id = 18f51111, dlc = 6
[15:31:26-742]02 00 02 00 00 00 
[15:31:26-742]dev_relay:ch=2, os=0, ks=2, err=0, cur=0(mA)
[15:31:26-742]<Recv>:
[15:31:26-758]id = 18f51111, dlc = 6
[15:31:26-758]03 00 02 00 00 00 
[15:31:26-758]dev_relay:ch=3, os=0, ks=2, err=0, cur=0(mA)
[15:31:26-758]<Recv>:
[15:31:26-758]id = 18f51111, dlc = 6
[15:31:26-758]04 00 02 00 01 00 
[15:31:26-774]dev_relay:ch=4, os=0, ks=2, err=0, cur=10(mA)
[15:31:26-774]<Recv>:
[15:31:26-774]id = 18f51111, dlc = 6
[15:31:26-774]05 00 02 00 01 00 
[15:31:26-774]dev_relay:ch=5, os=0, ks=2, err=0, cur=10(mA)
[15:31:26-789]feed
[15:31:27-289]feed
[15:31:27-289]device:9100334 csq:6 net:1 server:1, relay:1
[15:31:27-367]read each start
[15:31:27-367]Rw:  len=8, data=01 03 00 00 00 05 85 c9 
[15:31:27-430]Rr:  len=1, data=relay_output_status OFF
[15:31:27-461]Pw:  len=52, data=00 8a dc 2e 03 40 00 00 12 d0 00 01 25 01 17 01 0d 0f 1f 18 ff fc 00 00 00 00 00 00 20 00 00 00 00 00 00 00 00 00 00 00 00 00 00 00 00 00 00 00 00 00 fd 9f 
[15:31:27-461]
[15:31:27-789]feed
[15:31:28-289]feed
[15:31:28-289]device:9100334 csq:6 net:1 server:1, relay:1
[15:31:28-383]
[15:31:28-383]Sensors read rc -2 s -2
[15:31:28-789]feed
[15:31:29-305]feed
[15:31:29-305]device:9100334 csq:6 net:1 server:1, relay:1
[15:31:29-383]Rw:  len=8, data=02 03 00 00 00 03 05 f8 
[15:31:29-461]Rr:  len=1, data=now: 2023-01-13 15:31:26
[15:31:29-805]feed
[15:31:30-305]feed
[15:31:30-305]device:9100334 csq:6 net:1 server:1, relay:1
[15:31:30-399]
[15:31:30-399]Sensors read rc -2 s -2
[15:31:30-805]feed
[15:31:31-305]feed
[15:31:31-305]device:9100334 csq:6 net:1 server:1, relay:1
[15:31:31-399]read each end
[15:31:31-399]indicators_values[1].sensor = 20000a1c
[15:31:31-414]indicators_values[2].sensor = 20000a8c
[15:31:31-805]feed
[15:31:32-164]CSQ: 6
[15:31:32-305]feed
[15:31:32-305]device:9100334 csq:6 net:1 server:1, relay:1
[15:31:32-414]air blow: err: 10, rst: 3, status: -2
[15:31:32-414]Rw:  len=8, data=fb 03 00 00 00 0a d1 97 
[15:31:32-461]Rr:  len=1, data=now: 2023-01-13 15:31:29
[15:31:32-805]feed
[15:31:33-321]feed
[15:31:33-321]device:9100334 csq:6 net:1 server:1, relay:1
[15:31:33-821]feed
[15:31:34-321]feed
[15:31:34-321]device:9100334 csq:6 net:1 server:1, relay:1
[15:31:34-430]probe u_value = 0
[15:31:34-430]probe u_value = 0
[15:31:34-430]probe u_value = 0
[15:31:34-430]Rw:  len=8, data=01 06 00 0a 00 00 a9 c8 
[15:31:34-821]Rr:  len=1, data=feed
[15:31:35-321]feed
[15:31:35-321]device:9100334 csq:6 net:1 server:1, relay:1
[15:31:35-446]read each start
[15:31:35-446]Rw:  len=8, data=01 03 00 00 00 05 85 c9 
[15:31:35-461]Rr:  len=1, data=now: 2023-01-13 15:31:32
[15:31:35-821]feed
[15:31:36-321]feed
[15:31:36-336]device:9100334 csq:6 net:1 server:1, relay:1
[15:31:36-461]
[15:31:36-461]Sensors read rc -2 s -2
[15:31:36-836]feed
[15:31:37-336]feed
[15:31:37-336]device:9100334 csq:6 net:1 server:1, relay:1
[15:31:37-461]Rw:  len=8, data=02 03 00 00 00 03 05 f8 
[15:31:37-836]Rr:  len=1, data=feed
[15:31:38-336]feed
[15:31:38-336]device:9100334 csq:6 net:1 server:1, relay:1
[15:31:38-477]
[15:31:38-477]Sensors read rc -2 s -2
[15:31:38-477]now: 2023-01-13 15:31:35
[15:31:38-836]feed
[15:31:39-336]feed
[15:31:39-336]device:9100334 csq:6 net:1 server:1, relay:1
[15:31:39-477]read each end
[15:31:39-477]indicators_values[1].sensor = 20000a1c
[15:31:39-477]indicators_values[2].sensor = 20000a8c
[15:31:39-836]feed
[15:31:40-336]feed
[15:31:40-352]device:9100334 csq:6 net:1 server:1, relay:1
[15:31:40-492]air blow: err: 10, rst: 3, status: -2
[15:31:40-492]Rw:  len=8, data=fb 03 00 00 00 0a d1 97 
[15:31:40-852]Rr:  len=1, data=feed
[15:31:41-352]feed
[15:31:41-352]device:9100334 csq:6 net:1 server:1, relay:1
[15:31:41-508]Pw:  len=15, data=00 8a dc 2e 03 40 00 00 22 d0 00 01 00 3f 16 
[15:31:41-508]
[15:31:41-508]now: 2023-01-13 15:31:38
[15:31:41-711]Pr:  len=13, data=00 8a dc 2e 03 40 00 00 22 d1 00 01 00 
[15:31:41-727]Pr:  len=2, data=3e ea 
[15:31:41-852]feed
[15:31:42-352]feed
[15:31:42-352]device:9100334 csq:6 net:1 server:1, relay:1
[15:31:42-508]probe u_value = 0
[15:31:42-508]probe u_value = 0
[15:31:42-508]probe u_value = 0
[15:31:42-508]Rw:  len=8, data=01 06 00 0a 00 00 a9 c8 
[15:31:42-852]Rr:  len=1, data=feed
[15:31:43-258]<Recv>:
[15:31:43-258]id = 18f61111, dlc = 7
[15:31:43-258]04 3e 08 52 08 52 08 
[15:31:43-274]power in:cfg=4, VA=211(V), VB=213(V), VC=213(V)
[15:31:43-352]feed
[15:31:43-352]device:9100334 csq:6 net:1 server:1, relay:1
[15:31:43-524]read each start
[15:31:43-524]Rw:  len=8, data=01 03 00 00 00 05 85 c9 
[15:31:43-852]Rr:  len=1, data=feed
[15:31:44-352]feed
[15:31:44-368]device:9100334 csq:6 net:1 server:1, relay:1
[15:31:44-539]
[15:31:44-539]Sensors read rc -2 s -2
[15:31:44-539]now: 2023-01-13 15:31:41
[15:31:44-868]feed
[15:31:45-289]CSQ: 6
[15:31:45-368]feed
[15:31:45-368]device:9100334 csq:6 net:1 server:1, relay:1
[15:31:45-539]Rw:  len=8, data=02 03 00 00 00 03 05 f8 
[15:31:45-868]Rr:  len=1, data=feed
[15:31:46-368]feed
[15:31:46-368]device:9100334 csq:6 net:1 server:1, relay:1
[15:31:46-555]
[15:31:46-555]Sensors read rc -2 s -2
[15:31:46-868]feed
[15:31:47-368]feed
[15:31:47-368]device:9100334 csq:6 net:1 server:1, relay:1
[15:31:47-555]read each end
[15:31:47-555]indicators_values[1].sensor = 20000a1c
[15:31:47-555]indicators_values[2].sensor = 20000a8c
[15:31:47-555]now: 2023-01-13 15:31:44
[15:31:47-868]feed
[15:31:48-368]feed
[15:31:48-383]device:9100334 csq:6 net:1 server:1, relay:1
[15:31:48-571]air blow: err: 10, rst: 3, status: -2
[15:31:48-571]Rw:  len=8, data=fb 03 00 00 00 0a d1 97 
[15:31:48-883]Rr:  len=1, data=feed
[15:31:49-383]feed
[15:31:49-383]device:9100334 csq:6 net:1 server:1, relay:1
[15:31:49-883]feed
[15:31:50-383]feed
[15:31:50-383]device:9100334 csq:6 net:1 server:1, relay:1
[15:31:50-571]probe u_value = 0
[15:31:50-586]probe u_value = 0
[15:31:50-586]probe u_value = 0
[15:31:50-586]Rw:  len=8, data=01 06 00 0a 00 00 a9 c8 
[15:31:50-602]Rr:  len=1, data=now: 2023-01-13 15:31:47
[15:31:50-883]feed
[15:31:51-383]feed
[15:31:51-383]device:9100334 csq:6 net:1 server:1, relay:1
[15:31:51-602]read each start
[15:31:51-602]Rw:  len=8, data=01 03 00 00 00 05 85 c9 
[15:31:51-883]Rr:  len=1, data=feed
[15:31:52-383]feed
[15:31:52-399]device:9100334 csq:6 net:1 server:1, relay:1
[15:31:52-618]
[15:31:52-618]Sensors read rc -2 s -2
[15:31:52-899]feed
[15:31:53-399]feed
[15:31:53-399]device:9100334 csq:6 net:1 server:1, relay:1
[15:31:53-618]Rw:  len=8, data=02 03 00 00 00 03 05 f8 
[15:31:53-633]Rr:  len=1, data=now: 2023-01-13 15:31:50
[15:31:53-899]feed
[15:31:54-399]feed
[15:31:54-399]device:9100334 csq:6 net:1 server:1, relay:1
[15:31:54-633]
[15:31:54-633]Sensors read rc -2 s -2
[15:31:54-899]feed
[15:31:55-399]feed
[15:31:55-399]device:9100334 csq:6 net:1 server:1, relay:1
[15:31:55-633]read each end
[15:31:55-633]indicators_values[1].sensor = 20000a1c
[15:31:55-633]indicators_values[2].sensor = 20000a8c
[15:31:55-899]feed
[15:31:56-415]feed
[15:31:56-415]device:9100334 csq:6 net:1 server:1, relay:1
[15:31:56-633]air blow: err: 10, rst: 3, status: -2
[15:31:56-649]Rw:  len=8, data=fb 03 00 00 00 0a d1 97 
[15:31:56-649]Rr:  len=1, data=now: 2023-01-13 15:31:53
[15:31:56-915]feed
[15:31:57-415]feed
[15:31:57-415]device:9100334 csq:6 net:1 server:1, relay:1
[15:31:57-477]<Recv>:
[15:31:57-477]id = 18f51111, dlc = 6
[15:31:57-477]01 00 02 00 00 00 
[15:31:57-477]dev_relay:ch=1, os=0, ks=2, err=0, cur=0(mA)
[15:31:57-477]<Recv>:
[15:31:57-477]id = 18f51111, dlc = 6
[15:31:57-493]02 00 02 00 00 00 
[15:31:57-493]dev_relay:ch=2, os=0, ks=2, err=0, cur=0(mA)
[15:31:57-493]<Recv>:
[15:31:57-493]id = 18f51111, dlc = 6
[15:31:57-493]03 01 01 00 00 00 
[15:31:57-493]dev_relay:ch=3, os=1, ks=1, err=0, cur=0(mA)
[15:31:57-493]<Recv>:
[15:31:57-493]id = 18f51111, dlc = 6
[15:31:57-508]04 00 02 00 01 00 
[15:31:57-508]dev_relay:ch=4, os=0, ks=2, err=0, cur=10(mA)
[15:31:57-508]<Recv>:
[15:31:57-508]id = 18f51111, dlc = 6
[15:31:57-508]05 00 02 00 01 00 
[15:31:57-508]dev_relay:ch=5, os=0, ks=2, err=0, cur=10(mA)
[15:31:57-649]key<3> press
[15:31:57-649]get_ch <3> = ON
[15:31:57-915]feed
[15:31:57-993]<Recv>:
[15:31:58-008]id = 18f51111, dlc = 6
[15:31:58-008]01 00 02 00 00 00 
[15:31:58-008]dev_relay:ch=1, os=0, ks=2, err=0, cur=0(mA)
[15:31:58-008]<Recv>:
[15:31:58-008]id = 18f51111, dlc = 6
[15:31:58-008]02 00 02 00 00 00 
[15:31:58-008]dev_relay:ch=2, os=0, ks=2, err=0, cur=0(mA)
[15:31:58-008]<Recv>:
[15:31:58-008]id = 18f51111, dlc = 6
[15:31:58-008]03 01 01 01 00 00 
[15:31:58-024]dev_relay:ch=3, os=1, ks=1, err=1, cur=0(mA)
[15:31:58-024]<Recv>:
[15:31:58-024]id = 18f51111, dlc = 6
[15:31:58-024]04 00 02 00 01 00 
[15:31:58-040]dev_relay:ch=4, os=0, ks=2, err=0, cur=10(mA)
[15:31:58-040]<Recv>:
[15:31:58-040]id = 18f51111, dlc = 6
[15:31:58-040]05 00 02 00 01 00 
[15:31:58-040]dev_relay:ch=5, os=0, ks=2, err=0, cur=10(mA)
[15:31:58-149]CSQ: 6
[15:31:58-415]feed
[15:31:58-415]device:9100334 csq:6 net:1 server:1, relay:1
[15:31:58-524]<Recv>:
[15:31:58-524]id = 18f51111, dlc = 6
[15:31:58-524]01 00 02 00 00 00 
[15:31:58-540]dev_relay:ch=1, os=0, ks=2, err=0, cur=0(mA)
[15:31:58-540]<Recv>:
[15:31:58-540]id = 18f51111, dlc = 6
[15:31:58-540]02 00 02 00 00 00 
[15:31:58-555]dev_relay:ch=2, os=0, ks=2, err=0, cur=0(mA)
[15:31:58-555]<Recv>:
[15:31:58-555]id = 18f51111, dlc = 6
[15:31:58-555]03 01 01 01 2a 02 
[15:31:58-555]dev_relay:ch=3, os=1, ks=1, err=1, cur=5540(mA)
[15:31:58-555]<Recv>:
[15:31:58-555]id = 18f51111, dlc = 6
[15:31:58-571]04 00 02 00 02 00 
[15:31:58-571]dev_relay:ch=4, os=0, ks=2, err=0, cur=20(mA)
[15:31:58-571]<Recv>:
[15:31:58-571]id = 18f51111, dlc = 6
[15:31:58-571]05 00 02 00 01 00 
[15:31:58-586]dev_relay:ch=5, os=0, ks=2, err=0, cur=10(mA)
[15:31:58-649]probe u_value = 0
[15:31:58-649]probe u_value = 0
[15:31:58-649]probe u_value = 0
[15:31:58-665]Rw:  len=8, data=01 06 00 0a 00 00 a9 c8 
[15:31:58-680]Rr:  len=1, data=relay_output_status ON
[15:31:58-680][2]broken_index<0> = broken_type<1>
[15:31:58-696]Pw:  len=52, data=00 8a dc 2e 03 40 00 00 12 d0 00 01 25 01 17 01 0d 0f 1f 37 ff fc 00 00 00 00 20 00 20 00 20 00 00 00 20 00 20 00 20 00 00 00 00 00 00 00 00 00 00 00 2b c1 
[15:31:58-696]
[15:31:58-915]feed
[15:31:59-415]feed
[15:31:59-415]device:9100334 csq:6 net:1 server:1, relay:1
[15:31:59-665]read each start
[15:31:59-680]Rw:  len=8, data=01 03 00 00 00 05 85 c9 
[15:31:59-696]Rr:  len=1, data=now: 2023-01-13 15:31:56
[15:31:59-915]feed
[15:32:00-430]feed
[15:32:00-430]device:9100334 csq:6 net:1 server:1, relay:1
[15:32:00-680]
[15:32:00-680]Sensors read rc -2 s -2
[15:32:00-930]feed
[15:32:01-430]feed
[15:32:01-430]device:9100334 csq:6 net:1 server:1, relay:1
[15:32:01-696]Rw:  len=8, data=02 03 00 00 00 03 05 f8 
[15:32:01-930]Rr:  len=1, data=feed
[15:32:02-430]feed
[15:32:02-430]device:9100334 csq:6 net:1 server:1, relay:1
[15:32:02-696]
[15:32:02-696]Sensors read rc -2 s -2
[15:32:02-712]now: 2023-01-13 15:31:59
[15:32:02-930]feed
[15:32:03-430]feed
[15:32:03-446]device:9100334 csq:6 net:1 server:1, relay:1
[15:32:03-696]read each end
[15:32:03-712]indicators_values[1].sensor = 20000a1c
[15:32:03-712]indicators_values[2].sensor = 20000a8c
[15:32:03-946]feed
[15:32:04-258]<Recv>:
[15:32:04-258]id = 18f51111, dlc = 6
[15:32:04-258]01 00 02 00 00 00 
[15:32:04-274]dev_relay:ch=1, os=0, ks=2, err=0, cur=0(mA)
[15:32:04-274]<Recv>:
[15:32:04-274]id = 18f51111, dlc = 6
[15:32:04-274]02 00 02 00 00 00 
[15:32:04-274]dev_relay:ch=2, os=0, ks=2, err=0, cur=0(mA)
[15:32:04-274]<Recv>:
[15:32:04-290]id = 18f51111, dlc = 6
[15:32:04-290]03 00 02 00 16 01 
[15:32:04-290]dev_relay:ch=3, os=0, ks=2, err=0, cur=2780(mA)
[15:32:04-290]<Recv>:
[15:32:04-290]id = 18f51111, dlc = 6
[15:32:04-290]04 00 02 00 02 00 
[15:32:04-290]dev_relay:ch=4, os=0, ks=2, err=0, cur=20(mA)
[15:32:04-290]<Recv>:
[15:32:04-290]id = 18f51111, dlc = 6
[15:32:04-305]05 00 02 00 01 00 
[15:32:04-305]dev_relay:ch=5, os=0, ks=2, err=0, cur=10(mA)
[15:32:04-446]feed
[15:32:04-446]device:9100334 csq:6 net:1 server:1, relay:1
[15:32:04-712]air blow: err: 10, rst: 3, status: -2
[15:32:04-712]Rw:  len=8, data=fb 03 00 00 00 0a d1 97 
[15:32:04-727]Rr:  len=1, data=key<3> release
[15:32:04-727]get_ch <3> = OFF
[15:32:04-946]feed
[15:32:05-290]<Recv>:
[15:32:05-290]id = 18f51111, dlc = 6
[15:32:05-290]01 00 02 00 00 00 
[15:32:05-290]dev_relay:ch=1, os=0, ks=2, err=0, cur=0(mA)
[15:32:05-290]<Recv>:
[15:32:05-305]id = 18f51111, dlc = 6
[15:32:05-305]02 00 02 00 00 00 
[15:32:05-305]dev_relay:ch=2, os=0, ks=2, err=0, cur=0(mA)
[15:32:05-305]<Recv>:
[15:32:05-305]id = 18f51111, dlc = 6
[15:32:05-305]03 00 02 00 00 00 
[15:32:05-321]dev_relay:ch=3, os=0, ks=2, err=0, cur=0(mA)
[15:32:05-321]<Recv>:
[15:32:05-321]id = 18f51111, dlc = 6
[15:32:05-321]04 00 02 00 01 00 
[15:32:05-321]dev_relay:ch=4, os=0, ks=2, err=0, cur=10(mA)
[15:32:05-321]<Recv>:
[15:32:05-321]id = 18f51111, dlc = 6
[15:32:05-321]05 00 02 00 01 00 
[15:32:05-337]dev_relay:ch=5, os=0, ks=2, err=0, cur=10(mA)
[15:32:05-446]feed
[15:32:05-446]device:9100334 csq:6 net:1 server:1, relay:1
[15:32:05-727]now: 2023-01-13 15:32:02
[15:32:05-727]relay_output_status OFF
[15:32:05-727][2]broken_index<0> = broken_type<0>
[15:32:05-758]Pw:  len=52, data=00 8a dc 2e 03 40 00 00 12 d0 00 01 25 01 17 01 0d 0f 20 02 ff fc 00 00 00 00 00 00 20 00 00 00 00 00 00 00 00 00 00 00 00 00 00 00 00 00 00 00 00 00 41 b7 
[15:32:05-758]
[15:32:05-946]feed
[15:32:06-446]feed
[15:32:06-446]device:9100334 csq:6 net:1 server:1, relay:1
[15:32:06-727]probe u_value = 0
[15:32:06-727]probe u_value = 0
[15:32:06-727]probe u_value = 0
[15:32:06-743]Rw:  len=8, data=01 06 00 0a 00 00 a9 c8 
[15:32:06-946]Rr:  len=1, data=feed
[15:32:07-446]feed
[15:32:07-462]device:9100334 csq:6 net:1 server:1, relay:1
[15:32:07-743]read each start
[15:32:07-743]Rw:  len=8, data=01 03 00 00 00 05 85 c9 
[15:32:07-962]Rr:  len=1, data=feed
[15:32:08-462]feed
[15:32:08-462]device:9100334 csq:6 net:1 server:1, relay:1
[15:32:08-758]
[15:32:08-758]Sensors read rc -2 s -2
[15:32:08-758]now: 2023-01-13 15:32:05
[15:32:08-962]feed
[15:32:09-462]feed
[15:32:09-462]device:9100334 csq:6 net:1 server:1, relay:1
[15:32:09-758]Rw:  len=8, data=02 03 00 00 00 03 05 f8 
[15:32:09-962]Rr:  len=1, data=feed
[15:32:10-462]feed
[15:32:10-462]device:9100334 csq:6 net:1 server:1, relay:1
[15:32:10-774]
[15:32:10-774]Sensors read rc -2 s -2
[15:32:10-962]feed
[15:32:11-274]CSQ: 6
[15:32:11-462]feed
[15:32:11-477]device:9100334 csq:6 net:1 server:1, relay:1
[15:32:11-774]read each end
[15:32:11-774]indicators_values[1].sensor = 20000a1c
[15:32:11-790]indicators_values[2].sensor = 20000a8c
[15:32:11-790]now: 2023-01-13 15:32:08
[15:32:11-977]feed
[15:32:12-477]feed
[15:32:12-477]device:9100334 csq:6 net:1 server:1, relay:1
[15:32:12-790]air blow: err: 10, rst: 3, status: -2
[15:32:12-790]Rw:  len=8, data=fb 03 00 00 00 0a d1 97 
[15:32:12-977]Rr:  len=1, data=feed
[15:32:13-321]<Recv>:
[15:32:13-321]id = 18f61111, dlc = 7
[15:32:13-321]04 48 08 52 08 52 08 
[15:32:13-321]power in:cfg=4, VA=212(V), VB=213(V), VC=213(V)
[15:32:13-477]feed
[15:32:13-477]device:9100334 csq:6 net:1 server:1, relay:1
[15:32:13-977]feed
[15:32:14-477]feed
[15:32:14-477]device:9100334 csq:6 net:1 server:1, relay:1
[15:32:14-805]probe u_value = 0
[15:32:14-805]probe u_value = 0
[15:32:14-805]probe u_value = 0
[15:32:14-805]Rw:  len=8, data=01 06 00 0a 00 00 a9 c8 
[15:32:14-821]Rr:  len=1, data=now: 2023-01-13 15:32:11
[15:32:14-977]feed
[15:32:15-493]feed
[15:32:15-493]device:9100334 csq:6 net:1 server:1, relay:1
[15:32:15-821]read each start
[15:32:15-821]Rw:  len=8, data=01 03 00 00 00 05 85 c9 
[15:32:15-993]Rr:  len=1, data=feed
[15:32:16-493]feed
[15:32:16-493]device:9100334 csq:6 net:1 server:1, relay:1
[15:32:16-837]
[15:32:16-837]Sensors read rc -2 s -2
[15:32:16-993]feed
[15:32:17-493]feed
[15:32:17-493]device:9100334 csq:6 net:1 server:1, relay:1
[15:32:17-837]Rw:  len=8, data=02 03 00 00 00 03 05 f8 
[15:32:17-852]Rr:  len=1, data=now: 2023-01-13 15:32:14
[15:32:17-993]feed
[15:32:18-493]feed
[15:32:18-493]device:9100334 csq:6 net:1 server:1, relay:1
[15:32:18-852]
[15:32:18-852]Sensors read rc -2 s -2
[15:32:18-993]feed
[15:32:19-509]feed
[15:32:19-509]device:9100334 csq:6 net:1 server:1, relay:1
[15:32:21-868]read each end
[15:32:21-868]indicators_values[1].sensor = 20000a1c
[15:32:21-868]indicators_values[2].sensor = 20000a8c
[15:32:21-868]feed
[15:32:21-868]feed
[15:32:21-868]device:9100334 csq:6 net:1 server:1, relay:1
[15:32:21-868]air blow: err: 10, rst: 3, status: -2
[15:32:21-868]Rw:  len=8, data=fb 03 00 00 00 0a d1 97 
[15:32:21-868]Rr:  len=1, data=now: 2023-01-13 15:32:17
[15:32:21-868]feed
[15:32:21-868]feed
[15:32:21-868]device:9100334 csq:6 net:1 server:1, relay:1
