[11:36:34-924]feed
[11:36:34-925]device:9100334 csq:6 net:1 server:1, relay:1
[11:36:35-425]feed
[11:36:35-502]probe u_value = 0
[11:36:35-503]probe u_value = 0
[11:36:35-503]probe u_value = 0
[11:36:35-503]Rw:  len=8, data=01 06 00 0a 00 00 a9 c8 
[11:36:35-660]Rr:  len=1, data=set_ch <1> = OFF
[11:36:35-660]<USend>:
[11:36:35-660]id = 0c501101, dlc = 7
[11:36:35-660]01 00 03 00 00 00 00 
[11:36:35-678]<Recv>:
[11:36:35-679]id = 18e80111, dlc = 4
[11:36:35-679]50 00 00 00 
[11:36:35-679]dev_respon:PGN=5000,status=0
[11:36:35-929]feed
[11:36:35-929]device:9100334 csq:6 net:1 server:1, relay:1
[11:36:36-429]feed
[11:36:36-517]read each start
[11:36:36-517]Rw:  len=8, data=01 03 00 00 00 05 85 c9 
[11:36:36-928]Rr:  len=1, data=<Recv>:
[11:36:36-928]id = 18f51111, dlc = 6
[11:36:36-928]01 00 02 00 00 00 
[11:36:36-928]dev_relay:ch=1, os=0, ks=2, err=0, cur=0(mA)
[11:36:36-928]<Recv>:
[11:36:36-939]id = 18f51111, dlc = 6
[11:36:36-939]02 00 02 00 00 00 
[11:36:36-939]dev_relay:ch=2, os=0, ks=2, err=0, cur=0(mA)
[11:36:36-939]<Recv>:
[11:36:36-939]id = 18f51111, dlc = 6
[11:36:36-940]03 00 02 00 00 00 
[11:36:36-952]dev_relay:ch=3, os=0, ks=2, err=0, cur=0(mA)
[11:36:36-953]<Recv>:
[11:36:36-953]id = 18f51111, dlc = 6
[11:36:36-953]04 00 02 00 03 00 
[11:36:36-968]dev_relay:ch=4, os=0, ks=2, err=0, cur=30(mA)
[11:36:36-968]<Recv>:
[11:36:36-968]id = 18f51111, dlc = 6
[11:36:36-968]05 00 02 00 01 00 
[11:36:36-969]dev_relay:ch=5, os=0, ks=2, err=0, cur=10(mA)
[11:36:37-429]feed
[11:36:37-528]
[11:36:37-528]Sensors read rc -2 s -2
[11:36:37-934]feed
[11:36:37-934]device:9100334 csq:6 net:1 server:1, relay:1
[11:36:38-432]feed
[11:36:38-530]Rw:  len=8, data=02 03 00 00 00 03 05 f8 
[11:36:38-766]Rr:  len=1, data=now: 2023-01-18 11:36:33
[11:36:38-769]key<1> release
[11:36:38-771][0]broken_index<0> = broken_type<0>
[11:36:38-783]Pw:  len=52, data=00 8a dc 2e 03 40 00 00 12 d0 00 01 25 01 17 01 12 0b 24 21 ff fc 00 00 00 00 80 00 00 00 00 00 00 00 00 00 00 00 00 00 00 00 00 00 00 00 00 00 00 00 02 1a 
[11:36:38-796]
[11:36:38-941]feed
[11:36:38-942]device:9100334 csq:6 net:1 server:1, relay:1
[11:36:39-438]feed
[11:36:39-546]
[11:36:39-547]Sensors read rc -2 s -2
[11:36:39-808]Pw:  len=52, data=00 8a dc 2e 03 40 00 00 12 d0 00 01 25 01 17 01 12 0b 24 22 ff fc 00 00 00 00 00 00 00 00 00 00 00 00 00 00 00 00 00 00 00 00 00 00 00 00 00 00 00 00 d5 f5 
[11:36:39-816]
[11:36:39-945]feed
[11:36:39-947]device:9100334 csq:6 net:1 server:1, relay:1
[11:36:40-442]feed
[11:36:40-555]read each end
[11:36:40-555]indicators_values[1].sensor = 20000a24
[11:36:40-557]indicators_values[2].sensor = 20000a94
[11:36:40-949]feed
[11:36:40-951]device:9100334 csq:6 net:1 server:1, relay:1
[11:36:41-445]feed
[11:36:41-561]air blow: err: 10, rst: 3, status: -2
[11:36:41-563]Rw:  len=8, data=fb 03 00 00 00 0a d1 97 
[11:36:41-811]Rr:  len=1, data=now: 2023-01-18 11:36:36
[11:36:41-953]feed
[11:36:41-955]device:9100334 csq:6 net:1 server:1, relay:1
[11:36:42-451]feed
[11:36:42-956]feed
[11:36:42-957]device:9100334 csq:6 net:1 server:1, relay:1
[11:36:43-455]feed
[11:36:43-579]probe u_value = 0
[11:36:43-579]probe u_value = 0
[11:36:43-579]probe u_value = 0
[11:36:43-581]Rw:  len=8, data=01 06 00 0a 00 00 a9 c8 
[11:36:43-961]Rr:  len=1, data=feed
[11:36:43-963]device:9100334 csq:6 net:1 server:1, relay:1
[11:36:44-458]feed
[11:36:44-595]read each start
[11:36:44-596]Rw:  len=8, data=01 03 00 00 00 05 85 c9 
[11:36:44-813]Rr:  len=1, data=now: 2023-01-18 11:36:39
[11:36:44-965]feed
[11:36:44-966]device:9100334 csq:6 net:1 server:1, relay:1
[11:36:45-463]feed
[11:36:45-607]
[11:36:45-608]Sensors read rc -2 s -2
[11:36:45-965]<Recv>:
[11:36:45-965]id = 18f61111, dlc = 7
[11:36:45-966]04 70 08 84 08 84 08 
[11:36:45-967]power in:cfg=4, VA=216(V), VB=218(V), VC=218(V)
[11:36:46-463]feed
[11:36:46-608]Rw:  len=8, data=02 03 00 00 00 03 05 f8 
[11:36:46-969]Rr:  len=1, data=feed
[11:36:46-970]device:9100334 csq:6 net:1 server:1, relay:1
[11:36:47-466]feed
[11:36:47-621]
[11:36:47-622]Sensors read rc -2 s -2
[11:36:47-815]now: 2023-01-18 11:36:42
[11:36:47-869]CSQ: 6
[11:36:47-973]feed
[11:36:47-975]device:9100334 csq:6 net:1 server:1, relay:1
[11:36:48-471]feed
[11:36:48-630]read each end
[11:36:48-630]indicators_values[1].sensor = 20000a24
[11:36:48-632]indicators_values[2].sensor = 20000a94
[11:36:48-978]feed
[11:36:48-979]device:9100334 csq:6 net:1 server:1, relay:1
[11:36:49-475]feed
[11:36:49-637]air blow: err: 10, rst: 3, status: -2
[11:36:49-639]Rw:  len=8, data=fb 03 00 00 00 0a d1 97 
[11:36:49-981]Rr:  len=1, data=feed
[11:36:49-983]device:9100334 csq:6 net:1 server:1, relay:1
[11:36:50-478]feed
[11:36:50-816]now: 2023-01-18 11:36:45
[11:36:50-985]feed
[11:36:50-987]device:9100334 csq:6 net:1 server:1, relay:1
[11:36:51-483]feed
[11:36:51-655]probe u_value = 0
[11:36:51-656]probe u_value = 0
[11:36:51-656]probe u_value = 0
[11:36:51-658]Rw:  len=8, data=01 06 00 0a 00 00 a9 c8 
[11:36:51-990]Rr:  len=1, data=feed
[11:36:51-991]device:9100334 csq:6 net:1 server:1, relay:1
[11:36:52-489]feed
[11:36:52-671]read each start
[11:36:52-673]Rw:  len=8, data=01 03 00 00 00 05 85 c9 
[11:36:52-993]Rr:  len=1, data=feed
[11:36:52-995]device:9100334 csq:6 net:1 server:1, relay:1
[11:36:53-491]feed
[11:36:53-682]
[11:36:53-683]Sensors read rc -2 s -2
[11:36:53-819]now: 2023-01-18 11:36:48
[11:36:53-998]feed
[11:36:54-000]device:9100334 csq:6 net:1 server:1, relay:1
[11:36:54-493]feed
[11:36:54-685]Rw:  len=8, data=02 03 00 00 00 03 05 f8 
[11:36:55-000]Rr:  len=1, data=feed
[11:36:55-001]device:9100334 csq:6 net:1 server:1, relay:1
[11:36:55-498]feed
[11:36:55-698]
[11:36:55-700]Sensors read rc -2 s -2
[11:36:56-005]feed
[11:36:56-007]device:9100334 csq:6 net:1 server:1, relay:1
[11:36:56-503]feed
[11:36:56-704]read each end
[11:36:56-704]indicators_values[1].sensor = 20000a24
[11:36:56-704]indicators_values[2].sensor = 20000a94
[11:36:56-821]now: 2023-01-18 11:36:51
[11:36:57-009]feed
[11:36:57-011]device:9100334 csq:6 net:1 server:1, relay:1
[11:36:57-507]feed
[11:36:57-711]air blow: err: 10, rst: 3, status: -2
[11:36:57-712]Rw:  len=8, data=fb 03 00 00 00 0a d1 97 
[11:36:58-013]Rr:  len=1, data=feed
[11:36:58-013]device:9100334 csq:6 net:1 server:1, relay:1
[11:36:58-510]feed
[11:36:59-018]feed
[11:36:59-020]device:9100334 csq:6 net:1 server:1, relay:1
[11:36:59-516]feed
[11:36:59-730]probe u_value = 0
[11:36:59-730]probe u_value = 0
[11:36:59-730]probe u_value = 0
[11:36:59-730]Rw:  len=8, data=01 06 00 0a 00 00 a9 c8 
[11:36:59-824]Rr:  len=1, data=now: 2023-01-18 11:36:54
[11:37:00-022]feed
[11:37:00-024]device:9100334 csq:6 net:1 server:1, relay:1
[11:37:00-519]feed
[11:37:00-745]read each start
[11:37:00-747]Rw:  len=8, data=01 03 00 00 00 05 85 c9 
[11:37:00-754]Rr:  len=1, data=CSQ: 6
[11:37:01-026]feed
[11:37:01-028]device:9100334 csq:6 net:1 server:1, relay:1
[11:37:01-522]feed
[11:37:01-758]
[11:37:01-759]Sensors read rc -2 s -2
[11:37:02-029]feed
[11:37:02-030]device:9100334 csq:6 net:1 server:1, relay:1
[11:37:02-527]feed
[11:37:02-759]Rw:  len=8, data=02 03 00 00 00 03 05 f8 
[11:37:02-827]Rr:  len=1, data=now: 2023-01-18 11:36:57
[11:37:03-034]feed
[11:37:03-035]device:9100334 csq:6 net:1 server:1, relay:1
[11:37:03-532]feed
[11:37:03-772]
[11:37:03-774]Sensors read rc -2 s -2
[11:37:04-038]feed
[11:37:04-039]device:9100334 csq:6 net:1 server:1, relay:1
[11:37:04-535]feed
[11:37:04-780]read each end
[11:37:04-780]indicators_values[1].sensor = 20000a24
[11:37:04-782]indicators_values[2].sensor = 20000a94
[11:37:05-042]feed
[11:37:05-044]device:9100334 csq:6 net:1 server:1, relay:1
[11:37:05-540]feed
[11:37:05-788]air blow: err: 10, rst: 3, status: -2
[11:37:05-790]Rw:  len=8, data=fb 03 00 00 00 0a d1 97 
[11:37:05-828]Rr:  len=1, data=now: 2023-01-18 11:37:00
[11:37:06-047]feed
[11:37:06-048]device:9100334 csq:6 net:1 server:1, relay:1
[11:37:06-543]feed
[11:37:07-050]feed
[11:37:07-052]device:9100334 csq:6 net:1 server:1, relay:1
[11:37:07-548]feed
[11:37:07-806]probe u_value = 0
[11:37:07-806]probe u_value = 0
[11:37:07-806]probe u_value = 0
[11:37:07-807]Rw:  len=8, data=01 06 00 0a 00 00 a9 c8 
[11:37:08-055]Rr:  len=1, data=feed
[11:37:08-056]device:9100334 csq:6 net:1 server:1, relay:1
[11:37:08-551]feed
[11:37:08-821]read each start
[11:37:08-823]Rw:  len=8, data=01 03 00 00 00 05 85 c9 
[11:37:08-831]Rr:  len=1, data=now: 2023-01-18 11:37:03
[11:37:09-058]feed
[11:37:09-060]device:9100334 csq:6 net:1 server:1, relay:1
[11:37:09-557]feed
[11:37:09-834]
[11:37:09-835]Sensors read rc -2 s -2
[11:37:10-063]feed
[11:37:10-065]device:9100334 csq:6 net:1 server:1, relay:1
[11:37:10-558]feed
[11:37:10-833]Rw:  len=8, data=02 03 00 00 00 03 05 f8 
[11:37:11-068]Rr:  len=1, data=feed
[11:37:11-069]device:9100334 csq:6 net:1 server:1, relay:1
[11:37:11-563]feed
[11:37:11-851]
[11:37:11-851]Sensors read rc -2 s -2
[11:37:11-853]now: 2023-01-18 11:37:06
[11:37:12-070]feed
[11:37:12-072]device:9100334 csq:6 net:1 server:1, relay:1
[11:37:12-567]feed
[11:37:12-857]read each end
[11:37:12-857]indicators_values[1].sensor = 20000a24
[11:37:12-859]indicators_values[2].sensor = 20000a94
[11:37:13-074]feed
[11:37:13-075]device:9100334 csq:6 net:1 server:1, relay:1
[11:37:13-572]feed
[11:37:13-863]air blow: err: 10, rst: 3, status: -2
[11:37:13-865]Rw:  len=8, data=fb 03 00 00 00 0a d1 97 
[11:37:13-871]Rr:  len=1, data=CSQ: 6
[11:37:14-079]feed
[11:37:14-081]device:9100334 csq:6 net:1 server:1, relay:1
[11:37:14-575]feed
[11:37:14-874]now: 2023-01-18 11:37:09
[11:37:15-084]feed
[11:37:15-085]device:9100334 csq:6 net:1 server:1, relay:1
[11:37:15-581]feed
[11:37:15-880]probe u_value = 0
[11:37:15-880]probe u_value = 0
[11:37:15-880]probe u_value = 0
[11:37:15-881]Rw:  len=8, data=01 06 00 0a 00 00 a9 c8 
[11:37:15-973]Rr:  len=1, data=<Recv>:
[11:37:15-973]id = 18f61111, dlc = 7
[11:37:15-973]04 70 08 84 08 84 08 
[11:37:15-975]power in:cfg=4, VA=216(V), VB=218(V), VC=218(V)
[11:37:16-086]feed
[11:37:16-087]device:9100334 csq:6 net:1 server:1, relay:1
[11:37:16-585]feed
[11:37:16-895]read each start
[11:37:16-896]Rw:  len=8, data=01 03 00 00 00 05 85 c9 
[11:37:17-092]Rr:  len=1, data=feed
[11:37:17-094]device:9100334 csq:6 net:1 server:1, relay:1
[11:37:17-586]feed
[11:37:17-910]
[11:37:17-911]Sensors read rc -2 s -2
[11:37:17-912]now: 2023-01-18 11:37:12
[11:37:18-093]feed
[11:37:18-094]device:9100334 csq:6 net:1 server:1, relay:1
[11:37:18-592]feed
[11:37:18-910]Rw:  len=8, data=02 03 00 00 00 03 05 f8 
[11:37:19-102]Rr:  len=1, data=feed
[11:37:19-104]device:9100334 csq:6 net:1 server:1, relay:1
[11:37:19-595]feed
[11:37:19-924]
[11:37:19-925]Sensors read rc -2 s -2
[11:37:20-103]feed
[11:37:20-105]device:9100334 csq:6 net:1 server:1, relay:1
[11:37:20-601]feed
[11:37:20-934]read each end
[11:37:20-935]indicators_values[1].sensor = 20000a24
[11:37:20-935]indicators_values[2].sensor = 20000a94
[11:37:20-936]now: 2023-01-18 11:37:15
[11:37:21-105]feed
[11:37:21-107]device:9100334 csq:6 net:1 server:1, relay:1
[11:37:21-605]feed
[11:37:21-938]air blow: err: 10, rst: 3, status: -2
[11:37:21-940]Rw:  len=8, data=fb 03 00 00 00 0a d1 97 
[11:37:22-111]Rr:  len=1, data=feed
[11:37:22-113]device:9100334 csq:6 net:1 server:1, relay:1
[11:37:22-609]feed
[11:37:23-115]feed
[11:37:23-115]device:9100334 csq:6 net:1 server:1, relay:1
[11:37:23-611]feed
[11:37:23-957]probe u_value = 0
[11:37:23-958]probe u_value = 0
[11:37:23-958]probe u_value = 0
[11:37:23-959]Rw:  len=8, data=01 06 00 0a 00 00 a9 c8 
[11:37:23-968]Rr:  len=1, data=now: 2023-01-18 11:37:18
[11:37:24-118]feed
[11:37:24-119]device:9100334 csq:6 net:1 server:1, relay:1
[11:37:24-615]feed
[11:37:24-971]read each start
[11:37:24-971]Rw:  len=8, data=01 03 00 00 00 05 85 c9 
[11:37:25-124]Rr:  len=1, data=feed
[11:37:25-125]device:9100334 csq:6 net:1 server:1, relay:1
[11:37:25-621]feed
[11:37:25-983]
[11:37:25-986]Sensors read rc -2 s -2
[11:37:26-126]feed
[11:37:26-126]device:9100334 csq:6 net:1 server:1, relay:1
[11:37:26-624]feed
[11:37:26-732]CSQ: 6
[11:37:26-985]Rw:  len=8, data=02 03 00 00 00 03 05 f8 
[11:37:26-998]Rr:  len=1, data=now: 2023-01-18 11:37:22
[11:37:27-132]feed
[11:37:27-134]device:9100334 csq:6 net:1 server:1, relay:1
[11:37:27-629]feed
[11:37:27-998]
[11:37:27-999]Sensors read rc -2 s -2
[11:37:28-134]feed
[11:37:28-134]device:9100334 csq:6 net:1 server:1, relay:1
[11:37:28-632]feed
[11:37:29-007]read each end
[11:37:29-008]indicators_values[1].sensor = 20000a24
[11:37:29-009]indicators_values[2].sensor = 20000a94
[11:37:29-139]feed
[11:37:29-141]device:9100334 csq:6 net:1 server:1, relay:1
[11:37:29-637]feed
[11:37:30-014]air blow: err: 10, rst: 3, status: -2
[11:37:30-016]Rw:  len=8, data=fb 03 00 00 00 0a d1 97 
[11:37:30-024]Rr:  len=1, data=now: 2023-01-18 11:37:25
[11:37:30-143]feed
[11:37:30-145]device:9100334 csq:6 net:1 server:1, relay:1
[11:37:30-641]feed
[11:37:31-149]feed
[11:37:31-151]device:9100334 csq:6 net:1 server:1, relay:1
[11:37:31-645]feed
[11:37:32-033]probe u_value = 0
[11:37:32-033]probe u_value = 0
[11:37:32-034]probe u_value = 0
[11:37:32-035]Rw:  len=8, data=01 06 00 0a 00 00 a9 c8 
[11:37:32-153]Rr:  len=1, data=feed
[11:37:32-154]device:9100334 csq:6 net:1 server:1, relay:1
[11:37:32-649]feed
[11:37:33-048]read each start
[11:37:33-050]Rw:  len=8, data=01 03 00 00 00 05 85 c9 
[11:37:33-058]Rr:  len=1, data=now: 2023-01-18 11:37:28
[11:37:33-154]feed
[11:37:33-154]device:9100334 csq:6 net:1 server:1, relay:1
[11:37:33-653]feed
[11:37:34-059]
[11:37:34-059]Sensors read rc -2 s -2
[11:37:34-159]feed
[11:37:34-161]device:9100334 csq:6 net:1 server:1, relay:1
[11:37:34-657]feed
[11:37:35-060]Rw:  len=8, data=02 03 00 00 00 03 05 f8 
[11:37:35-163]Rr:  len=1, data=feed
[11:37:35-164]device:9100334 csq:6 net:1 server:1, relay:1
[11:37:35-662]feed
[11:37:36-077]
[11:37:36-077]Sensors read rc -2 s -2
[11:37:36-079]now: 2023-01-18 11:37:31
[11:37:36-170]feed
[11:37:36-171]device:9100334 csq:6 net:1 server:1, relay:1
[11:37:36-665]feed
[11:37:37-082]read each end
[11:37:37-083]indicators_values[1].sensor = 20000a24
[11:37:37-084]indicators_values[2].sensor = 20000a94
[11:37:37-173]feed
[11:37:37-175]device:9100334 csq:6 net:1 server:1, relay:1
[11:37:37-669]feed
[11:37:38-090]air blow: err: 10, rst: 3, status: -2
[11:37:38-091]Rw:  len=8, data=fb 03 00 00 00 0a d1 97 
[11:37:38-178]Rr:  len=1, data=feed
[11:37:38-179]device:9100334 csq:6 net:1 server:1, relay:1
[11:37:38-675]feed
[11:37:39-100]now: 2023-01-18 11:37:34
[11:37:39-181]feed
[11:37:39-183]device:9100334 csq:6 net:1 server:1, relay:1
[11:37:39-679]feed
[11:37:39-849]CSQ: 6
[11:37:40-108]probe u_value = 0
[11:37:40-109]probe u_value = 0
[11:37:40-109]probe u_value = 0
[11:37:40-110]Rw:  len=8, data=01 06 00 0a 00 00 a9 c8 
[11:37:40-185]Rr:  len=1, data=feed
[11:37:40-187]device:9100334 csq:6 net:1 server:1, relay:1
[11:37:40-681]feed
[11:37:41-123]read each start
[11:37:41-125]Rw:  len=8, data=01 03 00 00 00 05 85 c9 
[11:37:41-188]Rr:  len=1, data=feed
[11:37:41-190]device:9100334 csq:6 net:1 server:1, relay:1
[11:37:41-687]feed
[11:37:42-137]
[11:37:42-137]Sensors read rc -2 s -2
[11:37:42-139]now: 2023-01-18 11:37:37
[11:37:42-193]feed
[11:37:42-195]device:9100334 csq:6 net:1 server:1, relay:1
[11:37:42-691]feed
[11:37:43-135]Rw:  len=8, data=02 03 00 00 00 03 05 f8 
[11:37:43-196]Rr:  len=1, data=feed
[11:37:43-196]device:9100334 csq:6 net:1 server:1, relay:1
[11:37:43-694]feed
[11:37:44-149]
[11:37:44-149]Sensors read rc -2 s -2
[11:37:44-200]feed
[11:37:44-200]device:9100334 csq:6 net:1 server:1, relay:1
[11:37:44-699]feed
[11:37:45-159]read each end
[11:37:45-159]indicators_values[1].sensor = 20000a24
[11:37:45-160]indicators_values[2].sensor = 20000a94
[11:37:45-160]now: 2023-01-18 11:37:40
[11:37:45-204]feed
[11:37:45-204]device:9100334 csq:6 net:1 server:1, relay:1
[11:37:45-703]feed
[11:37:45-980]<Recv>:
[11:37:45-980]id = 18f61111, dlc = 7
[11:37:45-981]04 70 08 84 08 84 08 
[11:37:45-982]power in:cfg=4, VA=216(V), VB=218(V), VC=218(V)
[11:37:46-165]air blow: err: 10, rst: 3, status: -2
[11:37:46-167]Rw:  len=8, data=fb 03 00 00 00 0a d1 97 
[11:37:46-211]Rr:  len=1, data=feed
[11:37:46-212]device:9100334 csq:6 net:1 server:1, relay:1
[11:37:46-708]feed
[11:37:47-213]feed
[11:37:47-213]device:9100334 csq:6 net:1 server:1, relay:1
[11:37:47-711]feed
[11:37:48-182]probe u_value = 0
[11:37:48-182]probe u_value = 0
[11:37:48-182]probe u_value = 0
[11:37:48-183]Rw:  len=8, data=01 06 00 0a 00 00 a9 c8 
[11:37:48-193]Rr:  len=1, data=now: 2023-01-18 11:37:43
[11:37:48-216]feed
[11:37:48-216]device:9100334 csq:6 net:1 server:1, relay:1
[11:37:48-715]feed
[11:37:49-197]read each start
[11:37:49-197]Rw:  len=8, data=01 03 00 00 00 05 85 c9 
[11:37:49-220]Rr:  len=1, data=feed
[11:37:49-221]device:9100334 csq:6 net:1 server:1, relay:1
[11:37:49-719]feed
[11:37:50-209]
[11:37:50-210]Sensors read rc -2 s -2
[11:37:50-226]feed
[11:37:50-228]device:9100334 csq:6 net:1 server:1, relay:1
[11:37:50-723]feed
[11:37:51-210]Rw:  len=8, data=02 03 00 00 00 03 05 f8 
[11:37:51-230]Rr:  len=1, data=now: 2023-01-feed
[11:37:51-230]device:9100334 csq:6 net:1 server:1, relay:1
[11:37:51-230]18 11:37:46
[11:37:51-729]feed
[11:37:52-225]
[11:37:52-227]Sensors read rc -2 s -2
[11:37:52-237]feed
[11:37:52-239]device:9100334 csq:6 net:1 server:1, relay:1
[11:37:52-724]CSQ: 6
[11:37:52-731]feed
[11:37:53-234]read each end
[11:37:53-234]indicators_values[1].sensor = 20000a24
[11:37:53-236]indicators_values[2].sensor = 20000a94
[11:37:53-732]feed
[11:37:54-241]air blow: err: 10, rst: 3, status: -2
[11:37:54-243]Rw:  len=8, data=fb 03 00 00 00 0a d1 97 
[11:37:54-250]Rr:  len=1, data=now: 2023-01-18 11:37:49
[11:37:54-733]feed
[11:37:55-239]feed
[11:37:55-241]device:9100334 csq:6 net:1 server:1, relay:1
[11:37:55-737]feed
[11:37:56-242]feed
[11:37:56-244]device:9100334 csq:6 net:1 server:1, relay:1
[11:37:56-259]probe u_value = 0
[11:37:56-260]probe u_value = 0
[11:37:56-260]probe u_value = 0
[11:37:56-261]Rw:  len=8, data=01 06 00 0a 00 00 a9 c8 
[11:37:56-741]Rr:  len=1, data=feed
[11:37:57-248]feed
[11:37:57-250]device:9100334 csq:6 net:1 server:1, relay:1
[11:37:57-275]read each start
[11:37:57-277]Rw:  len=8, data=01 03 00 00 00 05 85 c9 
[11:37:57-284]Rr:  len=1, data=now: 2023-01-18 11:37:52
[11:37:57-745]feed
[11:37:58-251]feed
[11:37:58-253]device:9100334 csq:6 net:1 server:1, relay:1
[11:37:58-285]
[11:37:58-286]Sensors read rc -2 s -2
[11:37:58-747]feed
[11:37:59-255]feed
[11:37:59-256]device:9100334 csq:6 net:1 server:1, relay:1
[11:37:59-288]Rw:  len=8, data=02 03 00 00 00 03 05 f8 
[11:37:59-754]Rr:  len=1, data=feed
[11:38:00-260]feed
[11:38:00-261]device:9100334 csq:6 net:1 server:1, relay:1
[11:38:00-303]
[11:38:00-303]Sensors read rc -2 s -2
[11:38:00-305]now: 2023-01-18 11:37:55
[11:38:00-757]feed
[11:38:01-263]feed
[11:38:01-265]device:9100334 csq:6 net:1 server:1, relay:1
[11:38:01-309]read each end
[11:38:01-310]indicators_values[1].sensor = 20000a24
[11:38:01-311]indicators_values[2].sensor = 20000a94
[11:38:01-761]feed
[11:38:02-266]feed
[11:38:02-268]device:9100334 csq:6 net:1 server:1, relay:1
[11:38:02-316]air blow: err: 10, rst: 3, status: -2
[11:38:02-318]Rw:  len=8, data=fb 03 00 00 00 0a d1 97 
[11:38:02-765]Rr:  len=1, data=feed
[11:38:03-272]feed
[11:38:03-273]device:9100334 csq:6 net:1 server:1, relay:1
[11:38:03-326]now: 2023-01-18 11:37:58
[11:38:03-769]feed
[11:38:04-276]feed
[11:38:04-278]device:9100334 csq:6 net:1 server:1, relay:1
[11:38:04-334]probe u_value = 0
[11:38:04-334]probe u_value = 0
[11:38:04-335]probe u_value = 0
[11:38:04-336]Rw:  len=8, data=01 06 00 0a 00 00 a9 c8 
[11:38:04-773]Rr:  len=1, data=feed
[11:38:05-280]feed
[11:38:05-281]device:9100334 csq:6 net:1 server:1, relay:1
[11:38:05-349]read each start
[11:38:05-351]Rw:  len=8, data=01 03 00 00 00 05 85 c9 
[11:38:05-777]Rr:  len=1, data=feed
[11:38:05-858]CSQ: 6
[11:38:06-284]feed
[11:38:06-286]device:9100334 csq:6 net:1 server:1, relay:1
[11:38:06-364]
[11:38:06-364]Sensors read rc -2 s -2
[11:38:06-365]now: 2023-01-18 11:38:01
[11:38:06-781]feed
[11:38:07-287]feed
[11:38:07-287]device:9100334 csq:6 net:1 server:1, relay:1
[11:38:07-363]Rw:  len=8, data=02 03 00 00 00 03 05 f8 
[11:38:07-786]Rr:  len=1, data=feed
[11:38:08-292]feed
[11:38:08-294]device:9100334 csq:6 net:1 server:1, relay:1
[11:38:08-375]
[11:38:08-375]Sensors read rc -2 s -2
[11:38:08-789]feed
[11:38:09-296]feed
[11:38:09-298]device:9100334 csq:6 net:1 server:1, relay:1
[11:38:09-386]read each end
[11:38:09-387]indicators_values[1].sensor = 20000a24
[11:38:09-387]indicators_values[2].sensor = 20000a94
[11:38:09-389]now: 2023-01-18 11:38:04
[11:38:09-793]feed
[11:38:10-299]feed
[11:38:10-301]device:9100334 csq:6 net:1 server:1, relay:1
[11:38:10-391]air blow: err: 10, rst: 3, status: -2
[11:38:10-393]Rw:  len=8, data=fb 03 00 00 00 0a d1 97 
[11:38:10-798]Rr:  len=1, data=feed
[11:38:11-304]feed
[11:38:11-307]device:9100334 csq:6 net:1 server:1, relay:1
[11:38:11-802]feed
[11:38:12-308]feed
[11:38:12-310]device:9100334 csq:6 net:1 server:1, relay:1
[11:38:12-410]probe u_value = 0
[11:38:12-411]probe u_value = 0
[11:38:12-411]probe u_value = 0
[11:38:12-412]Rw:  len=8, data=01 06 00 0a 00 00 a9 c8 
[11:38:12-421]Rr:  len=1, data=now: 2023-01-18 11:38:07
[11:38:12-806]feed
[11:38:13-312]feed
[11:38:13-314]device:9100334 csq:6 net:1 server:1, relay:1
[11:38:13-424]read each start
[11:38:13-426]Rw:  len=8, data=01 03 00 00 00 05 85 c9 
[11:38:13-811]Rr:  len=1, data=feed
[11:38:14-316]feed
[11:38:14-318]device:9100334 csq:6 net:1 server:1, relay:1
[11:38:14-436]
[11:38:14-437]Sensors read rc -2 s -2
[11:38:14-811]feed
[11:38:15-320]feed
[11:38:15-321]device:9100334 csq:6 net:1 server:1, relay:1
[11:38:15-438]Rw:  len=8, data=02 03 00 00 00 03 05 f8 
[11:38:15-450]Rr:  len=1, data=now: 2023-01-18 11:38:10
[11:38:15-818]feed
[11:38:15-988]<Recv>:
[11:38:15-988]id = 18f61111, dlc = 7
[11:38:15-989]04 70 08 84 08 84 08 
[11:38:15-990]power in:cfg=4, VA=216(V), VB=218(V), VC=218(V)
[11:38:16-325]feed
[11:38:16-327]device:9100334 csq:6 net:1 server:1, relay:1
[11:38:16-452]
[11:38:16-453]Sensors read rc -2 s -2
[11:38:16-822]feed
[11:38:17-328]feed
[11:38:17-330]device:9100334 csq:6 net:1 server:1, relay:1
[11:38:17-460]read each end
[11:38:17-460]indicators_values[1].sensor = 20000a24
[11:38:17-462]indicators_values[2].sensor = 20000a94
[11:38:17-826]feed
[11:38:18-333]feed
[11:38:18-334]device:9100334 csq:6 net:1 server:1, relay:1
[11:38:18-468]air blow: err: 10, rst: 3, status: -2
[11:38:18-470]Rw:  len=8, data=fb 03 00 00 00 0a d1 97 
[11:38:18-477]Rr:  len=1, data=now: 2023-01-18 11:38:13
[11:38:18-725]CSQ: 6
[11:38:18-830]feed
[11:38:19-335]feed
[11:38:19-336]device:9100334 csq:6 net:1 server:1, relay:1
[11:38:19-833]feed
[11:38:20-341]feed
[11:38:20-342]device:9100334 csq:6 net:1 server:1, relay:1
[11:38:20-485]probe u_value = 0
[11:38:20-486]probe u_value = 0
[11:38:20-486]probe u_value = 0
[11:38:20-488]Rw:  len=8, data=01 06 00 0a 00 00 a9 c8 
[11:38:20-839]Rr:  len=1, data=feed
[11:38:21-344]feed
[11:38:21-346]device:9100334 csq:6 net:1 server:1, relay:1
[11:38:21-501]read each start
[11:38:21-502]Rw:  len=8, data=01 03 00 00 00 05 85 c9 
[11:38:21-511]Rr:  len=1, data=now: 2023-01-18 11:38:16
[11:38:21-842]feed
[11:38:22-347]feed
[11:38:22-348]device:9100334 csq:6 net:1 server:1, relay:1
[11:38:22-513]
[11:38:22-514]Sensors read rc -2 s -2
[11:38:22-846]feed
[11:38:23-352]feed
[11:38:23-354]device:9100334 csq:6 net:1 server:1, relay:1
[11:38:23-514]Rw:  len=8, data=02 03 00 00 00 03 05 f8 
[11:38:23-851]Rr:  len=1, data=feed
[11:38:24-356]feed
[11:38:24-358]device:9100334 csq:6 net:1 server:1, relay:1
[11:38:24-529]
[11:38:24-529]Sensors read rc -2 s -2
[11:38:24-529]now: 2023-01-18 11:38:19
[11:38:24-854]feed
[11:38:25-361]feed
[11:38:25-362]device:9100334 csq:6 net:1 server:1, relay:1
[11:38:25-534]read each end
[11:38:25-534]indicators_values[1].sensor = 20000a24
[11:38:25-535]indicators_values[2].sensor = 20000a94
[11:38:25-859]feed
[11:38:26-365]feed
[11:38:26-367]device:9100334 csq:6 net:1 server:1, relay:1
[11:38:26-542]air blow: err: 10, rst: 3, status: -2
[11:38:26-544]Rw:  len=8, data=fb 03 00 00 00 0a d1 97 
[11:38:26-864]Rr:  len=1, data=feed
[11:38:27-369]feed
[11:38:27-370]device:9100334 csq:6 net:1 server:1, relay:1
[11:38:27-561]Pw:  len=15, data=00 8a dc 2e 03 40 00 00 22 d0 00 01 00 3f 16 
[11:38:27-561]
[11:38:27-562]now: 2023-01-18 11:38:22
[11:38:27-853]Pr:  len=13, data=00 8a dc 2e 03 40 00 00 22 d1 00 01 00 
[11:38:27-855]Pr:  len=2, data=3e ea 
[11:38:27-867]feed
[11:38:28-373]feed
[11:38:28-375]device:9100334 csq:6 net:1 server:1, relay:1
[11:38:28-560]probe u_value = 0
[11:38:28-560]probe u_value = 0
[11:38:28-561]probe u_value = 0
[11:38:28-562]Rw:  len=8, data=01 06 00 0a 00 00 a9 c8 
[11:38:28-871]Rr:  len=1, data=feed
[11:38:29-377]feed
[11:38:29-379]device:9100334 csq:6 net:1 server:1, relay:1
[11:38:29-575]read each start
[11:38:29-577]Rw:  len=8, data=01 03 00 00 00 05 85 c9 
[11:38:29-873]Rr:  len=1, data=feed
[11:38:30-381]feed
[11:38:30-383]device:9100334 csq:6 net:1 server:1, relay:1
[11:38:30-590]
[11:38:30-590]Sensors read rc -2 s -2
[11:38:30-591]now: 2023-01-18 11:38:25
[11:38:30-880]feed
[11:38:31-385]feed
[11:38:31-386]device:9100334 csq:6 net:1 server:1, relay:1
[11:38:31-589]Rw:  len=8, data=02 03 00 00 00 03 05 f8 
[11:38:31-849]Rr:  len=1, data=CSQ: 6
[11:38:31-883]feed
[11:38:32-389]feed
[11:38:32-391]device:9100334 csq:6 net:1 server:1, relay:1
[11:38:32-603]
[11:38:32-604]Sensors read rc -2 s -2
[11:38:32-888]feed
[11:38:33-393]feed
[11:38:33-394]device:9100334 csq:6 net:1 server:1, relay:1
[11:38:33-614]read each end
[11:38:33-614]indicators_values[1].sensor = 20000a24
[11:38:33-615]indicators_values[2].sensor = 20000a94
[11:38:33-616]now: 2023-01-18 11:38:28
[11:38:33-891]feed
[11:38:34-397]feed
[11:38:34-399]device:9100334 csq:6 net:1 server:1, relay:1
[11:38:34-617]air blow: err: 10, rst: 3, status: -2
[11:38:34-618]Rw:  len=8, data=fb 03 00 00 00 0a d1 97 
[11:38:34-896]Rr:  len=1, data=feed
[11:38:35-401]feed
[11:38:35-403]device:9100334 csq:6 net:1 server:1, relay:1
[11:38:35-899]feed
[11:38:36-406]feed
[11:38:36-408]device:9100334 csq:6 net:1 server:1, relay:1
[11:38:36-636]probe u_value = 0
[11:38:36-637]probe u_value = 0
[11:38:36-637]probe u_value = 0
[11:38:36-638]Rw:  len=8, data=01 06 00 0a 00 00 a9 c8 
[11:38:36-646]Rr:  len=1, data=now: 2023-01-18 11:38:31
[11:38:36-903]feed
[11:38:37-409]feed
[11:38:37-411]device:9100334 csq:6 net:1 server:1, relay:1
[11:38:37-650]read each start
[11:38:37-654]Rw:  len=8, data=01 03 00 00 00 05 85 c9 
[11:38:37-908]Rr:  len=1, data=feed
[11:38:38-414]feed
[11:38:38-416]device:9100334 csq:6 net:1 server:1, relay:1
[11:38:38-662]
[11:38:38-663]Sensors read rc -2 s -2
[11:38:38-911]feed
[11:38:39-418]feed
[11:38:39-420]device:9100334 csq:6 net:1 server:1, relay:1
[11:38:39-665]Rw:  len=8, data=02 03 00 00 00 03 05 f8 
[11:38:39-677]Rr:  len=1, data=now: 2023-01-18 11:38:34
[11:38:39-915]feed
[11:38:40-422]feed
[11:38:40-423]device:9100334 csq:6 net:1 server:1, relay:1
[11:38:40-677]
[11:38:40-677]Sensors read rc -2 s -2
[11:38:40-919]feed
[11:38:41-426]feed
[11:38:41-428]device:9100334 csq:6 net:1 server:1, relay:1
[11:38:41-688]read each end
[11:38:41-688]indicators_values[1].sensor = 20000a24
[11:38:41-689]indicators_values[2].sensor = 20000a94
[11:38:41-924]feed
[11:38:42-430]feed
[11:38:42-432]device:9100334 csq:6 net:1 server:1, relay:1
[11:38:42-694]air blow: err: 10, rst: 3, status: -2
[11:38:42-696]Rw:  len=8, data=fb 03 00 00 00 0a d1 97 
[11:38:42-704]Rr:  len=1, data=now: 2023-01-18 11:38:37
[11:38:42-927]feed
[11:38:43-434]feed
[11:38:43-436]device:9100334 csq:6 net:1 server:1, relay:1
[11:38:43-932]feed
[11:38:44-438]feed
[11:38:44-439]device:9100334 csq:6 net:1 server:1, relay:1
[11:38:44-712]probe u_value = 0
[11:38:44-713]probe u_value = 0
[11:38:44-713]probe u_value = 0
[11:38:44-714]Rw:  len=8, data=01 06 00 0a 00 00 a9 c8 
[11:38:44-721]Rr:  len=1, data=CSQ: 6
[11:38:44-934]feed
[11:38:45-442]feed
[11:38:45-444]device:9100334 csq:6 net:1 server:1, relay:1
[11:38:45-726]read each start
[11:38:45-728]Rw:  len=8, data=01 03 00 00 00 05 85 c9 
[11:38:45-736]Rr:  len=1, data=now: 2023-01-18 11:38:40
[11:38:45-939]feed
[11:38:45-993]<Recv>:
[11:38:45-993]id = 18f61111, dlc = 7
[11:38:45-993]04 70 08 84 08 84 08 
[11:38:45-993]power in:cfg=4, VA=216(V), VB=218(V), VC=218(V)
[11:38:46-446]feed
[11:38:46-448]device:9100334 csq:6 net:1 server:1, relay:1
[11:38:46-739]
[11:38:46-740]Sensors read rc -2 s -2
[11:38:46-943]feed
[11:38:47-448]feed
[11:38:47-454]device:9100334 csq:6 net:1 server:1, relay:1
[11:38:47-740]Rw:  len=8, data=02 03 00 00 00 03 05 f8 
[11:38:47-948]Rr:  len=1, data=feed
[11:38:48-454]feed
[11:38:48-456]device:9100334 csq:6 net:1 server:1, relay:1
[11:38:48-756]
[11:38:48-757]Sensors read rc -2 s -2
[11:38:48-758]now: 2023-01-18 11:38:43
[11:38:48-951]feed
[11:38:49-459]feed
[11:38:49-461]device:9100334 csq:6 net:1 server:1, relay:1
[11:38:49-762]read each end
[11:38:49-763]indicators_values[1].sensor = 20000a24
[11:38:49-764]indicators_values[2].sensor = 20000a94
[11:38:49-955]feed
[11:38:50-462]feed
[11:38:50-464]device:9100334 csq:6 net:1 server:1, relay:1
[11:38:50-769]air blow: err: 10, rst: 3, status: -2
[11:38:50-771]Rw:  len=8, data=fb 03 00 00 00 0a d1 97 
[11:38:50-961]Rr:  len=1, data=feed
[11:38:51-468]feed
[11:38:51-470]device:9100334 csq:6 net:1 server:1, relay:1
[11:38:51-779]now: 2023-01-18 11:38:46
[11:38:51-965]feed
[11:38:52-471]feed
[11:38:52-472]device:9100334 csq:6 net:1 server:1, relay:1
[11:38:52-788]probe u_value = 0
[11:38:52-788]probe u_value = 0
[11:38:52-789]probe u_value = 0
[11:38:52-790]Rw:  len=8, data=01 06 00 0a 00 00 a9 c8 
[11:38:52-972]Rr:  len=1, data=feed
[11:38:53-474]feed
[11:38:53-476]device:9100334 csq:6 net:1 server:1, relay:1
[11:38:53-802]read each start
[11:38:53-804]Rw:  len=8, data=01 03 00 00 00 05 85 c9 
[11:38:53-973]Rr:  len=1, data=feed
[11:38:54-480]feed
[11:38:54-482]device:9100334 csq:6 net:1 server:1, relay:1
[11:38:54-817]
[11:38:54-817]Sensors read rc -2 s -2
[11:38:54-818]now: 2023-01-18 11:38:49
[11:38:54-977]feed
[11:38:55-483]feed
[11:38:55-485]device:9100334 csq:6 net:1 server:1, relay:1
[11:38:55-814]Rw:  len=8, data=02 03 00 00 00 03 05 f8 
[11:38:55-981]Rr:  len=1, data=feed
[11:38:56-488]feed
[11:38:56-490]device:9100334 csq:6 net:1 server:1, relay:1
[11:38:56-828]
[11:38:56-828]Sensors read rc -2 s -2
[11:38:56-987]feed
[11:38:57-491]feed
[11:38:57-493]device:9100334 csq:6 net:1 server:1, relay:1
[11:38:57-833]read each end
[11:38:57-833]indicators_values[1].sensor = 20000a24
[11:38:57-833]indicators_values[2].sensor = 20000a94
[11:38:57-834]CSQ: 6
[11:38:57-838]now: 2023-01-18 11:38:52
[11:38:57-990]feed
[11:38:58-495]feed
[11:38:58-497]device:9100334 csq:6 net:1 server:1, relay:1
[11:38:58-844]air blow: err: 10, rst: 3, status: -2
[11:38:58-846]Rw:  len=8, data=fb 03 00 00 00 0a d1 97 
[11:38:58-992]Rr:  len=1, data=feed
[11:38:59-501]feed
[11:38:59-502]device:9100334 csq:6 net:1 server:1, relay:1
[11:38:59-996]feed
[11:39:00-502]feed
[11:39:00-503]device:9100334 csq:6 net:1 server:1, relay:1
[11:39:00-863]probe u_value = 0
[11:39:00-863]probe u_value = 0
[11:39:00-864]probe u_value = 0
[11:39:00-865]Rw:  len=8, data=01 06 00 0a 00 00 a9 c8 
[11:39:00-873]Rr:  len=1, data=now: 2023-01-18 11:38:55
[11:39:01-002]feed
[11:39:01-507]feed
[11:39:01-509]device:9100334 csq:6 net:1 server:1, relay:1
[11:39:01-878]read each start
[11:39:01-880]Rw:  len=8, data=01 03 00 00 00 05 85 c9 
[11:39:02-007]Rr:  len=1, data=feed
[11:39:02-512]feed
[11:39:02-514]device:9100334 csq:6 net:1 server:1, relay:1
[11:39:02-889]
[11:39:02-891]Sensors read rc -2 s -2
[11:39:03-008]feed
[11:39:03-516]feed
[11:39:03-518]device:9100334 csq:6 net:1 server:1, relay:1
[11:39:03-891]Rw:  len=8, data=02 03 00 00 00 03 05 f8 
[11:39:03-904]Rr:  len=1, data=now: 2023-01-18 11:38:58
[11:39:04-014]feed
[11:39:04-521]feed
[11:39:04-522]device:9100334 csq:6 net:1 server:1, relay:1
[11:39:04-904]
[11:39:04-905]Sensors read rc -2 s -2
[11:39:05-017]feed
[11:39:05-524]feed
[11:39:05-526]device:9100334 csq:6 net:1 server:1, relay:1
[11:39:05-913]read each end
[11:39:05-913]indicators_values[1].sensor = 20000a24
[11:39:05-915]indicators_values[2].sensor = 20000a94
[11:39:06-022]feed
[11:39:06-528]feed
[11:39:06-530]device:9100334 csq:6 net:1 server:1, relay:1
[11:39:06-920]air blow: err: 10, rst: 3, status: -2
[11:39:06-922]Rw:  len=8, data=fb 03 00 00 00 0a d1 97 
[11:39:06-930]Rr:  len=1, data=now: 2023-01-18 11:39:01
[11:39:07-026]feed
[11:39:07-532]feed
[11:39:07-532]device:9100334 csq:6 net:1 server:1, relay:1
[11:39:08-029]feed
[11:39:08-536]feed
[11:39:08-538]device:9100334 csq:6 net:1 server:1, relay:1
[11:39:08-939]probe u_value = 0
[11:39:08-939]probe u_value = 0
[11:39:08-940]probe u_value = 0
[11:39:08-941]Rw:  len=8, data=01 06 00 0a 00 00 a9 c8 
[11:39:09-035]Rr:  len=1, data=feed
[11:39:09-540]feed
[11:39:09-542]device:9100334 csq:6 net:1 server:1, relay:1
[11:39:09-953]read each start
[11:39:09-955]Rw:  len=8, data=01 03 00 00 00 05 85 c9 
[11:39:09-963]Rr:  len=1, data=now: 2023-01-18 11:39:04
[11:39:10-038]feed
[11:39:10-544]feed
[11:39:10-545]device:9100334 csq:6 net:1 server:1, relay:1
[11:39:10-710]CSQ: 6
[11:39:10-965]
[11:39:10-966]Sensors read rc -2 s -2
[11:39:11-042]feed
[11:39:11-548]feed
[11:39:11-550]device:9100334 csq:6 net:1 server:1, relay:1
[11:39:11-966]Rw:  len=8, data=02 03 00 00 00 03 05 f8 
[11:39:12-046]Rr:  len=1, data=feed
[11:39:12-552]feed
[11:39:12-554]device:9100334 csq:6 net:1 server:1, relay:1
[11:39:12-983]
[11:39:12-983]Sensors read rc -2 s -2
[11:39:12-984]now: 2023-01-18 11:39:07
[11:39:13-050]feed
[11:39:13-557]feed
[11:39:13-558]device:9100334 csq:6 net:1 server:1, relay:1
[11:39:13-988]read each end
[11:39:13-988]indicators_values[1].sensor = 20000a24
[11:39:13-988]indicators_values[2].sensor = 20000a94
[11:39:14-053]feed
[11:39:14-561]feed
[11:39:14-563]device:9100334 csq:6 net:1 server:1, relay:1
[11:39:14-992]air blow: err: 10, rst: 3, status: -2
[11:39:14-995]Rw:  len=8, data=fb 03 00 00 00 0a d1 97 
[11:39:15-057]Rr:  len=1, data=feed
[11:39:15-564]feed
[11:39:15-566]device:9100334 csq:6 net:1 server:1, relay:1
[11:39:16-002]<Recv>:
[11:39:16-002]id = 18f61111, dlc = 7
[11:39:16-003]04 70 08 84 08 84 08 
[11:39:16-004]power in:cfg=4, VA=216(V), VB=218(V), VC=218(V)
[11:39:16-011]now: 2023-01-18 11:39:11
[11:39:16-062]feed
[11:39:16-570]feed
[11:39:16-571]device:9100334 csq:6 net:1 server:1, relay:1
[11:39:17-014]probe u_value = 0
[11:39:17-014]probe u_value = 0
[11:39:17-015]probe u_value = 0
[11:39:17-016]Rw:  len=8, data=01 06 00 0a 00 00 a9 c8 
[11:39:17-066]Rr:  len=1, data=feed
[11:39:17-573]feed
[11:39:17-575]device:9100334 csq:6 net:1 server:1, relay:1
[11:39:18-028]read each start
[11:39:18-030]Rw:  len=8, data=01 03 00 00 00 05 85 c9 
[11:39:18-070]Rr:  len=1, data=feed
[11:39:18-576]feed
[11:39:18-579]device:9100334 csq:6 net:1 server:1, relay:1
[11:39:19-043]
[11:39:19-043]Sensors read rc -2 s -2
[11:39:19-044]now: 2023-01-18 11:39:14
[11:39:19-075]feed
[11:39:19-580]feed
[11:39:19-582]device:9100334 csq:6 net:1 server:1, relay:1
[11:39:20-041]Rw:  len=8, data=02 03 00 00 00 03 05 f8 
[11:39:20-080]Rr:  len=1, data=feed
[11:39:20-585]feed
[11:39:20-587]device:9100334 csq:6 net:1 server:1, relay:1
[11:39:21-054]
[11:39:21-054]Sensors read rc -2 s -2
[11:39:21-081]feed
[11:39:21-589]feed
[11:39:21-591]device:9100334 csq:6 net:1 server:1, relay:1
[11:39:22-066]read each end
[11:39:22-066]indicators_values[1].sensor = 20000a24
[11:39:22-067]indicators_values[2].sensor = 20000a94
[11:39:22-068]now: 2023-01-18 11:39:17
[11:39:22-087]feed
[11:39:22-592]feed
[11:39:22-593]device:9100334 csq:6 net:1 server:1, relay:1
[11:39:23-071]air blow: err: 10, rst: 3, status: -2
[11:39:23-073]Rw:  len=8, data=fb 03 00 00 00 0a d1 97 
[11:39:23-091]Rr:  len=1, data=feed
[11:39:23-595]feed
[11:39:23-595]device:9100334 csq:6 net:1 server:1, relay:1
[11:39:23-829]CSQ: 6
[11:39:24-095]feed
[11:39:24-601]feed
[11:39:24-603]device:9100334 csq:6 net:1 server:1, relay:1
[11:39:25-090]probe u_value = 0
[11:39:25-090]probe u_value = 0
[11:39:25-090]probe u_value = 0
[11:39:25-090]Rw:  len=8, data=01 06 00 0a 00 00 a9 c8 
[11:39:25-099]Rr:  len=1, data=now: 2023-01-18 11:39:20
[11:39:25-606]feed
[11:39:25-607]device:9100334 csq:6 net:1 server:1, relay:1
[11:39:26-104]read each start
[11:39:26-104]Rw:  len=8, data=01 03 00 00 00 05 85 c9 
[11:39:26-106]feed
[11:39:26-607]Rr:  len=1, data=feed
[11:39:26-610]device:9100334 csq:6 net:1 server:1, relay:1
[11:39:27-108]feed
[11:39:27-116]
[11:39:27-117]Sensors read rc -2 s -2
[11:39:27-373]Pw:  len=16, data=00 8a dc 2e 03 40 00 00 21 d0 00 01 01 06 d7 b1 
[11:39:27-374]
[11:39:27-481]AHT20 read
[11:39:27-483]AHT20: status: -1, temperature: 0.000000 humidity:0.000000
[11:39:27-591]Pw:  len=33, data=00 8a dc 2e 03 40 00 00 27 d0 00 01 12 1f e0 08 70 08 84 08 84 00 00 00 00 00 00 00 03 00 01 0d ce 
[11:39:27-592]
[11:39:27-614]feed
[11:39:27-615]device:9100334 csq:6 net:1 server:1, relay:1
[11:39:27-700]Pw:  len=18, data=00 8a dc 2e 03 40 00 00 26 d0 00 01 03 01 00 00 6e 1b 
[11:39:27-700]
[11:39:28-118]feed
[11:39:28-122]Rw:  len=8, data=02 03 00 00 00 03 05 f8 
[11:39:28-129]Rr:  len=1, data=now: 2023-01-18 11:39:23
[11:39:28-616]feed
[11:39:28-616]device:9100334 csq:6 net:1 server:1, relay:1
[11:39:29-115]feed
[11:39:29-131]
[11:39:29-132]Sensors read rc -2 s -2
[11:39:29-622]feed
[11:39:29-623]device:9100334 csq:6 net:1 server:1, relay:1
[11:39:30-119]feed
[11:39:30-139]read each end
[11:39:30-140]indicators_values[1].sensor = 20000a24
[11:39:30-141]indicators_values[2].sensor = 20000a94
[11:39:30-626]feed
[11:39:30-628]device:9100334 csq:6 net:1 server:1, relay:1
[11:39:31-122]feed
[11:39:31-146]air blow: err: 10, rst: 3, status: -2
[11:39:31-147]Rw:  len=8, data=fb 03 00 00 00 0a d1 97 
[11:39:31-156]Rr:  len=1, data=now: 2023-01-18 11:39:26
[11:39:31-630]feed
[11:39:31-632]device:9100334 csq:6 net:1 server:1, relay:1
[11:39:32-126]feed
[11:39:32-632]feed
[11:39:32-633]device:9100334 csq:6 net:1 server:1, relay:1
[11:39:33-132]feed
[11:39:33-162]probe u_value = 0
[11:39:33-162]probe u_value = 0
[11:39:33-164]probe u_value = 0
[11:39:33-174]Pw:  len=48, data=00 8a dc 2e 03 40 00 00 13 d0 00 01 21 01 17 01 12 0b 27 1c 00 00 00 00 00 00 e0 00 00 00 00 00 e0 00 00 00 00 00 e0 00 00 00 00 00 e0 00 85 0b 
[11:39:33-189]
[11:39:33-191]Rw:  len=8, data=01 06 00 0a 00 00 a9 c8 
[11:39:33-637]Rr:  len=1, data=feed
[11:39:33-639]device:9100334 csq:6 net:1 server:1, relay:1
[11:39:34-137]feed
[11:39:34-199]read each start
[11:39:34-201]Rw:  len=8, data=01 03 00 00 00 05 85 c9 
[11:39:34-210]Rr:  len=1, data=now: 2023-01-18 11:39:29
[11:39:34-642]feed
[11:39:34-644]device:9100334 csq:6 net:1 server:1, relay:1
[11:39:35-139]feed
[11:39:35-212]
[11:39:35-213]Sensors read rc -2 s -2
[11:39:35-646]feed
[11:39:35-648]device:9100334 csq:6 net:1 server:1, relay:1
[11:39:36-145]feed
[11:39:36-213]Rw:  len=8, data=02 03 00 00 00 03 05 f8 
[11:39:36-649]Rr:  len=1, data=feed
[11:39:36-650]device:9100334 csq:6 net:1 server:1, relay:1
[11:39:36-724]CSQ: 6
[11:39:37-147]feed
[11:39:37-228]
[11:39:37-228]Sensors read rc -2 s -2
[11:39:37-230]now: 2023-01-18 11:39:32
[11:39:37-653]feed
[11:39:37-653]device:9100334 csq:6 net:1 server:1, relay:1
[11:39:38-152]feed
[11:39:38-234]read each end
[11:39:38-236]indicators_values[1].sensor = 20000a24
[11:39:38-237]indicators_values[2].sensor = 20000a94
[11:39:38-659]feed
[11:39:38-660]device:9100334 csq:6 net:1 server:1, relay:1
[11:39:39-156]feed
[11:39:39-252]Pw:  len=67, data=00 8a dc 2e 03 40 00 00 16 d0 00 01 34 21 01 e0 00 00 00 00 00 00 00 44 4f 2d 59 31 30 32 00 00 00 0c 1f 01 00 00 00 00 00 00 00 00 00 00 00 50 48 2d 32 30 31 00 00 00 00 0c 81 02 00 00 00 00 00 4a a5 
[11:39:39-269]
[11:39:39-269]air blow: err: 10, rst: 3, status: -2
[11:39:39-270]Rw:  len=8, data=fb 03 00 00 00 0a d1 97 
[11:39:39-661]Rr:  len=1, data=feed
[11:39:39-662]device:9100334 csq:6 net:1 server:1, relay:1
[11:39:40-160]feed
[11:39:40-278]now: 2023-01-18 11:39:35
[11:39:40-667]feed
[11:39:40-669]device:9100334 csq:6 net:1 server:1, relay:1
[11:39:41-163]feed
[11:39:41-286]probe u_value = 0
[11:39:41-286]probe u_value = 0
[11:39:41-287]probe u_value = 0
[11:39:41-288]Rw:  len=8, data=01 06 00 0a 00 00 a9 c8 
[11:39:41-675]Rr:  len=1, data=feed
[11:39:41-675]device:9100334 csq:6 net:1 server:1, relay:1
[11:39:42-168]feed
[11:39:42-301]read each start
[11:39:42-303]Rw:  len=8, data=01 03 00 00 00 05 85 c9 
[11:39:42-675]Rr:  len=1, data=feed
[11:39:42-676]device:9100334 csq:6 net:1 server:1, relay:1
[11:39:43-173]feed
[11:39:43-316]
[11:39:43-316]Sensors read rc -2 s -2
[11:39:43-317]now: 2023-01-18 11:39:38
[11:39:43-678]feed
[11:39:43-680]device:9100334 csq:6 net:1 server:1, relay:1
[11:39:44-176]feed
[11:39:44-315]Rw:  len=8, data=02 03 00 00 00 03 05 f8 
[11:39:44-683]Rr:  len=1, data=feed
[11:39:44-685]device:9100334 csq:6 net:1 server:1, relay:1
[11:39:45-181]feed
[11:39:45-327]
[11:39:45-328]Sensors read rc -2 s -2
[11:39:45-687]feed
[11:39:45-689]device:9100334 csq:6 net:1 server:1, relay:1
[11:39:46-011]<Recv>:
[11:39:46-011]id = 18f61111, dlc = 7
[11:39:46-012]04 70 08 84 08 84 08 
[11:39:46-013]power in:cfg=4, VA=216(V), VB=218(V), VC=218(V)
[11:39:46-184]feed
[11:39:46-338]read each end
[11:39:46-338]indicators_values[1].sensor = 20000a24
[11:39:46-339]indicators_values[2].sensor = 20000a94
[11:39:46-340]now: 2023-01-18 11:39:41
[11:39:46-690]feed
[11:39:46-692]device:9100334 csq:6 net:1 server:1, relay:1
[11:39:47-186]feed
[11:39:47-343]air blow: err: 10, rst: 3, status: -2
[11:39:47-345]Rw:  len=8, data=fb 03 00 00 00 0a d1 97 
[11:39:47-695]Rr:  len=1, data=feed
[11:39:47-696]device:9100334 csq:6 net:1 server:1, relay:1
[11:39:48-193]feed
[11:39:48-699]feed
[11:39:48-701]device:9100334 csq:6 net:1 server:1, relay:1
[11:39:49-196]feed
[11:39:49-360]probe u_value = 0
[11:39:49-360]probe u_value = 0
[11:39:49-360]probe u_value = 0
[11:39:49-360]Rw:  len=8, data=01 06 00 0a 00 00 a9 c8 
[11:39:49-369]Rr:  len=1, data=now: 2023-01-18 11:39:44
[11:39:49-619]CSQ: 21
[11:39:49-704]feed
[11:39:49-706]device:9100334 csq:21 net:1 server:1, relay:1
[11:39:50-200]feed
[11:39:50-377]read each start
[11:39:50-379]Rw:  len=8, data=01 03 00 00 00 05 85 c9 
[11:39:50-708]Rr:  len=1, data=feed
[11:39:50-710]device:9100334 csq:21 net:1 server:1, relay:1
[11:39:51-204]feed
[11:39:51-388]
[11:39:51-389]Sensors read rc -2 s -2
[11:39:51-710]feed
[11:39:51-712]device:9100334 csq:21 net:1 server:1, relay:1
[11:39:52-209]feed
[11:39:52-390]Rw:  len=8, data=02 03 00 00 00 03 05 f8 
[11:39:52-402]Rr:  len=1, data=now: 2023-01-18 11:39:47
[11:39:52-715]feed
[11:39:52-716]device:9100334 csq:21 net:1 server:1, relay:1
[11:39:53-212]feed
[11:39:53-404]
[11:39:53-406]Sensors read rc -2 s -2
[11:39:53-719]feed
[11:39:53-721]device:9100334 csq:21 net:1 server:1, relay:1
[11:39:54-216]feed
[11:39:54-412]read each end
[11:39:54-412]indicators_values[1].sensor = 20000a24
[11:39:54-413]indicators_values[2].sensor = 20000a94
[11:39:54-721]feed
[11:39:54-722]device:9100334 csq:21 net:1 server:1, relay:1
[11:39:55-221]feed
[11:39:55-419]air blow: err: 10, rst: 3, status: -2
[11:39:55-421]Rw:  len=8, data=fb 03 00 00 00 0a d1 97 
[11:39:55-429]Rr:  len=1, data=now: 2023-01-18 11:39:50
[11:39:55-725]feed
[11:39:55-725]device:9100334 csq:21 net:1 server:1, relay:1
[11:39:56-224]feed
[11:39:56-731]feed
[11:39:56-733]device:9100334 csq:21 net:1 server:1, relay:1
[11:39:57-228]feed
[11:39:57-437]probe u_value = 0
[11:39:57-437]probe u_value = 0
[11:39:57-437]probe u_value = 0
[11:39:57-439]Rw:  len=8, data=01 06 00 0a 00 00 a9 c8 
[11:39:57-736]Rr:  len=1, data=feed
[11:39:57-738]device:9100334 csq:21 net:1 server:1, relay:1
[11:39:58-234]feed
[11:39:58-452]read each start
[11:39:58-454]Rw:  len=8, data=01 03 00 00 00 05 85 c9 
[11:39:58-462]Rr:  len=1, data=now: 2023-01-18 11:39:53
[11:39:58-739]feed
[11:39:58-741]device:9100334 csq:21 net:1 server:1, relay:1
[11:39:59-237]feed
[11:39:59-464]
[11:39:59-465]Sensors read rc -2 s -2
[11:45:26-047]feed
[11:45:26-047]Log level: TRACE
[11:45:26-048]<Jan  5 2023-17:59:57> boot file <BOOT_V1.0.0> at 08000400
[11:45:26-048]APP file exist
[11:45:26-048]Factory file exist
[11:45:26-064]BOOT_V1.0.0
[11:45:26-064]eeprom read: 4094 page
[11:45:26-065]00 00 00 00 00 00 00 00 01 01 00 00 00 00 02 00 ff ff ff ff 00 00 00 00 00 00 00 00 00 00 70 30 
[11:45:26-077]eeprom read: 4095 page
[11:45:26-077]00 00 00 00 00 00 00 00 01 02 00 01 00 00 02 00 ff ff ff ff 00 00 00 00 00 00 00 00 00 00 7e ff 
[11:45:26-082]waiting for check app info ... ...
[11:45:26-101]PN_CODE:Y-515
[11:45:26-101][ERROR:24]:download data not finish
[11:45:26-102]Ready Jump to App,AppAddress:8010000
[11:45:26-129]Log level: NONE
[11:45:26-129]
[11:45:26-129] _______   _____    _____ 
[11:45:26-129]|__  /\ \ / /_ _|__|_   _|
[11:45:26-129]  / /  \ V / | |/ _ \| |
[11:45:26-130] / /_   | |  | | (_) | |
[11:45:26-141]/____|  |_| |___\___/|_|
[11:45:26-141]
[11:45:26-141]http://www.zytdwl.cn
[11:45:26-141]
[11:45:26-142]3G online device <Y-515_APP_V1.0.0> at 08010400
[11:45:26-147]compiler at <Jan 13 2023-17:23:11>
[11:45:26-167]eeprom read: 8 page
[11:45:26-167]2e dc 8a 00 00 00 00 00 00 01 00 00 00 00 00 00 00 00 00 00 00 00 00 00 00 00 00 00 00 00 b0 fa 
[11:45:26-182]system load rc: 0
[11:45:26-182]eeprom read: 9 page
[11:45:26-194]01 00 00 00 00 00 00 00 00 00 00 00 00 00 00 00 00 00 00 00 00 00 00 00 00 00 00 00 00 00 ff 1f 
[11:45:26-194]device_enable load rc: 0
[11:45:26-194]eeprom read: 10 page
[11:45:26-206]01 00 00 00 00 00 00 00 00 00 00 00 00 00 00 00 00 00 00 00 00 00 00 00 00 00 00 00 00 00 ff 1f 
[11:45:26-206]device_connect load rc: 0
[11:45:26-207]eeprom read: 32 page
[11:45:26-221]00 00 00 00 00 00 00 00 00 00 00 00 00 00 00 00 00 00 00 00 00 00 00 00 00 00 00 00 00 00 fe 4f 
[11:45:26-221]probe_enable load rc: 0
[11:45:26-222]eeprom read: 40 page
[11:45:26-234]00 00 00 00 00 00 00 00 00 00 00 00 00 00 00 00 00 00 00 00 00 00 00 00 00 00 00 00 00 00 fe 4f 
[11:45:26-234]pump_status load rc: 0
[11:45:26-234]eeprom read: 56 page
[11:45:26-250]01 01 00 00 02 00 00 00 00 00 00 00 00 00 00 00 00 00 00 00 00 00 00 00 00 00 00 00 00 00 cc a1 
[11:45:26-250]eeprom read: 57 page
[11:45:26-263]01 01 00 00 02 00 00 00 00 00 00 00 00 00 00 00 00 00 00 00 00 00 00 00 00 00 00 00 00 00 cc a1 
[11:45:26-264]eeprom read: 58 page
[11:45:26-275]01 01 00 00 01 00 00 00 00 00 00 00 00 00 00 00 00 00 00 00 00 00 00 00 00 00 00 00 00 00 c7 e1 
[11:45:26-275]sensor load rc: 0
[11:45:26-276]eeprom read: 312 page
[11:45:26-291]00 00 00 00 00 00 00 00 00 00 00 00 00 00 00 00 00 00 00 00 00 00 00 00 00 00 00 00 00 00 fe 4f 
[11:45:26-291]eeprom read: 313 page
[11:45:26-304]00 00 00 00 00 00 00 00 00 00 00 00 00 00 00 00 00 00 00 00 00 00 00 00 00 00 00 00 00 00 fe 4f 
[11:45:26-305]eeprom read: 314 page
[11:45:26-317]00 00 00 00 00 00 00 00 00 00 00 00 00 00 00 00 00 00 00 00 00 00 00 00 00 00 00 00 00 00 fe 4f 
[11:45:26-317]eeprom read: 315 page
[11:45:26-330]00 00 00 00 00 00 00 00 00 00 00 00 00 00 00 00 00 00 00 00 00 00 00 00 00 00 00 00 00 00 fe 4f 
[11:45:26-331]eeprom read: 316 page
[11:45:26-346]00 00 00 00 00 00 00 00 00 00 00 00 00 00 00 00 00 00 00 00 00 00 00 00 00 00 00 00 00 00 fe 4f 
[11:45:26-347]eeprom read: 317 page
[11:45:26-359]00 00 00 00 00 00 00 00 00 00 00 00 00 00 00 00 00 00 00 00 00 00 00 00 00 00 00 00 00 00 fe 4f 
[11:45:26-360]eeprom read: 318 page
[11:45:26-372]00 00 00 00 00 00 00 00 00 00 00 00 00 00 00 00 00 00 00 00 00 00 00 00 00 00 00 00 00 00 fe 4f 
[11:45:26-372]eeprom read: 319 page
[11:45:26-384]00 00 00 00 00 00 00 00 00 00 00 00 00 00 00 00 00 00 00 00 00 00 00 00 00 00 00 00 00 00 fe 4f 
[11:45:26-384]compensation load rc: 0
[11:45:26-385]eeprom read: 448 page
[11:45:26-400]00 00 00 00 00 00 00 00 00 00 00 00 00 00 00 00 00 00 00 00 00 00 00 00 00 00 00 00 00 00 fe 4f 
[11:45:26-401]eeprom read: 449 page
[11:45:26-413]00 00 00 00 00 00 00 00 00 00 00 00 00 00 00 00 00 00 00 00 00 00 00 00 00 00 00 00 00 00 fe 4f 
[11:45:26-413]eeprom read: 450 page
[11:45:26-426]00 00 00 00 00 00 00 00 00 00 00 00 00 00 00 00 00 00 00 00 00 00 00 00 00 00 00 00 00 00 fe 4f 
[11:45:26-426]eeprom read: 451 page
[11:45:26-439]00 00 00 00 00 00 00 00 00 00 00 00 00 00 00 00 00 00 00 00 00 00 00 00 00 00 00 00 00 00 fe 4f 
[11:45:26-440]eeprom read: 452 page
[11:45:26-455]00 00 00 00 00 00 00 00 00 00 00 00 00 00 00 00 00 00 00 00 00 00 00 00 00 00 00 00 00 00 fe 4f 
[11:45:26-456]eeprom read: 453 page
[11:45:26-468]00 00 00 00 00 00 00 00 00 00 00 00 00 00 00 00 00 00 00 00 00 00 00 00 00 00 00 00 00 00 fe 4f 
[11:45:26-469]eeprom read: 454 page
[11:45:26-469]00 00 00 00 00 00 00 00 00 00 00 00 00 00 00 00 00 00 00 00 00 00 00 00 00 00 00 00 00 00 fe 4f 
[11:45:26-481]eeprom read: 455 page
[11:45:26-482]00 00 00 00 00 00 00 00 00 00 00 00 00 00 00 00 00 00 00 00 00 00 00 00 00 00 00 00 00 00 fe 4f 
[11:45:26-494]indicator_alert load rc: 0
[11:45:26-494]eeprom read: 704 page
[11:45:26-510]00 00 00 00 00 00 00 00 00 00 00 00 00 00 00 00 00 00 00 00 00 00 00 00 00 00 00 00 00 00 fe 4f 
[11:45:26-511]eeprom read: 705 page
[11:45:26-523]00 00 00 00 00 00 00 00 00 00 00 00 00 00 00 00 00 00 00 00 00 00 00 00 00 00 00 00 00 00 fe 4f 
[11:45:26-523]eeprom read: 706 page
[11:45:26-523]00 00 00 00 00 00 00 00 00 00 00 00 00 00 00 00 00 00 00 00 00 00 00 00 00 00 00 00 00 00 fe 4f 
[11:45:26-535]eeprom read: 707 page
[11:45:26-536]00 00 00 00 00 00 00 00 00 00 00 00 00 00 00 00 00 00 00 00 00 00 00 00 00 00 00 00 00 00 fe 4f 
[11:45:26-548]eeprom read: 708 page
[11:45:26-549]00 00 00 00 00 00 00 00 00 00 00 00 00 00 00 00 00 00 00 00 00 00 00 00 00 00 00 00 00 00 fe 4f 
[11:45:26-565]eeprom read: 709 page
[11:45:26-565]00 00 00 00 00 00 00 00 00 00 00 00 00 00 00 00 00 00 00 00 00 00 00 00 00 00 00 00 00 00 fe 4f 
[11:45:26-566]eeprom read: 710 page
[11:45:26-578]00 00 00 00 00 00 00 00 00 00 00 00 00 00 00 00 00 00 00 00 00 00 00 00 00 00 00 00 00 00 fe 4f 
[11:45:26-579]eeprom read: 711 page
[11:45:26-591]00 00 00 00 00 00 00 00 00 00 00 00 00 00 00 00 00 00 00 00 00 00 00 00 00 00 00 00 00 00 fe 4f 
[11:45:26-592]eeprom read: 712 page
[11:45:26-605]00 00 00 00 00 00 00 00 00 00 00 00 00 00 00 00 00 00 00 00 00 00 00 00 00 00 00 00 00 00 fe 4f 
[11:45:26-606]eeprom read: 713 page
[11:45:26-618]00 00 00 00 00 00 00 00 00 00 00 00 00 00 00 00 00 00 00 00 00 00 00 00 00 00 00 00 00 00 fe 4f 
[11:45:26-618]eeprom read: 714 page
[11:45:26-633]00 00 00 00 00 00 00 00 00 00 00 00 00 00 00 00 00 00 00 00 00 00 00 00 00 00 00 00 00 00 fe 4f 
[11:45:26-634]eeprom read: 715 page
[11:45:26-646]00 00 00 00 00 00 00 00 00 00 00 00 00 00 00 00 00 00 00 00 00 00 00 00 00 00 00 00 00 00 fe 4f 
[11:45:26-647]eeprom read: 716 page
[11:45:26-660]00 00 00 00 00 00 00 00 00 00 00 00 00 00 00 00 00 00 00 00 00 00 00 00 00 00 00 00 00 00 fe 4f 
[11:45:26-660]eeprom read: 717 page
[11:45:26-673]00 00 00 00 00 00 00 00 00 00 00 00 00 00 00 00 00 00 00 00 00 00 00 00 00 00 00 00 00 00 fe 4f 
[11:45:26-674]eeprom read: 718 page
[11:45:26-689]00 00 00 00 00 00 00 00 00 00 00 00 00 00 00 00 00 00 00 00 00 00 00 00 00 00 00 00 00 00 fe 4f 
[11:45:26-689]eeprom read: 719 page
[11:45:26-702]00 00 00 00 00 00 00 00 00 00 00 00 00 00 00 00 00 00 00 00 00 00 00 00 00 00 00 00 00 00 fe 4f 
[11:45:26-703]eeprom read: 720 page
[11:45:26-714]00 00 00 00 00 00 00 00 00 00 00 00 00 00 00 00 00 00 00 00 00 00 00 00 00 00 00 00 00 00 fe 4f 
[11:45:26-715]eeprom read: 721 page
[11:45:26-728]00 00 00 00 00 00 00 00 00 00 00 00 00 00 00 00 00 00 00 00 00 00 00 00 00 00 00 00 00 00 fe 4f 
[11:45:26-728]eeprom read: 722 page
[11:45:26-740]00 00 00 00 00 00 00 00 00 00 00 00 00 00 00 00 00 00 00 00 00 00 00 00 00 00 00 00 00 00 fe 4f 
[11:45:26-741]eeprom read: 723 page
[11:45:26-757]00 00 00 00 00 00 00 00 00 00 00 00 00 00 00 00 00 00 00 00 00 00 00 00 00 00 00 00 00 00 fe 4f 
[11:45:26-757]eeprom read: 724 page
[11:45:26-757]00 00 00 00 00 00 00 00 00 00 00 00 00 00 00 00 00 00 00 00 00 00 00 00 00 00 00 00 00 00 fe 4f 
[11:45:26-770]eeprom read: 725 page
[11:45:26-771]00 00 00 00 00 00 00 00 00 00 00 00 00 00 00 00 00 00 00 00 00 00 00 00 00 00 00 00 00 00 fe 4f 
[11:45:26-784]eeprom read: 726 page
[11:45:26-784]00 00 00 00 00 00 00 00 00 00 00 00 00 00 00 00 00 00 00 00 00 00 00 00 00 00 00 00 00 00 fe 4f 
[11:45:26-801]eeprom read: 727 page
[11:45:26-801]00 00 00 00 00 00 00 00 00 00 00 00 00 00 00 00 00 00 00 00 00 00 00 00 00 00 00 00 00 00 fe 4f 
[11:45:26-801]eeprom read: 728 page
[11:45:26-814]00 00 00 00 00 00 00 00 00 00 00 00 00 00 00 00 00 00 00 00 00 00 00 00 00 00 00 00 00 00 fe 4f 
[11:45:26-814]eeprom read: 729 page
[11:45:26-827]00 00 00 00 00 00 00 00 00 00 00 00 00 00 00 00 00 00 00 00 00 00 00 00 00 00 00 00 00 00 fe 4f 
[11:45:26-827]eeprom read: 730 page
[11:45:26-839]00 00 00 00 00 00 00 00 00 00 00 00 00 00 00 00 00 00 00 00 00 00 00 00 00 00 00 00 00 00 fe 4f 
[11:45:26-840]eeprom read: 731 page
[11:45:26-852]00 00 00 00 00 00 00 00 00 00 00 00 00 00 00 00 00 00 00 00 00 00 00 00 00 00 00 00 00 00 fe 4f 
[11:45:26-853]eeprom read: 732 page
[11:45:26-868]00 00 00 00 00 00 00 00 00 00 00 00 00 00 00 00 00 00 00 00 00 00 00 00 00 00 00 00 00 00 fe 4f 
[11:45:26-869]eeprom read: 733 page
[11:45:26-882]00 00 00 00 00 00 00 00 00 00 00 00 00 00 00 00 00 00 00 00 00 00 00 00 00 00 00 00 00 00 fe 4f 
[11:45:26-882]eeprom read: 734 page
[11:45:26-894]00 00 00 00 00 00 00 00 00 00 00 00 00 00 00 00 00 00 00 00 00 00 00 00 00 00 00 00 00 00 fe 4f 
[11:45:26-895]eeprom read: 735 page
[11:45:26-909]00 00 00 00 00 00 00 00 00 00 00 00 00 00 00 00 00 00 00 00 00 00 00 00 00 00 00 00 00 00 fe 4f 
[11:45:26-909]limit load rc: 0
[11:45:26-910]eeprom read: 1496 page
[11:45:26-921]00 00 00 00 00 00 00 00 00 00 00 00 00 00 00 00 00 00 00 00 00 00 00 00 00 00 00 00 00 00 fe 4f 
[11:45:26-921]relay load rc: 0
[11:45:26-921]eeprom read: 1504 page
[11:45:26-936]00 00 00 00 00 00 00 00 00 00 00 00 00 00 00 00 00 00 00 00 00 00 00 00 00 00 00 00 00 00 fe 4f 
[11:45:26-936]times_enable load rc: 0
[11:45:26-937]eeprom read: 1512 page
[11:45:26-949]02 00 20 00 00 00 00 00 00 00 81 0e 2e 10 17 00 00 00 00 00 00 00 00 00 00 00 00 00 00 00 c0 53 
[11:45:26-950]eeprom read: 1513 page
[11:45:26-963]00 00 00 00 00 00 00 00 00 00 00 00 00 00 00 00 00 00 00 00 00 00 00 00 00 00 00 00 00 00 fe 4f 
[11:45:26-963]eeprom read: 1514 page
[11:45:26-976]00 00 00 00 00 00 00 00 00 00 00 00 00 00 00 00 00 00 00 00 00 00 00 00 00 00 00 00 00 00 fe 4f 
[11:45:26-976]eeprom read: 1515 page
[11:45:26-989]00 00 00 00 00 00 00 00 00 00 00 00 00 00 00 00 00 00 00 00 00 00 00 00 00 00 00 00 00 00 fe 4f 
[11:45:26-990]eeprom read: 1516 page
[11:45:27-005]00 00 00 00 00 00 00 00 00 00 00 00 00 00 00 00 00 00 00 00 00 00 00 00 00 00 00 00 00 00 fe 4f 
[11:45:27-005]eeprom read: 1517 page
[11:45:27-018]00 00 00 00 00 00 00 00 00 00 00 00 00 00 00 00 00 00 00 00 00 00 00 00 00 00 00 00 00 00 fe 4f 
[11:45:27-019]eeprom read: 1518 page
[11:45:27-031]00 00 00 00 00 00 00 00 00 00 00 00 00 00 00 00 00 00 00 00 00 00 00 00 00 00 00 00 00 00 fe 4f 
[11:45:27-032]eeprom read: 1519 page
[11:45:27-046]00 00 00 00 00 00 00 00 00 00 00 00 00 00 00 00 00 00 00 00 00 00 00 00 00 00 00 00 00 00 fe 4f 
[11:45:27-046]times load rc: 0
[11:45:27-047]eeprom read: 1576 page
[11:45:27-060]01 01 00 17 01 11 0b 10 11 17 01 11 0b 24 11 00 00 00 00 00 00 00 00 00 00 00 00 00 00 00 8c 0f 
[11:45:27-060]eeprom read: 1577 page
[11:45:27-072]01 01 00 17 01 0d 0b 28 1c 17 01 0d 0c 00 1c 00 00 00 00 00 00 00 00 00 00 00 00 00 00 00 f2 a6 
[11:45:27-073]eeprom read: 1578 page
[11:45:27-086]01 01 01 17 01 0d 11 22 1e 17 01 0d 11 23 1e 00 00 00 00 00 00 00 00 00 00 00 00 00 00 00 c1 04 
[11:45:27-086]eeprom read: 1579 page
[11:45:27-099]01 01 00 17 01 0d 11 25 35 17 01 0d 11 39 35 00 00 00 00 00 00 00 00 00 00 00 00 00 00 00 09 b3 
[11:45:27-100]eeprom read: 1580 page
[11:45:27-114]01 01 00 17 01 0d 0a 05 39 17 01 0d 0a 19 39 00 00 00 00 00 00 00 00 00 00 00 00 00 00 00 fb 53 
[11:45:27-114]manual_relay load rc: 0
[11:45:27-115]eeprom read: 1712 page
[11:45:27-127]00 00 00 00 00 00 00 00 00 00 00 00 00 00 00 00 00 00 00 00 00 00 00 00 00 00 00 00 00 00 fe 4f 
[11:45:27-128]eeprom read: 1713 page
[11:45:27-141]00 00 00 00 00 00 00 00 00 00 00 00 00 00 00 00 00 00 00 00 00 00 00 00 00 00 00 00 00 00 fe 4f 
[11:45:27-141]eeprom read: 1714 page
[11:45:27-154]00 00 00 00 00 00 00 00 00 00 00 00 00 00 00 00 00 00 00 00 00 00 00 00 00 00 00 00 00 00 fe 4f 
[11:45:27-154]eeprom read: 1715 page
[11:45:27-170]00 00 00 00 00 00 00 00 00 00 00 00 00 00 00 00 00 00 00 00 00 00 00 00 00 00 00 00 00 00 fe 4f 
[11:45:27-170]eeprom read: 1716 page
[11:45:27-183]00 00 00 00 00 00 00 00 00 00 00 00 00 00 00 00 00 00 00 00 00 00 00 00 00 00 00 00 00 00 fe 4f 
[11:45:27-183]relay power config load rc: 0
[11:45:27-184]eeprom read: 2046 page
[11:45:27-196]00 00 00 00 00 00 00 00 01 01 00 00 00 00 02 00 ff ff ff ff 00 00 00 00 00 00 00 00 00 00 70 30 
[11:45:27-197]eeprom read: 2047 page
[11:45:27-211]00 00 00 00 00 00 00 00 01 02 00 01 00 00 02 00 ff ff ff ff 00 00 00 00 00 00 00 00 00 00 7e ff 
[11:45:27-212]firmware info load rc: 0
[11:45:27-212]config init rc: 0
[11:45:27-212]PROTOCOL handle 10002ae8
[11:45:27-223]SENSORS handle 10004758
[11:45:27-236]NETWORK handle 100063c8
[11:45:27-248]WDG handle 10006838
[11:45:27-260]RELAY handle 100084a8
[11:45:27-273]CAN_tx handle 10009518
[11:45:27-286]CAN_rx handle 1000a588
[11:45:27-299]GPRS handle 1000adf8
[11:45:27-314]Rw:  len=8, data=fb 06 00 0d 00 01 cd 93 
[11:45:27-528]Rr:  len=2, data=RTC init LSE
[11:45:27-529]RTC use LSE
[11:45:27-577]RTC use LSE OK
[11:45:27-711]feed
[11:45:28-218]feed
[11:45:28-220]device:9100334 csq:0 net:0 server:0, relay:0
[11:45:28-715]feed
[11:45:29-078]load: 2023-01-18 11:45:23
[11:45:29-221]feed
[11:45:29-221]device:9100334 csq:0 net:0 server:0, relay:0
[11:45:29-287]AHT20 read
[11:45:29-287]AHT20: status: -1, temperature: 0.000000 humidity:0.000000
[11:45:29-332]refresh status start
[11:45:29-332]sensor config model_id = 1
[11:45:29-332]sensor config model_id = 2
[11:45:29-333]refresh status end
[11:45:29-343]air blow: err: 0, rst: 0, status: -1
[11:45:29-344]Rw:  len=8, data=fb 03 00 00 00 0a d1 97 
[11:45:29-357]Rr:  len=1, data=Gr:  len=9, data=a5 5a 00 00 04 00 00 ff ff 
[11:45:29-358]Gr:  len=2, data=b8 94 
[11:45:29-366]Gw:  len=15, data=a5 5a 00 00 04 04 00 fb ff 00 8a dc 2e 9c 0d 
[11:45:29-367]
[11:45:29-720]feed
[11:45:30-228]feed
[11:45:30-230]device:9100334 csq:0 net:0 server:0, relay:0
[11:45:30-653]<Recv>:
[11:45:30-653]id = 18f51111, dlc = 6
[11:45:30-653]01 00 02 00 00 00 
[11:45:30-654]dev_relay:ch=1, os=0, ks=2, err=0, cur=0(mA)
[11:45:30-654]<Recv>:
[11:45:30-665]id = 18f51111, dlc = 6
[11:45:30-666]02 00 02 00 00 00 
[11:45:30-666]dev_relay:ch=2, os=0, ks=2, err=0, cur=0(mA)
[11:45:30-666]<Recv>:
[11:45:30-666]id = 18f51111, dlc = 6
[11:45:30-667]03 00 02 00 00 00 
[11:45:30-677]dev_relay:ch=3, os=0, ks=2, err=0, cur=0(mA)
[11:45:30-677]<Recv>:
[11:45:30-677]id = 18f51111, dlc = 6
[11:45:30-678]04 00 02 00 01 00 
[11:45:30-692]dev_relay:ch=4, os=0, ks=2, err=0, cur=10(mA)
[11:45:30-692]<Recv>:
[11:45:30-692]id = 18f51111, dlc = 6
[11:45:30-692]05 00 02 00 01 00 
[11:45:30-693]dev_relay:ch=5, os=0, ks=2, err=0, cur=10(mA)
[11:45:30-723]feed
[11:45:31-057]<Recv>:
[11:45:31-057]id = 18f00111, dlc = 8
[11:45:31-057]01 00 00 00 01 00 00 00 
[11:45:31-058]relay_H: 1.0.0.0        relay_F: 1.0.0.0
[11:45:31-163]<Recv>:
[11:45:31-163]id = 18f00211, dlc = 8
[11:45:31-163]52 45 4c 41 59 00 00 00 
[11:45:31-165]relay_PN: RELAY
[11:45:31-230]feed
[11:45:31-232]device:9100334 csq:0 net:0 server:0, relay:1
[11:45:31-268]<Recv>:
[11:45:31-269]id = 18f00311, dlc = 7
[11:45:31-269]59 04 00 00 00 00 00 
[11:45:31-270]relay_SN: 1113000000000
[11:45:31-360]air blow: err: 1, rst: 0, status: -2
[11:45:31-361]Rw:  len=8, data=fb 03 00 00 00 0a d1 97 
[11:45:31-727]Rr:  len=1, data=feed
[11:45:32-234]feed
[11:45:32-235]device:9100334 csq:0 net:0 server:0, relay:1
[11:45:33-181]feed
