
T3224 000:294 SEGGER J-Link V4.96d Log File (0000ms, 0274ms total)
T3224 000:294 DLL Compiled: Jan 29 2015 11:45:37 (0000ms, 0274ms total)
T3224 000:294 Logging started @ 2024-11-29 14:53 (0000ms, 0274ms total)
T3224 000:294 JLINK_SetWarnOutHandler(...) (0000ms, 0274ms total)
T3224 000:294 JLINK_OpenEx(...)
Firmware: J-Link ARM V8 compiled Jan 31 2018 18:34:52
Hardware: V8.00
S/N: 20080643
Feature(s): RDI,FlashDL,FlashBP,JFlash,GDBFull  returns O.K. (0267ms, 0541ms total)
T3224 000:561 JLINK_SetErrorOutHandler(...) (0000ms, 0541ms total)
T3224 000:561 JLINK_ExecCommand("ProjectFile = "f:\workSpace\project\code\S-230\S-230_APP_updateFirmware\S-230_BOOT\MDK-ARM\JLinkSettings.ini"", ...)Device "UNSPECIFIED" selected.  returns 0x00 (0005ms, 0546ms total)
T3224 000:567 JLINK_ExecCommand("Device = STM32F407VETx", ...)Device "UNSPECIFIED" selected.  returns 0x00 (0001ms, 0547ms total)
T3224 000:568 JLINK_ExecCommand("DisableConnectionTimeout", ...)  returns 0x01 (0000ms, 0547ms total)
T3224 000:568 JLINK_GetHardwareVersion()  returns 0x13880 (0000ms, 0547ms total)
T3224 000:568 JLINK_GetDLLVersion()  returns 49604 (0000ms, 0547ms total)
T3224 000:568 JLINK_GetFirmwareString(...) (0000ms, 0547ms total)
T3224 000:570 JLINK_GetDLLVersion()  returns 49604 (0000ms, 0547ms total)
T3224 000:570 JLINK_GetCompileDateTime() (0000ms, 0547ms total)
T3224 000:571 JLINK_GetFirmwareString(...) (0000ms, 0547ms total)
T3224 000:571 JLINK_GetHardwareVersion()  returns 0x13880 (0000ms, 0547ms total)
T3224 000:572 JLINK_TIF_Select(JLINKARM_TIF_SWD)  returns 0x00 (0002ms, 0549ms total)
T3224 000:574 JLINK_SetSpeed(1000) (0000ms, 0549ms total)
T3224 000:574 JLINK_GetId() >0x108 TIF>Found SWD-DP with ID 0x2BA01477 >0x0D TIF> >0x21 TIF> >0x0D TIF> >0x28 TIF> >0x0D TIF> >0x28 TIF> >0x0D TIF> >0x21 TIF> >0x0D TIF> >0x28 TIF> >0x0D TIF> >0x21 TIF> >0x0D TIF> >0x21 TIF> >0x0D TIF> >0x21 TIF> >0x0D TIF> >0x28 TIF> >0x0D TIF> >0x21 TIF> >0x0D TIF> >0x28 TIF> >0x0D TIF> >0x28 TIF> >0x0D TIF> >0x21 TIF> >0x0D TIF> >0x28 TIF> >0x0D TIF> >0x28 TIF> >0x0D TIF> >0x28 TIF> >0x0D TIF> >0x21 TIF> >0x0D TIF> >0x21 TIF> >0x0D TIF> >0x28 TIF> >0x0D TIF>
 >0x21 TIF> >0x0D TIF> >0x21 TIF>Found Cortex-M4 r0p1, Little endian. >0x0D TIF> >0x28 TIF> -- CPU_WriteMem(4 bytes @ 0xE0002000) -- CPU_ReadMem(4 bytes @ 0xE000EDF0) -- CPU_ReadMem(4 bytes @ 0xE0002000)FPUnit: 6 code (BP) slots and 2 literal slots -- CPU_ReadMem(4 bytes @ 0xE000EDFC) -- CPU_ReadMem(4 bytes @ 0xE0001000) -- CPU_WriteMem(4 bytes @ 0xE0001000) -- CPU_ReadMem(4 bytes @ 0xE000ED88) -- CPU_WriteMem(4 bytes @ 0xE000ED88) -- CPU_ReadMem(4 bytes @ 0xE000ED88)
 -- CPU_WriteMem(4 bytes @ 0xE000ED88) -- CPU_ReadMem(4 bytes @ 0xE00FF010)TPIU fitted. -- CPU_ReadMem(4 bytes @ 0xE00FF014)ETM fitted. -- CPU_ReadMem(4 bytes @ 0xE00FF018) >0x0D TIF> >0x21 TIF>  returns 0x2BA01477 (0044ms, 0593ms total)
T3224 000:618 JLINK_GetDLLVersion()  returns 49604 (0000ms, 0593ms total)
T3224 000:618 JLINK_CORE_GetFound()  returns 0xE0000FF (0000ms, 0593ms total)
T3224 000:618 JLINK_GetDebugInfo(0x100) -- Value=0xE00FF003  returns 0x00 (0000ms, 0593ms total)
T3224 000:618 JLINK_ReadMem (0xE00FF000, 0x0020 Bytes, ...) -- CPU is running -- CPU_ReadMem(32 bytes @ 0xE00FF000) - Data: 03 F0 F0 FF 03 20 F0 FF 03 30 F0 FF 03 10 F0 FF ...  returns 0x00 (0002ms, 0595ms total)
T3224 000:620 JLINK_ReadMem (0xE000EFF0, 0x0010 Bytes, ...) -- CPU is running -- CPU_ReadMem(16 bytes @ 0xE000EFF0) - Data: 0D 00 00 00 E0 00 00 00 05 00 00 00 B1 00 00 00  returns 0x00 (0001ms, 0596ms total)
T3224 000:621 JLINK_ReadMem (0xE000EFD0, 0x0020 Bytes, ...) -- CPU is running -- CPU_ReadMem(32 bytes @ 0xE000EFD0) - Data: 04 00 00 00 00 00 00 00 00 00 00 00 00 00 00 00 ...  returns 0x00 (0001ms, 0597ms total)
T3224 000:622 JLINK_ReadMem (0xE0001FF0, 0x0010 Bytes, ...) -- CPU is running -- CPU_ReadMem(16 bytes @ 0xE0001FF0) - Data: 0D 00 00 00 E0 00 00 00 05 00 00 00 B1 00 00 00  returns 0x00 (0001ms, 0598ms total)
T3224 000:623 JLINK_ReadMem (0xE0001FD0, 0x0020 Bytes, ...) -- CPU is running -- CPU_ReadMem(32 bytes @ 0xE0001FD0) - Data: 04 00 00 00 00 00 00 00 00 00 00 00 00 00 00 00 ...  returns 0x00 (0002ms, 0600ms total)
T3224 000:625 JLINK_ReadMem (0xE0002FF0, 0x0010 Bytes, ...) -- CPU is running -- CPU_ReadMem(16 bytes @ 0xE0002FF0) - Data: 0D 00 00 00 E0 00 00 00 05 00 00 00 B1 00 00 00  returns 0x00 (0001ms, 0601ms total)
T3224 000:626 JLINK_ReadMem (0xE0002FD0, 0x0020 Bytes, ...) -- CPU is running -- CPU_ReadMem(32 bytes @ 0xE0002FD0) - Data: 04 00 00 00 00 00 00 00 00 00 00 00 00 00 00 00 ...  returns 0x00 (0001ms, 0602ms total)
T3224 000:627 JLINK_ReadMem (0xE0000FF0, 0x0010 Bytes, ...) -- CPU is running -- CPU_ReadMem(16 bytes @ 0xE0000FF0) - Data: 0D 00 00 00 E0 00 00 00 05 00 00 00 B1 00 00 00  returns 0x00 (0001ms, 0603ms total)
T3224 000:628 JLINK_ReadMem (0xE0000FD0, 0x0020 Bytes, ...) -- CPU is running -- CPU_ReadMem(32 bytes @ 0xE0000FD0) - Data: 04 00 00 00 00 00 00 00 00 00 00 00 00 00 00 00 ...  returns 0x00 (0002ms, 0605ms total)
T3224 000:630 JLINK_ReadMem (0xE0040FF0, 0x0010 Bytes, ...) -- CPU is running -- CPU_ReadMem(16 bytes @ 0xE0040FF0) - Data: 0D 00 00 00 90 00 00 00 05 00 00 00 B1 00 00 00  returns 0x00 (0001ms, 0606ms total)
T3224 000:631 JLINK_ReadMem (0xE0040FD0, 0x0020 Bytes, ...) -- CPU is running -- CPU_ReadMem(32 bytes @ 0xE0040FD0) - Data: 04 00 00 00 00 00 00 00 00 00 00 00 00 00 00 00 ...  returns 0x00 (0001ms, 0607ms total)
T3224 000:632 JLINK_ReadMem (0xE0041FF0, 0x0010 Bytes, ...) -- CPU is running -- CPU_ReadMem(16 bytes @ 0xE0041FF0) - Data: 00 00 00 00 00 00 00 00 00 00 00 00 00 00 00 00  returns 0x00 (0002ms, 0609ms total)
T3224 000:634 JLINK_ReadMem (0xE0041FD0, 0x0020 Bytes, ...) -- CPU is running -- CPU_ReadMem(32 bytes @ 0xE0041FD0) - Data: 00 00 00 00 00 00 00 00 00 00 00 00 00 00 00 00 ...  returns 0x00 (0001ms, 0610ms total)
T3224 000:635 JLINK_ReadMemU32(0xE000EF40, 0x0001 Items, ...) -- CPU is running -- CPU_ReadMem(4 bytes @ 0xE000EF40) - Data: 21 00 11 10  returns 0x01 (0001ms, 0611ms total)
T3224 000:636 JLINK_ReadMemU32(0xE000EF44, 0x0001 Items, ...) -- CPU is running -- CPU_ReadMem(4 bytes @ 0xE000EF44) - Data: 11 00 00 11  returns 0x01 (0001ms, 0612ms total)
T3224 000:637 JLINK_ReadMemU32(0xE000ED00, 0x0001 Items, ...) -- CPU is running -- CPU_ReadMem(4 bytes @ 0xE000ED00) - Data: 41 C2 0F 41  returns 0x01 (0001ms, 0613ms total)
T3224 000:638 JLINK_SetResetType(JLINKARM_RESET_TYPE_NORMAL)  returns JLINKARM_RESET_TYPE_NORMAL (0000ms, 0613ms total)
T3224 000:638 JLINK_Reset() -- CPU_WriteMem(4 bytes @ 0xE0002000) -- CPU_ReadMem(4 bytes @ 0xE000EDFC) -- CPU_WriteMem(4 bytes @ 0xE000EDFC) -- CPU_ReadMem(4 bytes @ 0xE0001000) (0020ms, 0633ms total)
T3224 000:658 JLINK_Halt()  returns 0x00 (0000ms, 0633ms total)
T3224 000:658 JLINK_IsHalted()  returns TRUE (0000ms, 0633ms total)
T3224 000:658 JLINK_ReadMemU32(0xE000EDF0, 0x0001 Items, ...) -- CPU_ReadMem(4 bytes @ 0xE000EDF0) - Data: 03 00 03 00  returns 0x01 (0001ms, 0634ms total)
T3224 000:659 JLINK_WriteU32(0xE000EDF0, 0xA05F0003) -- CPU_WriteMem(4 bytes @ 0xE000EDF0)  returns 0x00 (0001ms, 0635ms total)
T3224 000:660 JLINK_WriteU32(0xE000EDFC, 0x01000000) -- CPU_WriteMem(4 bytes @ 0xE000EDFC)  returns 0x00 (0001ms, 0636ms total)
T3224 000:662 JLINK_GetHWStatus(...)  returns 0x00 (0001ms, 0637ms total)
T3224 000:663 JLINK_GetNumBPUnits(Type = 0xFFFFFF00)  returns 0x06 (0000ms, 0637ms total)
T3224 000:663 JLINK_GetNumBPUnits(Type = 0xF0)  returns 0x2000 (0000ms, 0637ms total)
T3224 000:663 JLINK_GetNumWPUnits()  returns 0x04 (0000ms, 0637ms total)
T3224 000:664 JLINK_GetSpeed()  returns 0x3E8 (0000ms, 0637ms total)
T3224 000:664 JLINK_ReadMemU32(0xE000E004, 0x0001 Items, ...) -- CPU_ReadMem(4 bytes @ 0xE000E004) - Data: 02 00 00 00  returns 0x01 (0001ms, 0638ms total)
T3224 000:665 JLINK_ReadMemU32(0xE000E004, 0x0001 Items, ...) -- CPU_ReadMem(4 bytes @ 0xE000E004) - Data: 02 00 00 00  returns 0x01 (0001ms, 0639ms total)
T3224 000:666 JLINK_WriteMem(0xE0001000, 0x001C Bytes, ...) - Data: 01 00 00 00 00 00 00 00 00 00 00 00 00 00 00 00 ... -- CPU_WriteMem(28 bytes @ 0xE0001000)  returns 0x1C (0002ms, 0641ms total)
T3224 000:668 JLINK_ReadMem (0xE0001000, 0x001C Bytes, ...) -- CPU_ReadMem(28 bytes @ 0xE0001000) - Data: 01 00 00 40 00 00 00 00 00 00 00 00 00 00 00 00 ...  returns 0x00 (0002ms, 0643ms total)
T3224 000:670 JLINK_Halt()  returns 0x00 (0000ms, 0643ms total)
T3224 000:670 JLINK_IsHalted()  returns TRUE (0000ms, 0643ms total)
T3224 000:670 JLINK_WriteMem(0x20000000, 0x0188 Bytes, ...) - Data: 00 BE 0A E0 0D 78 2D 06 68 40 08 24 40 00 00 D3 ... -- CPU_WriteMem(392 bytes @ 0x20000000)  returns 0x188 (0008ms, 0651ms total)
T3224 000:679 JLINK_WriteReg(R0, 0x08000000)  returns 0x00 (0000ms, 0651ms total)
T3224 000:679 JLINK_WriteReg(R1, 0x017D7840)  returns 0x00 (0000ms, 0651ms total)
T3224 000:679 JLINK_WriteReg(R2, 0x00000001)  returns 0x00 (0000ms, 0651ms total)
T3224 000:679 JLINK_WriteReg(R3, 0x00000000)  returns 0x00 (0000ms, 0651ms total)
T3224 000:679 JLINK_WriteReg(R4, 0x00000000)  returns 0x00 (0000ms, 0651ms total)
T3224 000:679 JLINK_WriteReg(R5, 0x00000000)  returns 0x00 (0000ms, 0651ms total)
T3224 000:679 JLINK_WriteReg(R6, 0x00000000)  returns 0x00 (0000ms, 0651ms total)
T3224 000:679 JLINK_WriteReg(R7, 0x00000000)  returns 0x00 (0000ms, 0651ms total)
T3224 000:679 JLINK_WriteReg(R8, 0x00000000)  returns 0x00 (0000ms, 0651ms total)
T3224 000:679 JLINK_WriteReg(R9, 0x20000184)  returns 0x00 (0000ms, 0651ms total)
T3224 000:679 JLINK_WriteReg(R10, 0x00000000)  returns 0x00 (0000ms, 0651ms total)
T3224 000:679 JLINK_WriteReg(R11, 0x00000000)  returns 0x00 (0000ms, 0651ms total)
T3224 000:679 JLINK_WriteReg(R12, 0x00000000)  returns 0x00 (0000ms, 0651ms total)
T3224 000:679 JLINK_WriteReg(R13 (SP), 0x20001000)  returns 0x00 (0000ms, 0651ms total)
T3224 000:679 JLINK_WriteReg(R14, 0x20000001)  returns 0x00 (0000ms, 0651ms total)
T3224 000:679 JLINK_WriteReg(R15 (PC), 0x2000005E)  returns 0x00 (0000ms, 0651ms total)
T3224 000:679 JLINK_WriteReg(XPSR, 0x01000000)  returns 0x00 (0000ms, 0651ms total)
T3224 000:679 JLINK_WriteReg(MSP, 0x20001000)  returns 0x00 (0000ms, 0651ms total)
T3224 000:679 JLINK_WriteReg(PSP, 0x20001000)  returns 0x00 (0000ms, 0651ms total)
T3224 000:679 JLINK_WriteReg(CFBP, 0x00000000)  returns 0x00 (0000ms, 0651ms total)
T3224 000:679 JLINK_SetBPEx(Addr = 0x20000000, Type = 0xFFFFFFF2) -- CPU_ReadMem(4 bytes @ 0x20000000) -- CPU_WriteMem(4 bytes @ 0x20000000) -- CPU_ReadMem(4 bytes @ 0x20000000) -- CPU_WriteMem(4 bytes @ 0x20000000) -- CPU_ReadMem(2 bytes @ 0x20000000)  returns 0x00000001 (0005ms, 0656ms total)
T3224 000:684 JLINK_Go() -- CPU_WriteMem(2 bytes @ 0x20000000) -- CPU_WriteMem(4 bytes @ 0xE0002008) -- CPU_WriteMem(4 bytes @ 0xE000200C) -- CPU_WriteMem(4 bytes @ 0xE0002010) -- CPU_WriteMem(4 bytes @ 0xE0002014) -- CPU_WriteMem(4 bytes @ 0xE0002018) -- CPU_WriteMem(4 bytes @ 0xE000201C) -- CPU_WriteMem(4 bytes @ 0xE0001004) (0009ms, 0665ms total)
T3224 000:693 JLINK_IsHalted() -- CPU_ReadMem(2 bytes @ 0x20000000)  returns TRUE (0007ms, 0672ms total)
T3224 000:700 JLINK_ReadReg(R15 (PC))  returns 0x20000000 (0000ms, 0665ms total)
T3224 000:700 JLINK_ClrBPEx(BPHandle = 0x00000001)  returns 0x00 (0000ms, 0665ms total)
T3224 000:700 JLINK_ReadReg(R0)  returns 0x00000000 (0000ms, 0665ms total)
T3224 000:700 JLINK_WriteReg(R0, 0x08000000)  returns 0x00 (0000ms, 0665ms total)
T3224 000:700 JLINK_WriteReg(R1, 0x00004000)  returns 0x00 (0000ms, 0665ms total)
T3224 000:700 JLINK_WriteReg(R2, 0x000000FF)  returns 0x00 (0000ms, 0665ms total)
T3224 000:700 JLINK_WriteReg(R3, 0x00000000)  returns 0x00 (0000ms, 0665ms total)
T3224 000:700 JLINK_WriteReg(R4, 0x00000000)  returns 0x00 (0000ms, 0665ms total)
T3224 000:700 JLINK_WriteReg(R5, 0x00000000)  returns 0x00 (0000ms, 0665ms total)
T3224 000:700 JLINK_WriteReg(R6, 0x00000000)  returns 0x00 (0000ms, 0665ms total)
T3224 000:700 JLINK_WriteReg(R7, 0x00000000)  returns 0x00 (0000ms, 0665ms total)
T3224 000:700 JLINK_WriteReg(R8, 0x00000000)  returns 0x00 (0000ms, 0665ms total)
T3224 000:700 JLINK_WriteReg(R9, 0x20000184)  returns 0x00 (0000ms, 0665ms total)
T3224 000:700 JLINK_WriteReg(R10, 0x00000000)  returns 0x00 (0000ms, 0665ms total)
T3224 000:700 JLINK_WriteReg(R11, 0x00000000)  returns 0x00 (0000ms, 0665ms total)
T3224 000:700 JLINK_WriteReg(R12, 0x00000000)  returns 0x00 (0000ms, 0665ms total)
T3224 000:700 JLINK_WriteReg(R13 (SP), 0x20001000)  returns 0x00 (0000ms, 0665ms total)
T3224 000:700 JLINK_WriteReg(R14, 0x20000001)  returns 0x00 (0000ms, 0665ms total)
T3224 000:700 JLINK_WriteReg(R15 (PC), 0x20000020)  returns 0x00 (0000ms, 0665ms total)
T3224 000:700 JLINK_WriteReg(XPSR, 0x01000000)  returns 0x00 (0000ms, 0665ms total)
T3224 000:700 JLINK_WriteReg(MSP, 0x20001000)  returns 0x00 (0000ms, 0665ms total)
T3224 000:700 JLINK_WriteReg(PSP, 0x20001000)  returns 0x00 (0000ms, 0665ms total)
T3224 000:700 JLINK_WriteReg(CFBP, 0x00000000)  returns 0x00 (0000ms, 0665ms total)
T3224 000:700 JLINK_SetBPEx(Addr = 0x20000000, Type = 0xFFFFFFF2)  returns 0x00000002 (0000ms, 0665ms total)
T3224 000:700 JLINK_Go() (0003ms, 0668ms total)
T3224 000:703 JLINK_IsHalted() -- CPU_ReadMem(2 bytes @ 0x20000000)  returns TRUE (0007ms, 0675ms total)
T3224 000:710 JLINK_ReadReg(R15 (PC))  returns 0x20000000 (0000ms, 0668ms total)
T3224 000:710 JLINK_ClrBPEx(BPHandle = 0x00000002)  returns 0x00 (0000ms, 0668ms total)
T3224 000:710 JLINK_ReadReg(R0)  returns 0x00000001 (0000ms, 0668ms total)
T3224 000:710 JLINK_WriteReg(R0, 0x08000000)  returns 0x00 (0000ms, 0668ms total)
T3224 000:710 JLINK_WriteReg(R1, 0x00004000)  returns 0x00 (0000ms, 0668ms total)
T3224 000:710 JLINK_WriteReg(R2, 0x000000FF)  returns 0x00 (0000ms, 0668ms total)
T3224 000:710 JLINK_WriteReg(R3, 0x00000000)  returns 0x00 (0000ms, 0668ms total)
T3224 000:710 JLINK_WriteReg(R4, 0x00000000)  returns 0x00 (0000ms, 0668ms total)
T3224 000:710 JLINK_WriteReg(R5, 0x00000000)  returns 0x00 (0000ms, 0668ms total)
T3224 000:710 JLINK_WriteReg(R6, 0x00000000)  returns 0x00 (0000ms, 0668ms total)
T3224 000:710 JLINK_WriteReg(R7, 0x00000000)  returns 0x00 (0000ms, 0668ms total)
T3224 000:710 JLINK_WriteReg(R8, 0x00000000)  returns 0x00 (0000ms, 0668ms total)
T3224 000:710 JLINK_WriteReg(R9, 0x20000184)  returns 0x00 (0000ms, 0668ms total)
T3224 000:710 JLINK_WriteReg(R10, 0x00000000)  returns 0x00 (0000ms, 0668ms total)
T3224 000:710 JLINK_WriteReg(R11, 0x00000000)  returns 0x00 (0000ms, 0668ms total)
T3224 000:710 JLINK_WriteReg(R12, 0x00000000)  returns 0x00 (0000ms, 0668ms total)
T3224 000:710 JLINK_WriteReg(R13 (SP), 0x20001000)  returns 0x00 (0000ms, 0668ms total)
T3224 000:710 JLINK_WriteReg(R14, 0x20000001)  returns 0x00 (0000ms, 0668ms total)
T3224 000:710 JLINK_WriteReg(R15 (PC), 0x200000C6)  returns 0x00 (0000ms, 0668ms total)
T3224 000:710 JLINK_WriteReg(XPSR, 0x01000000)  returns 0x00 (0000ms, 0668ms total)
T3224 000:710 JLINK_WriteReg(MSP, 0x20001000)  returns 0x00 (0000ms, 0668ms total)
T3224 000:710 JLINK_WriteReg(PSP, 0x20001000)  returns 0x00 (0000ms, 0668ms total)
T3224 000:710 JLINK_WriteReg(CFBP, 0x00000000)  returns 0x00 (0000ms, 0668ms total)
T3224 000:710 JLINK_SetBPEx(Addr = 0x20000000, Type = 0xFFFFFFF2)  returns 0x00000003 (0000ms, 0668ms total)
T3224 000:710 JLINK_Go() (0003ms, 0671ms total)
T3224 000:713 JLINK_IsHalted()  returns FALSE (0001ms, 0672ms total)
T3224 000:721 JLINK_IsHalted()  returns FALSE (0001ms, 0672ms total)
T3224 000:724 JLINK_IsHalted()  returns FALSE (0001ms, 0672ms total)
T3224 000:727 JLINK_IsHalted()  returns FALSE (0000ms, 0671ms total)
T3224 000:729 JLINK_IsHalted()  returns FALSE (0000ms, 0671ms total)
T3224 000:731 JLINK_IsHalted()  returns FALSE (0001ms, 0672ms total)
T3224 000:734 JLINK_IsHalted()  returns FALSE (0001ms, 0672ms total)
T3224 000:737 JLINK_IsHalted()  returns FALSE (0001ms, 0672ms total)
T3224 000:740 JLINK_IsHalted()  returns FALSE (0000ms, 0671ms total)
T3224 000:743 JLINK_IsHalted()  returns FALSE (0000ms, 0671ms total)
T3224 000:746 JLINK_IsHalted()  returns FALSE (0001ms, 0672ms total)
T3224 000:749 JLINK_IsHalted()  returns FALSE (0001ms, 0672ms total)
T3224 000:752 JLINK_IsHalted()  returns FALSE (0001ms, 0672ms total)
T3224 000:755 JLINK_IsHalted()  returns FALSE (0001ms, 0672ms total)
T3224 000:758 JLINK_IsHalted()  returns FALSE (0001ms, 0672ms total)
T3224 000:761 JLINK_IsHalted()  returns FALSE (0000ms, 0671ms total)
T3224 000:764 JLINK_IsHalted()  returns FALSE (0001ms, 0672ms total)
T3224 000:767 JLINK_IsHalted()  returns FALSE (0001ms, 0672ms total)
T3224 000:770 JLINK_IsHalted()  returns FALSE (0000ms, 0671ms total)
T3224 000:772 JLINK_IsHalted()  returns FALSE (0001ms, 0672ms total)
T3224 000:775 JLINK_IsHalted()  returns FALSE (0001ms, 0672ms total)
T3224 000:778 JLINK_IsHalted()  returns FALSE (0000ms, 0671ms total)
T3224 000:781 JLINK_IsHalted()  returns FALSE (0001ms, 0672ms total)
T3224 000:784 JLINK_IsHalted()  returns FALSE (0001ms, 0672ms total)
T3224 000:787 JLINK_IsHalted()  returns FALSE (0000ms, 0671ms total)
T3224 000:790 JLINK_IsHalted()  returns FALSE (0001ms, 0672ms total)
T3224 000:793 JLINK_IsHalted()  returns FALSE (0000ms, 0671ms total)
T3224 000:796 JLINK_IsHalted()  returns FALSE (0000ms, 0671ms total)
T3224 000:798 JLINK_IsHalted()  returns FALSE (0000ms, 0671ms total)
T3224 000:800 JLINK_IsHalted()  returns FALSE (0000ms, 0671ms total)
T3224 000:803 JLINK_IsHalted()  returns FALSE (0000ms, 0671ms total)
T3224 000:805 JLINK_IsHalted()  returns FALSE (0000ms, 0671ms total)
T3224 000:807 JLINK_IsHalted()  returns FALSE (0000ms, 0671ms total)
T3224 000:809 JLINK_IsHalted()  returns FALSE (0001ms, 0672ms total)
T3224 000:812 JLINK_IsHalted()  returns FALSE (0001ms, 0672ms total)
T3224 000:815 JLINK_IsHalted()  returns FALSE (0000ms, 0671ms total)
T3224 000:818 JLINK_IsHalted()  returns FALSE (0000ms, 0671ms total)
T3224 000:821 JLINK_IsHalted()  returns FALSE (0000ms, 0671ms total)
T3224 000:824 JLINK_IsHalted()  returns FALSE (0000ms, 0671ms total)
T3224 000:827 JLINK_IsHalted()  returns FALSE (0000ms, 0671ms total)
T3224 000:830 JLINK_IsHalted()  returns FALSE (0000ms, 0671ms total)
T3224 000:832 JLINK_IsHalted()  returns FALSE (0000ms, 0671ms total)
T3224 000:835 JLINK_IsHalted()  returns FALSE (0001ms, 0672ms total)
T3224 000:838 JLINK_IsHalted()  returns FALSE (0000ms, 0671ms total)
T3224 000:841 JLINK_IsHalted()  returns FALSE (0001ms, 0672ms total)
T3224 000:844 JLINK_IsHalted()  returns FALSE (0001ms, 0672ms total)
T3224 000:847 JLINK_IsHalted()  returns FALSE (0000ms, 0671ms total)
T3224 000:850 JLINK_IsHalted()  returns FALSE (0000ms, 0671ms total)
T3224 000:853 JLINK_IsHalted()  returns FALSE (0000ms, 0671ms total)
T3224 000:856 JLINK_IsHalted()  returns FALSE (0001ms, 0672ms total)
T3224 000:859 JLINK_IsHalted()  returns FALSE (0000ms, 0671ms total)
T3224 000:861 JLINK_IsHalted()  returns FALSE (0001ms, 0672ms total)
T3224 000:864 JLINK_IsHalted()  returns FALSE (0000ms, 0671ms total)
T3224 000:866 JLINK_IsHalted()  returns FALSE (0001ms, 0672ms total)
T3224 000:869 JLINK_IsHalted()  returns FALSE (0001ms, 0672ms total)
T3224 000:872 JLINK_IsHalted() -- CPU_ReadMem(2 bytes @ 0x20000000)  returns TRUE (0006ms, 0677ms total)
T3224 000:878 JLINK_ReadReg(R15 (PC))  returns 0x20000000 (0000ms, 0671ms total)
T3224 000:878 JLINK_ClrBPEx(BPHandle = 0x00000003)  returns 0x00 (0000ms, 0671ms total)
T3224 000:878 JLINK_ReadReg(R0)  returns 0x00000000 (0000ms, 0671ms total)
T3224 000:878 JLINK_WriteReg(R0, 0x08004000)  returns 0x00 (0000ms, 0671ms total)
T3224 000:878 JLINK_WriteReg(R1, 0x00004000)  returns 0x00 (0000ms, 0671ms total)
T3224 000:878 JLINK_WriteReg(R2, 0x000000FF)  returns 0x00 (0000ms, 0671ms total)
T3224 000:878 JLINK_WriteReg(R3, 0x00000000)  returns 0x00 (0000ms, 0671ms total)
T3224 000:878 JLINK_WriteReg(R4, 0x00000000)  returns 0x00 (0000ms, 0671ms total)
T3224 000:878 JLINK_WriteReg(R5, 0x00000000)  returns 0x00 (0000ms, 0671ms total)
T3224 000:878 JLINK_WriteReg(R6, 0x00000000)  returns 0x00 (0000ms, 0671ms total)
T3224 000:878 JLINK_WriteReg(R7, 0x00000000)  returns 0x00 (0000ms, 0671ms total)
T3224 000:878 JLINK_WriteReg(R8, 0x00000000)  returns 0x00 (0000ms, 0671ms total)
T3224 000:878 JLINK_WriteReg(R9, 0x20000184)  returns 0x00 (0000ms, 0671ms total)
T3224 000:878 JLINK_WriteReg(R10, 0x00000000)  returns 0x00 (0000ms, 0671ms total)
T3224 000:878 JLINK_WriteReg(R11, 0x00000000)  returns 0x00 (0000ms, 0671ms total)
T3224 000:878 JLINK_WriteReg(R12, 0x00000000)  returns 0x00 (0000ms, 0671ms total)
T3224 000:878 JLINK_WriteReg(R13 (SP), 0x20001000)  returns 0x00 (0000ms, 0671ms total)
T3224 000:878 JLINK_WriteReg(R14, 0x20000001)  returns 0x00 (0000ms, 0671ms total)
T3224 000:878 JLINK_WriteReg(R15 (PC), 0x20000020)  returns 0x00 (0000ms, 0671ms total)
T3224 000:878 JLINK_WriteReg(XPSR, 0x01000000)  returns 0x00 (0000ms, 0671ms total)
T3224 000:878 JLINK_WriteReg(MSP, 0x20001000)  returns 0x00 (0000ms, 0671ms total)
T3224 000:878 JLINK_WriteReg(PSP, 0x20001000)  returns 0x00 (0000ms, 0671ms total)
T3224 000:879 JLINK_WriteReg(CFBP, 0x00000000)  returns 0x00 (0000ms, 0672ms total)
T3224 000:879 JLINK_SetBPEx(Addr = 0x20000000, Type = 0xFFFFFFF2)  returns 0x00000004 (0000ms, 0672ms total)
T3224 000:879 JLINK_Go() (0003ms, 0675ms total)
T3224 000:882 JLINK_IsHalted() -- CPU_ReadMem(2 bytes @ 0x20000000)  returns TRUE (0006ms, 0681ms total)
T3224 000:888 JLINK_ReadReg(R15 (PC))  returns 0x20000000 (0000ms, 0675ms total)
T3224 000:888 JLINK_ClrBPEx(BPHandle = 0x00000004)  returns 0x00 (0000ms, 0675ms total)
T3224 000:888 JLINK_ReadReg(R0)  returns 0x00000001 (0000ms, 0675ms total)
T3224 000:888 JLINK_WriteReg(R0, 0x08004000)  returns 0x00 (0000ms, 0675ms total)
T3224 000:888 JLINK_WriteReg(R1, 0x00004000)  returns 0x00 (0000ms, 0675ms total)
T3224 000:888 JLINK_WriteReg(R2, 0x000000FF)  returns 0x00 (0000ms, 0675ms total)
T3224 000:888 JLINK_WriteReg(R3, 0x00000000)  returns 0x00 (0000ms, 0675ms total)
T3224 000:888 JLINK_WriteReg(R4, 0x00000000)  returns 0x00 (0000ms, 0675ms total)
T3224 000:888 JLINK_WriteReg(R5, 0x00000000)  returns 0x00 (0000ms, 0675ms total)
T3224 000:888 JLINK_WriteReg(R6, 0x00000000)  returns 0x00 (0000ms, 0675ms total)
T3224 000:888 JLINK_WriteReg(R7, 0x00000000)  returns 0x00 (0000ms, 0675ms total)
T3224 000:888 JLINK_WriteReg(R8, 0x00000000)  returns 0x00 (0000ms, 0675ms total)
T3224 000:888 JLINK_WriteReg(R9, 0x20000184)  returns 0x00 (0000ms, 0675ms total)
T3224 000:888 JLINK_WriteReg(R10, 0x00000000)  returns 0x00 (0000ms, 0675ms total)
T3224 000:888 JLINK_WriteReg(R11, 0x00000000)  returns 0x00 (0001ms, 0676ms total)
T3224 000:889 JLINK_WriteReg(R12, 0x00000000)  returns 0x00 (0000ms, 0676ms total)
T3224 000:889 JLINK_WriteReg(R13 (SP), 0x20001000)  returns 0x00 (0000ms, 0676ms total)
T3224 000:889 JLINK_WriteReg(R14, 0x20000001)  returns 0x00 (0000ms, 0676ms total)
T3224 000:889 JLINK_WriteReg(R15 (PC), 0x200000C6)  returns 0x00 (0000ms, 0676ms total)
T3224 000:889 JLINK_WriteReg(XPSR, 0x01000000)  returns 0x00 (0000ms, 0676ms total)
T3224 000:889 JLINK_WriteReg(MSP, 0x20001000)  returns 0x00 (0000ms, 0676ms total)
T3224 000:889 JLINK_WriteReg(PSP, 0x20001000)  returns 0x00 (0000ms, 0676ms total)
T3224 000:889 JLINK_WriteReg(CFBP, 0x00000000)  returns 0x00 (0000ms, 0676ms total)
T3224 000:889 JLINK_SetBPEx(Addr = 0x20000000, Type = 0xFFFFFFF2)  returns 0x00000005 (0000ms, 0676ms total)
T3224 000:889 JLINK_Go() (0002ms, 0678ms total)
T3224 000:891 JLINK_IsHalted()  returns FALSE (0001ms, 0679ms total)
T3224 000:894 JLINK_IsHalted()  returns FALSE (0000ms, 0678ms total)
T3224 000:897 JLINK_IsHalted()  returns FALSE (0000ms, 0678ms total)
T3224 000:900 JLINK_IsHalted()  returns FALSE (0000ms, 0678ms total)
T3224 000:903 JLINK_IsHalted()  returns FALSE (0000ms, 0678ms total)
T3224 000:906 JLINK_IsHalted()  returns FALSE (0000ms, 0678ms total)
T3224 000:908 JLINK_IsHalted()  returns FALSE (0000ms, 0678ms total)
T3224 000:911 JLINK_IsHalted()  returns FALSE (0000ms, 0678ms total)
T3224 000:913 JLINK_IsHalted()  returns FALSE (0001ms, 0679ms total)
T3224 000:916 JLINK_IsHalted()  returns FALSE (0000ms, 0678ms total)
T3224 000:919 JLINK_IsHalted()  returns FALSE (0000ms, 0678ms total)
T3224 000:921 JLINK_IsHalted()  returns FALSE (0001ms, 0679ms total)
T3224 000:924 JLINK_IsHalted()  returns FALSE (0000ms, 0678ms total)
T3224 000:928 JLINK_IsHalted()  returns FALSE (0000ms, 0678ms total)
T3224 000:931 JLINK_IsHalted()  returns FALSE (0001ms, 0679ms total)
T3224 000:933 JLINK_IsHalted()  returns FALSE (0001ms, 0679ms total)
T3224 000:936 JLINK_IsHalted()  returns FALSE (0000ms, 0678ms total)
T3224 000:939 JLINK_IsHalted()  returns FALSE (0001ms, 0679ms total)
T3224 000:942 JLINK_IsHalted()  returns FALSE (0001ms, 0679ms total)
T3224 000:945 JLINK_IsHalted()  returns FALSE (0001ms, 0679ms total)
T3224 000:948 JLINK_IsHalted()  returns FALSE (0001ms, 0679ms total)
T3224 000:951 JLINK_IsHalted()  returns FALSE (0001ms, 0679ms total)
T3224 000:954 JLINK_IsHalted()  returns FALSE (0001ms, 0679ms total)
T3224 000:957 JLINK_IsHalted()  returns FALSE (0001ms, 0679ms total)
T3224 000:960 JLINK_IsHalted()  returns FALSE (0001ms, 0679ms total)
T3224 000:963 JLINK_IsHalted()  returns FALSE (0000ms, 0678ms total)
T3224 000:966 JLINK_IsHalted()  returns FALSE (0000ms, 0678ms total)
T3224 000:968 JLINK_IsHalted()  returns FALSE (0000ms, 0678ms total)
T3224 000:970 JLINK_IsHalted()  returns FALSE (0000ms, 0678ms total)
T3224 000:973 JLINK_IsHalted()  returns FALSE (0001ms, 0679ms total)
T3224 000:976 JLINK_IsHalted()  returns FALSE (0001ms, 0679ms total)
T3224 000:979 JLINK_IsHalted()  returns FALSE (0000ms, 0678ms total)
T3224 000:982 JLINK_IsHalted()  returns FALSE (0001ms, 0679ms total)
T3224 000:985 JLINK_IsHalted()  returns FALSE (0000ms, 0678ms total)
T3224 000:988 JLINK_IsHalted()  returns FALSE (0001ms, 0679ms total)
T3224 000:991 JLINK_IsHalted()  returns FALSE (0000ms, 0678ms total)
T3224 000:993 JLINK_IsHalted()  returns FALSE (0000ms, 0678ms total)
T3224 000:995 JLINK_IsHalted()  returns FALSE (0001ms, 0679ms total)
T3224 000:998 JLINK_IsHalted()  returns FALSE (0001ms, 0679ms total)
T3224 001:001 JLINK_IsHalted()  returns FALSE (0001ms, 0679ms total)
T3224 001:004 JLINK_IsHalted()  returns FALSE (0001ms, 0679ms total)
T3224 001:007 JLINK_IsHalted()  returns FALSE (0000ms, 0678ms total)
T3224 001:009 JLINK_IsHalted() -- CPU_ReadMem(2 bytes @ 0x20000000)  returns TRUE (0006ms, 0684ms total)
T3224 001:015 JLINK_ReadReg(R15 (PC))  returns 0x20000000 (0000ms, 0678ms total)
T3224 001:015 JLINK_ClrBPEx(BPHandle = 0x00000005)  returns 0x00 (0000ms, 0678ms total)
T3224 001:015 JLINK_ReadReg(R0)  returns 0x00000000 (0000ms, 0678ms total)
T3224 001:016 JLINK_WriteReg(R0, 0x00000001)  returns 0x00 (0000ms, 0678ms total)
T3224 001:016 JLINK_WriteReg(R1, 0x00004000)  returns 0x00 (0000ms, 0678ms total)
T3224 001:016 JLINK_WriteReg(R2, 0x000000FF)  returns 0x00 (0000ms, 0678ms total)
T3224 001:016 JLINK_WriteReg(R3, 0x00000000)  returns 0x00 (0000ms, 0678ms total)
T3224 001:016 JLINK_WriteReg(R4, 0x00000000)  returns 0x00 (0000ms, 0678ms total)
T3224 001:016 JLINK_WriteReg(R5, 0x00000000)  returns 0x00 (0000ms, 0678ms total)
T3224 001:016 JLINK_WriteReg(R6, 0x00000000)  returns 0x00 (0000ms, 0678ms total)
T3224 001:016 JLINK_WriteReg(R7, 0x00000000)  returns 0x00 (0000ms, 0678ms total)
T3224 001:016 JLINK_WriteReg(R8, 0x00000000)  returns 0x00 (0000ms, 0678ms total)
T3224 001:016 JLINK_WriteReg(R9, 0x20000184)  returns 0x00 (0000ms, 0678ms total)
T3224 001:016 JLINK_WriteReg(R10, 0x00000000)  returns 0x00 (0000ms, 0678ms total)
T3224 001:016 JLINK_WriteReg(R11, 0x00000000)  returns 0x00 (0000ms, 0678ms total)
T3224 001:016 JLINK_WriteReg(R12, 0x00000000)  returns 0x00 (0000ms, 0678ms total)
T3224 001:016 JLINK_WriteReg(R13 (SP), 0x20001000)  returns 0x00 (0000ms, 0678ms total)
T3224 001:016 JLINK_WriteReg(R14, 0x20000001)  returns 0x00 (0000ms, 0678ms total)
T3224 001:016 JLINK_WriteReg(R15 (PC), 0x2000008C)  returns 0x00 (0000ms, 0678ms total)
T3224 001:016 JLINK_WriteReg(XPSR, 0x01000000)  returns 0x00 (0000ms, 0678ms total)
T3224 001:016 JLINK_WriteReg(MSP, 0x20001000)  returns 0x00 (0000ms, 0678ms total)
T3224 001:016 JLINK_WriteReg(PSP, 0x20001000)  returns 0x00 (0000ms, 0678ms total)
T3224 001:016 JLINK_WriteReg(CFBP, 0x00000000)  returns 0x00 (0000ms, 0678ms total)
T3224 001:016 JLINK_SetBPEx(Addr = 0x20000000, Type = 0xFFFFFFF2)  returns 0x00000006 (0000ms, 0678ms total)
T3224 001:016 JLINK_Go() (0003ms, 0681ms total)
T3224 001:019 JLINK_IsHalted() -- CPU_ReadMem(2 bytes @ 0x20000000)  returns TRUE (0007ms, 0688ms total)
T3224 001:026 JLINK_ReadReg(R15 (PC))  returns 0x20000000 (0000ms, 0681ms total)
T3224 001:026 JLINK_ClrBPEx(BPHandle = 0x00000006)  returns 0x00 (0000ms, 0681ms total)
T3224 001:026 JLINK_ReadReg(R0)  returns 0x00000000 (0000ms, 0681ms total)
T3224 001:078 JLINK_WriteMem(0x20000000, 0x0188 Bytes, ...) - Data: 00 BE 0A E0 0D 78 2D 06 68 40 08 24 40 00 00 D3 ... -- CPU_WriteMem(392 bytes @ 0x20000000)  returns 0x188 (0007ms, 0688ms total)
T3224 001:085 JLINK_WriteReg(R0, 0x08000000)  returns 0x00 (0000ms, 0688ms total)
T3224 001:085 JLINK_WriteReg(R1, 0x017D7840)  returns 0x00 (0000ms, 0688ms total)
T3224 001:085 JLINK_WriteReg(R2, 0x00000002)  returns 0x00 (0000ms, 0688ms total)
T3224 001:085 JLINK_WriteReg(R3, 0x00000000)  returns 0x00 (0000ms, 0688ms total)
T3224 001:085 JLINK_WriteReg(R4, 0x00000000)  returns 0x00 (0000ms, 0688ms total)
T3224 001:085 JLINK_WriteReg(R5, 0x00000000)  returns 0x00 (0000ms, 0688ms total)
T3224 001:085 JLINK_WriteReg(R6, 0x00000000)  returns 0x00 (0000ms, 0688ms total)
T3224 001:085 JLINK_WriteReg(R7, 0x00000000)  returns 0x00 (0000ms, 0688ms total)
T3224 001:085 JLINK_WriteReg(R8, 0x00000000)  returns 0x00 (0000ms, 0688ms total)
T3224 001:085 JLINK_WriteReg(R9, 0x20000184)  returns 0x00 (0000ms, 0688ms total)
T3224 001:085 JLINK_WriteReg(R10, 0x00000000)  returns 0x00 (0000ms, 0688ms total)
T3224 001:085 JLINK_WriteReg(R11, 0x00000000)  returns 0x00 (0000ms, 0688ms total)
T3224 001:085 JLINK_WriteReg(R12, 0x00000000)  returns 0x00 (0000ms, 0688ms total)
T3224 001:085 JLINK_WriteReg(R13 (SP), 0x20001000)  returns 0x00 (0000ms, 0688ms total)
T3224 001:085 JLINK_WriteReg(R14, 0x20000001)  returns 0x00 (0000ms, 0688ms total)
T3224 001:085 JLINK_WriteReg(R15 (PC), 0x2000005E)  returns 0x00 (0001ms, 0689ms total)
T3224 001:086 JLINK_WriteReg(XPSR, 0x01000000)  returns 0x00 (0000ms, 0689ms total)
T3224 001:086 JLINK_WriteReg(MSP, 0x20001000)  returns 0x00 (0000ms, 0689ms total)
T3224 001:086 JLINK_WriteReg(PSP, 0x20001000)  returns 0x00 (0000ms, 0689ms total)
T3224 001:086 JLINK_WriteReg(CFBP, 0x00000000)  returns 0x00 (0000ms, 0689ms total)
T3224 001:086 JLINK_SetBPEx(Addr = 0x20000000, Type = 0xFFFFFFF2) -- CPU_ReadMem(4 bytes @ 0x20000000) -- CPU_WriteMem(4 bytes @ 0x20000000) -- CPU_ReadMem(4 bytes @ 0x20000000) -- CPU_WriteMem(4 bytes @ 0x20000000) -- CPU_ReadMem(2 bytes @ 0x20000000)  returns 0x00000007 (0005ms, 0694ms total)
T3224 001:091 JLINK_Go() -- CPU_WriteMem(2 bytes @ 0x20000000) (0003ms, 0697ms total)
T3224 001:094 JLINK_IsHalted() -- CPU_ReadMem(2 bytes @ 0x20000000)  returns TRUE (0007ms, 0704ms total)
T3224 001:101 JLINK_ReadReg(R15 (PC))  returns 0x20000000 (0000ms, 0697ms total)
T3224 001:101 JLINK_ClrBPEx(BPHandle = 0x00000007)  returns 0x00 (0000ms, 0697ms total)
T3224 001:101 JLINK_ReadReg(R0)  returns 0x00000000 (0000ms, 0697ms total)
T3224 001:101 JLINK_WriteMem(0x20000188, 0x0400 Bytes, ...) - Data: 18 0A 00 20 9D 01 00 08 C5 37 00 08 93 35 00 08 ... -- CPU_WriteMem(1024 bytes @ 0x20000188)  returns 0x400 (0018ms, 0715ms total)
T3224 001:119 JLINK_WriteReg(R0, 0x08000000)  returns 0x00 (0000ms, 0715ms total)
T3224 001:119 JLINK_WriteReg(R1, 0x00000400)  returns 0x00 (0000ms, 0715ms total)
T3224 001:119 JLINK_WriteReg(R2, 0x20000188)  returns 0x00 (0000ms, 0715ms total)
T3224 001:119 JLINK_WriteReg(R3, 0x00000000)  returns 0x00 (0000ms, 0715ms total)
T3224 001:119 JLINK_WriteReg(R4, 0x00000000)  returns 0x00 (0000ms, 0715ms total)
T3224 001:119 JLINK_WriteReg(R5, 0x00000000)  returns 0x00 (0000ms, 0715ms total)
T3224 001:119 JLINK_WriteReg(R6, 0x00000000)  returns 0x00 (0000ms, 0715ms total)
T3224 001:119 JLINK_WriteReg(R7, 0x00000000)  returns 0x00 (0000ms, 0715ms total)
T3224 001:119 JLINK_WriteReg(R8, 0x00000000)  returns 0x00 (0000ms, 0715ms total)
T3224 001:119 JLINK_WriteReg(R9, 0x20000184)  returns 0x00 (0000ms, 0715ms total)
T3224 001:119 JLINK_WriteReg(R10, 0x00000000)  returns 0x00 (0000ms, 0715ms total)
T3224 001:119 JLINK_WriteReg(R11, 0x00000000)  returns 0x00 (0001ms, 0716ms total)
T3224 001:120 JLINK_WriteReg(R12, 0x00000000)  returns 0x00 (0000ms, 0716ms total)
T3224 001:120 JLINK_WriteReg(R13 (SP), 0x20001000)  returns 0x00 (0000ms, 0716ms total)
T3224 001:120 JLINK_WriteReg(R14, 0x20000001)  returns 0x00 (0000ms, 0716ms total)
T3224 001:120 JLINK_WriteReg(R15 (PC), 0x20000112)  returns 0x00 (0000ms, 0716ms total)
T3224 001:120 JLINK_WriteReg(XPSR, 0x01000000)  returns 0x00 (0000ms, 0716ms total)
T3224 001:120 JLINK_WriteReg(MSP, 0x20001000)  returns 0x00 (0000ms, 0716ms total)
T3224 001:120 JLINK_WriteReg(PSP, 0x20001000)  returns 0x00 (0000ms, 0716ms total)
T3224 001:120 JLINK_WriteReg(CFBP, 0x00000000)  returns 0x00 (0000ms, 0716ms total)
T3224 001:120 JLINK_SetBPEx(Addr = 0x20000000, Type = 0xFFFFFFF2)  returns 0x00000008 (0000ms, 0716ms total)
T3224 001:120 JLINK_Go() (0002ms, 0718ms total)
T3224 001:123 JLINK_IsHalted()  returns FALSE (0001ms, 0719ms total)
T3224 001:126 JLINK_IsHalted()  returns FALSE (0000ms, 0718ms total)
T3224 001:129 JLINK_IsHalted()  returns FALSE (0001ms, 0719ms total)
T3224 001:132 JLINK_IsHalted()  returns FALSE (0000ms, 0718ms total)
T3224 001:135 JLINK_IsHalted()  returns FALSE (0000ms, 0718ms total)
T3224 001:138 JLINK_IsHalted() -- CPU_ReadMem(2 bytes @ 0x20000000)  returns TRUE (0006ms, 0724ms total)
T3224 001:144 JLINK_ReadReg(R15 (PC))  returns 0x20000000 (0000ms, 0718ms total)
T3224 001:144 JLINK_ClrBPEx(BPHandle = 0x00000008)  returns 0x00 (0000ms, 0718ms total)
T3224 001:144 JLINK_ReadReg(R0)  returns 0x00000000 (0000ms, 0718ms total)
T3224 001:144 JLINK_WriteMem(0x20000188, 0x0400 Bytes, ...) - Data: 42 4F 4F 54 5F 56 33 2E 30 2E 31 00 00 00 00 00 ... -- CPU_WriteMem(1024 bytes @ 0x20000188)  returns 0x400 (0019ms, 0737ms total)
T3224 001:163 JLINK_WriteReg(R0, 0x08000400)  returns 0x00 (0000ms, 0737ms total)
T3224 001:163 JLINK_WriteReg(R1, 0x00000400)  returns 0x00 (0000ms, 0737ms total)
T3224 001:163 JLINK_WriteReg(R2, 0x20000188)  returns 0x00 (0000ms, 0737ms total)
T3224 001:163 JLINK_WriteReg(R3, 0x00000000)  returns 0x00 (0000ms, 0737ms total)
T3224 001:163 JLINK_WriteReg(R4, 0x00000000)  returns 0x00 (0000ms, 0737ms total)
T3224 001:163 JLINK_WriteReg(R5, 0x00000000)  returns 0x00 (0000ms, 0737ms total)
T3224 001:163 JLINK_WriteReg(R6, 0x00000000)  returns 0x00 (0000ms, 0737ms total)
T3224 001:163 JLINK_WriteReg(R7, 0x00000000)  returns 0x00 (0000ms, 0737ms total)
T3224 001:163 JLINK_WriteReg(R8, 0x00000000)  returns 0x00 (0000ms, 0737ms total)
T3224 001:163 JLINK_WriteReg(R9, 0x20000184)  returns 0x00 (0000ms, 0737ms total)
T3224 001:163 JLINK_WriteReg(R10, 0x00000000)  returns 0x00 (0000ms, 0737ms total)
T3224 001:163 JLINK_WriteReg(R11, 0x00000000)  returns 0x00 (0000ms, 0737ms total)
T3224 001:163 JLINK_WriteReg(R12, 0x00000000)  returns 0x00 (0000ms, 0737ms total)
T3224 001:163 JLINK_WriteReg(R13 (SP), 0x20001000)  returns 0x00 (0000ms, 0737ms total)
T3224 001:163 JLINK_WriteReg(R14, 0x20000001)  returns 0x00 (0000ms, 0737ms total)
T3224 001:163 JLINK_WriteReg(R15 (PC), 0x20000112)  returns 0x00 (0000ms, 0737ms total)
T3224 001:163 JLINK_WriteReg(XPSR, 0x01000000)  returns 0x00 (0000ms, 0737ms total)
T3224 001:163 JLINK_WriteReg(MSP, 0x20001000)  returns 0x00 (0000ms, 0737ms total)
T3224 001:163 JLINK_WriteReg(PSP, 0x20001000)  returns 0x00 (0000ms, 0737ms total)
T3224 001:163 JLINK_WriteReg(CFBP, 0x00000000)  returns 0x00 (0000ms, 0737ms total)
T3224 001:163 JLINK_SetBPEx(Addr = 0x20000000, Type = 0xFFFFFFF2)  returns 0x00000009 (0000ms, 0737ms total)
T3224 001:163 JLINK_Go() (0003ms, 0740ms total)
T3224 001:166 JLINK_IsHalted()  returns FALSE (0001ms, 0741ms total)
T3224 001:169 JLINK_IsHalted()  returns FALSE (0000ms, 0740ms total)
T3224 001:171 JLINK_IsHalted()  returns FALSE (0001ms, 0741ms total)
T3224 001:174 JLINK_IsHalted()  returns FALSE (0000ms, 0740ms total)
T3224 001:177 JLINK_IsHalted()  returns FALSE (0000ms, 0740ms total)
T3224 001:180 JLINK_IsHalted()  returns FALSE (0001ms, 0741ms total)
T3224 001:183 JLINK_IsHalted() -- CPU_ReadMem(2 bytes @ 0x20000000)  returns TRUE (0006ms, 0746ms total)
T3224 001:189 JLINK_ReadReg(R15 (PC))  returns 0x20000000 (0000ms, 0740ms total)
T3224 001:189 JLINK_ClrBPEx(BPHandle = 0x00000009)  returns 0x00 (0000ms, 0740ms total)
T3224 001:189 JLINK_ReadReg(R0)  returns 0x00000000 (0000ms, 0740ms total)
T3224 001:189 JLINK_WriteMem(0x20000188, 0x0400 Bytes, ...) - Data: 10 F8 01 2B 03 E0 10 F8 01 6B 01 F8 01 6B 5B 1E ... -- CPU_WriteMem(1024 bytes @ 0x20000188)  returns 0x400 (0018ms, 0758ms total)
T3224 001:207 JLINK_WriteReg(R0, 0x08000800)  returns 0x00 (0000ms, 0758ms total)
T3224 001:207 JLINK_WriteReg(R1, 0x00000400)  returns 0x00 (0000ms, 0758ms total)
T3224 001:207 JLINK_WriteReg(R2, 0x20000188)  returns 0x00 (0000ms, 0758ms total)
T3224 001:207 JLINK_WriteReg(R3, 0x00000000)  returns 0x00 (0000ms, 0758ms total)
T3224 001:207 JLINK_WriteReg(R4, 0x00000000)  returns 0x00 (0000ms, 0758ms total)
T3224 001:207 JLINK_WriteReg(R5, 0x00000000)  returns 0x00 (0000ms, 0758ms total)
T3224 001:207 JLINK_WriteReg(R6, 0x00000000)  returns 0x00 (0000ms, 0758ms total)
T3224 001:207 JLINK_WriteReg(R7, 0x00000000)  returns 0x00 (0000ms, 0758ms total)
T3224 001:207 JLINK_WriteReg(R8, 0x00000000)  returns 0x00 (0000ms, 0758ms total)
T3224 001:207 JLINK_WriteReg(R9, 0x20000184)  returns 0x00 (0000ms, 0758ms total)
T3224 001:208 JLINK_WriteReg(R10, 0x00000000)  returns 0x00 (0000ms, 0758ms total)
T3224 001:208 JLINK_WriteReg(R11, 0x00000000)  returns 0x00 (0000ms, 0758ms total)
T3224 001:208 JLINK_WriteReg(R12, 0x00000000)  returns 0x00 (0000ms, 0758ms total)
T3224 001:208 JLINK_WriteReg(R13 (SP), 0x20001000)  returns 0x00 (0000ms, 0758ms total)
T3224 001:208 JLINK_WriteReg(R14, 0x20000001)  returns 0x00 (0000ms, 0758ms total)
T3224 001:208 JLINK_WriteReg(R15 (PC), 0x20000112)  returns 0x00 (0000ms, 0758ms total)
T3224 001:208 JLINK_WriteReg(XPSR, 0x01000000)  returns 0x00 (0000ms, 0758ms total)
T3224 001:208 JLINK_WriteReg(MSP, 0x20001000)  returns 0x00 (0000ms, 0758ms total)
T3224 001:208 JLINK_WriteReg(PSP, 0x20001000)  returns 0x00 (0000ms, 0758ms total)
T3224 001:208 JLINK_WriteReg(CFBP, 0x00000000)  returns 0x00 (0000ms, 0758ms total)
T3224 001:208 JLINK_SetBPEx(Addr = 0x20000000, Type = 0xFFFFFFF2)  returns 0x0000000A (0000ms, 0758ms total)
T3224 001:208 JLINK_Go() (0003ms, 0761ms total)
T3224 001:211 JLINK_IsHalted()  returns FALSE (0001ms, 0762ms total)
T3224 001:214 JLINK_IsHalted()  returns FALSE (0001ms, 0762ms total)
T3224 001:217 JLINK_IsHalted()  returns FALSE (0001ms, 0762ms total)
T3224 001:220 JLINK_IsHalted()  returns FALSE (0001ms, 0762ms total)
T3224 001:223 JLINK_IsHalted()  returns FALSE (0001ms, 0762ms total)
T3224 001:226 JLINK_IsHalted() -- CPU_ReadMem(2 bytes @ 0x20000000)  returns TRUE (0006ms, 0767ms total)
T3224 001:232 JLINK_ReadReg(R15 (PC))  returns 0x20000000 (0000ms, 0761ms total)
T3224 001:232 JLINK_ClrBPEx(BPHandle = 0x0000000A)  returns 0x00 (0000ms, 0761ms total)
T3224 001:232 JLINK_ReadReg(R0)  returns 0x00000000 (0001ms, 0762ms total)
T3224 001:233 JLINK_WriteMem(0x20000188, 0x0400 Bytes, ...) - Data: 08 2C 03 D1 01 25 02 20 FF F7 6E FE 01 2D 03 D1 ... -- CPU_WriteMem(1024 bytes @ 0x20000188)  returns 0x400 (0018ms, 0780ms total)
T3224 001:251 JLINK_WriteReg(R0, 0x08000C00)  returns 0x00 (0000ms, 0780ms total)
T3224 001:251 JLINK_WriteReg(R1, 0x00000400)  returns 0x00 (0000ms, 0780ms total)
T3224 001:251 JLINK_WriteReg(R2, 0x20000188)  returns 0x00 (0000ms, 0780ms total)
T3224 001:251 JLINK_WriteReg(R3, 0x00000000)  returns 0x00 (0000ms, 0780ms total)
T3224 001:251 JLINK_WriteReg(R4, 0x00000000)  returns 0x00 (0000ms, 0780ms total)
T3224 001:251 JLINK_WriteReg(R5, 0x00000000)  returns 0x00 (0000ms, 0780ms total)
T3224 001:251 JLINK_WriteReg(R6, 0x00000000)  returns 0x00 (0000ms, 0780ms total)
T3224 001:251 JLINK_WriteReg(R7, 0x00000000)  returns 0x00 (0000ms, 0780ms total)
T3224 001:251 JLINK_WriteReg(R8, 0x00000000)  returns 0x00 (0000ms, 0780ms total)
T3224 001:251 JLINK_WriteReg(R9, 0x20000184)  returns 0x00 (0000ms, 0780ms total)
T3224 001:251 JLINK_WriteReg(R10, 0x00000000)  returns 0x00 (0000ms, 0780ms total)
T3224 001:251 JLINK_WriteReg(R11, 0x00000000)  returns 0x00 (0000ms, 0780ms total)
T3224 001:251 JLINK_WriteReg(R12, 0x00000000)  returns 0x00 (0000ms, 0780ms total)
T3224 001:251 JLINK_WriteReg(R13 (SP), 0x20001000)  returns 0x00 (0000ms, 0780ms total)
T3224 001:251 JLINK_WriteReg(R14, 0x20000001)  returns 0x00 (0000ms, 0780ms total)
T3224 001:251 JLINK_WriteReg(R15 (PC), 0x20000112)  returns 0x00 (0000ms, 0780ms total)
T3224 001:251 JLINK_WriteReg(XPSR, 0x01000000)  returns 0x00 (0000ms, 0780ms total)
T3224 001:251 JLINK_WriteReg(MSP, 0x20001000)  returns 0x00 (0000ms, 0780ms total)
T3224 001:251 JLINK_WriteReg(PSP, 0x20001000)  returns 0x00 (0000ms, 0780ms total)
T3224 001:251 JLINK_WriteReg(CFBP, 0x00000000)  returns 0x00 (0000ms, 0780ms total)
T3224 001:251 JLINK_SetBPEx(Addr = 0x20000000, Type = 0xFFFFFFF2)  returns 0x0000000B (0000ms, 0780ms total)
T3224 001:251 JLINK_Go() (0003ms, 0783ms total)
T3224 001:254 JLINK_IsHalted()  returns FALSE (0001ms, 0784ms total)
T3224 001:257 JLINK_IsHalted()  returns FALSE (0000ms, 0783ms total)
T3224 001:260 JLINK_IsHalted()  returns FALSE (0001ms, 0784ms total)
T3224 001:263 JLINK_IsHalted()  returns FALSE (0000ms, 0783ms total)
T3224 001:265 JLINK_IsHalted()  returns FALSE (0000ms, 0783ms total)
T3224 001:267 JLINK_IsHalted()  returns FALSE (0000ms, 0783ms total)
T3224 001:270 JLINK_IsHalted() -- CPU_ReadMem(2 bytes @ 0x20000000)  returns TRUE (0006ms, 0789ms total)
T3224 001:276 JLINK_ReadReg(R15 (PC))  returns 0x20000000 (0000ms, 0783ms total)
T3224 001:276 JLINK_ClrBPEx(BPHandle = 0x0000000B)  returns 0x00 (0000ms, 0783ms total)
T3224 001:276 JLINK_ReadReg(R0)  returns 0x00000000 (0000ms, 0783ms total)
T3224 001:277 JLINK_WriteMem(0x20000188, 0x0400 Bytes, ...) - Data: 80 7F 00 D1 01 20 00 E0 00 BF 00 BF 70 47 00 00 ... -- CPU_WriteMem(1024 bytes @ 0x20000188)  returns 0x400 (0018ms, 0801ms total)
T3224 001:295 JLINK_WriteReg(R0, 0x08001000)  returns 0x00 (0000ms, 0801ms total)
T3224 001:295 JLINK_WriteReg(R1, 0x00000400)  returns 0x00 (0000ms, 0801ms total)
T3224 001:295 JLINK_WriteReg(R2, 0x20000188)  returns 0x00 (0000ms, 0801ms total)
T3224 001:295 JLINK_WriteReg(R3, 0x00000000)  returns 0x00 (0000ms, 0801ms total)
T3224 001:295 JLINK_WriteReg(R4, 0x00000000)  returns 0x00 (0000ms, 0801ms total)
T3224 001:295 JLINK_WriteReg(R5, 0x00000000)  returns 0x00 (0000ms, 0801ms total)
T3224 001:295 JLINK_WriteReg(R6, 0x00000000)  returns 0x00 (0000ms, 0801ms total)
T3224 001:295 JLINK_WriteReg(R7, 0x00000000)  returns 0x00 (0000ms, 0801ms total)
T3224 001:295 JLINK_WriteReg(R8, 0x00000000)  returns 0x00 (0000ms, 0801ms total)
T3224 001:295 JLINK_WriteReg(R9, 0x20000184)  returns 0x00 (0000ms, 0801ms total)
T3224 001:295 JLINK_WriteReg(R10, 0x00000000)  returns 0x00 (0000ms, 0801ms total)
T3224 001:295 JLINK_WriteReg(R11, 0x00000000)  returns 0x00 (0000ms, 0801ms total)
T3224 001:295 JLINK_WriteReg(R12, 0x00000000)  returns 0x00 (0000ms, 0801ms total)
T3224 001:295 JLINK_WriteReg(R13 (SP), 0x20001000)  returns 0x00 (0000ms, 0801ms total)
T3224 001:295 JLINK_WriteReg(R14, 0x20000001)  returns 0x00 (0000ms, 0801ms total)
T3224 001:295 JLINK_WriteReg(R15 (PC), 0x20000112)  returns 0x00 (0000ms, 0801ms total)
T3224 001:295 JLINK_WriteReg(XPSR, 0x01000000)  returns 0x00 (0000ms, 0801ms total)
T3224 001:295 JLINK_WriteReg(MSP, 0x20001000)  returns 0x00 (0000ms, 0801ms total)
T3224 001:295 JLINK_WriteReg(PSP, 0x20001000)  returns 0x00 (0000ms, 0801ms total)
T3224 001:295 JLINK_WriteReg(CFBP, 0x00000000)  returns 0x00 (0000ms, 0801ms total)
T3224 001:295 JLINK_SetBPEx(Addr = 0x20000000, Type = 0xFFFFFFF2)  returns 0x0000000C (0000ms, 0801ms total)
T3224 001:295 JLINK_Go() (0002ms, 0803ms total)
T3224 001:297 JLINK_IsHalted()  returns FALSE (0002ms, 0805ms total)
T3224 001:301 JLINK_IsHalted()  returns FALSE (0000ms, 0803ms total)
T3224 001:304 JLINK_IsHalted()  returns FALSE (0000ms, 0803ms total)
T3224 001:306 JLINK_IsHalted()  returns FALSE (0001ms, 0804ms total)
T3224 001:309 JLINK_IsHalted()  returns FALSE (0001ms, 0804ms total)
T3224 001:312 JLINK_IsHalted() -- CPU_ReadMem(2 bytes @ 0x20000000)  returns TRUE (0006ms, 0809ms total)
T3224 001:318 JLINK_ReadReg(R15 (PC))  returns 0x20000000 (0000ms, 0803ms total)
T3224 001:318 JLINK_ClrBPEx(BPHandle = 0x0000000C)  returns 0x00 (0000ms, 0803ms total)
T3224 001:318 JLINK_ReadReg(R0)  returns 0x00000000 (0000ms, 0803ms total)
T3224 001:318 JLINK_WriteMem(0x20000188, 0x0400 Bytes, ...) - Data: 99 46 DD E9 0A AB 00 25 20 68 00 F0 F7 F8 07 F0 ... -- CPU_WriteMem(1024 bytes @ 0x20000188)  returns 0x400 (0019ms, 0822ms total)
T3224 001:337 JLINK_WriteReg(R0, 0x08001400)  returns 0x00 (0000ms, 0822ms total)
T3224 001:337 JLINK_WriteReg(R1, 0x00000400)  returns 0x00 (0000ms, 0822ms total)
T3224 001:337 JLINK_WriteReg(R2, 0x20000188)  returns 0x00 (0000ms, 0822ms total)
T3224 001:337 JLINK_WriteReg(R3, 0x00000000)  returns 0x00 (0000ms, 0822ms total)
T3224 001:337 JLINK_WriteReg(R4, 0x00000000)  returns 0x00 (0000ms, 0822ms total)
T3224 001:337 JLINK_WriteReg(R5, 0x00000000)  returns 0x00 (0000ms, 0822ms total)
T3224 001:337 JLINK_WriteReg(R6, 0x00000000)  returns 0x00 (0000ms, 0822ms total)
T3224 001:337 JLINK_WriteReg(R7, 0x00000000)  returns 0x00 (0000ms, 0822ms total)
T3224 001:337 JLINK_WriteReg(R8, 0x00000000)  returns 0x00 (0000ms, 0822ms total)
T3224 001:337 JLINK_WriteReg(R9, 0x20000184)  returns 0x00 (0000ms, 0822ms total)
T3224 001:337 JLINK_WriteReg(R10, 0x00000000)  returns 0x00 (0000ms, 0822ms total)
T3224 001:337 JLINK_WriteReg(R11, 0x00000000)  returns 0x00 (0000ms, 0822ms total)
T3224 001:337 JLINK_WriteReg(R12, 0x00000000)  returns 0x00 (0000ms, 0822ms total)
T3224 001:337 JLINK_WriteReg(R13 (SP), 0x20001000)  returns 0x00 (0000ms, 0822ms total)
T3224 001:337 JLINK_WriteReg(R14, 0x20000001)  returns 0x00 (0000ms, 0822ms total)
T3224 001:337 JLINK_WriteReg(R15 (PC), 0x20000112)  returns 0x00 (0000ms, 0822ms total)
T3224 001:337 JLINK_WriteReg(XPSR, 0x01000000)  returns 0x00 (0000ms, 0822ms total)
T3224 001:337 JLINK_WriteReg(MSP, 0x20001000)  returns 0x00 (0000ms, 0822ms total)
T3224 001:337 JLINK_WriteReg(PSP, 0x20001000)  returns 0x00 (0000ms, 0822ms total)
T3224 001:337 JLINK_WriteReg(CFBP, 0x00000000)  returns 0x00 (0000ms, 0822ms total)
T3224 001:337 JLINK_SetBPEx(Addr = 0x20000000, Type = 0xFFFFFFF2)  returns 0x0000000D (0000ms, 0822ms total)
T3224 001:337 JLINK_Go() (0003ms, 0825ms total)
T3224 001:340 JLINK_IsHalted()  returns FALSE (0001ms, 0826ms total)
T3224 001:343 JLINK_IsHalted()  returns FALSE (0001ms, 0826ms total)
T3224 001:346 JLINK_IsHalted()  returns FALSE (0000ms, 0825ms total)
T3224 001:348 JLINK_IsHalted()  returns FALSE (0000ms, 0825ms total)
T3224 001:351 JLINK_IsHalted()  returns FALSE (0000ms, 0825ms total)
T3224 001:354 JLINK_IsHalted()  returns FALSE (0000ms, 0825ms total)
T3224 001:357 JLINK_IsHalted() -- CPU_ReadMem(2 bytes @ 0x20000000)  returns TRUE (0006ms, 0831ms total)
T3224 001:363 JLINK_ReadReg(R15 (PC))  returns 0x20000000 (0000ms, 0825ms total)
T3224 001:363 JLINK_ClrBPEx(BPHandle = 0x0000000D)  returns 0x00 (0000ms, 0825ms total)
T3224 001:363 JLINK_ReadReg(R0)  returns 0x00000000 (0000ms, 0825ms total)
T3224 001:363 JLINK_WriteMem(0x20000188, 0x0400 Bytes, ...) - Data: 20 68 00 68 20 F0 16 00 21 68 08 60 20 68 40 69 ... -- CPU_WriteMem(1024 bytes @ 0x20000188)  returns 0x400 (0019ms, 0844ms total)
T3224 001:382 JLINK_WriteReg(R0, 0x08001800)  returns 0x00 (0000ms, 0844ms total)
T3224 001:382 JLINK_WriteReg(R1, 0x00000400)  returns 0x00 (0000ms, 0844ms total)
T3224 001:382 JLINK_WriteReg(R2, 0x20000188)  returns 0x00 (0000ms, 0844ms total)
T3224 001:382 JLINK_WriteReg(R3, 0x00000000)  returns 0x00 (0000ms, 0844ms total)
T3224 001:382 JLINK_WriteReg(R4, 0x00000000)  returns 0x00 (0000ms, 0844ms total)
T3224 001:382 JLINK_WriteReg(R5, 0x00000000)  returns 0x00 (0000ms, 0844ms total)
T3224 001:382 JLINK_WriteReg(R6, 0x00000000)  returns 0x00 (0000ms, 0844ms total)
T3224 001:382 JLINK_WriteReg(R7, 0x00000000)  returns 0x00 (0000ms, 0844ms total)
T3224 001:382 JLINK_WriteReg(R8, 0x00000000)  returns 0x00 (0000ms, 0844ms total)
T3224 001:382 JLINK_WriteReg(R9, 0x20000184)  returns 0x00 (0000ms, 0844ms total)
T3224 001:382 JLINK_WriteReg(R10, 0x00000000)  returns 0x00 (0000ms, 0844ms total)
T3224 001:382 JLINK_WriteReg(R11, 0x00000000)  returns 0x00 (0000ms, 0844ms total)
T3224 001:382 JLINK_WriteReg(R12, 0x00000000)  returns 0x00 (0000ms, 0844ms total)
T3224 001:382 JLINK_WriteReg(R13 (SP), 0x20001000)  returns 0x00 (0000ms, 0844ms total)
T3224 001:382 JLINK_WriteReg(R14, 0x20000001)  returns 0x00 (0000ms, 0844ms total)
T3224 001:382 JLINK_WriteReg(R15 (PC), 0x20000112)  returns 0x00 (0000ms, 0844ms total)
T3224 001:382 JLINK_WriteReg(XPSR, 0x01000000)  returns 0x00 (0000ms, 0844ms total)
T3224 001:382 JLINK_WriteReg(MSP, 0x20001000)  returns 0x00 (0000ms, 0844ms total)
T3224 001:382 JLINK_WriteReg(PSP, 0x20001000)  returns 0x00 (0000ms, 0844ms total)
T3224 001:382 JLINK_WriteReg(CFBP, 0x00000000)  returns 0x00 (0000ms, 0844ms total)
T3224 001:382 JLINK_SetBPEx(Addr = 0x20000000, Type = 0xFFFFFFF2)  returns 0x0000000E (0000ms, 0844ms total)
T3224 001:382 JLINK_Go() (0003ms, 0847ms total)
